!$
! Info: Touchstone file created by Circ.  Input file=Intel_C2M_200G_2p5in_202208016_staggered.circ
!$
# Hz S RI R 50
0	0.01339938	1.892434e-24	3.731322e-05	4.228282e-23	8.109737e-05	2.632272e-22	3.730551e-05	4.219338e-23
	3.731321e-05	4.228282e-23	0.01341258	2.149107e-24	3.731801e-05	4.232211e-23	8.068724e-05	2.620384e-22
	8.115552e-05	2.63377e-22	3.7318e-05	4.232297e-23	0.01339417	1.954343e-24	3.730821e-05	4.222653e-23
	3.730551e-05	4.219425e-23	8.07454e-05	2.621892e-22	3.730821e-05	4.222653e-23	0.0134105	2.040763e-24
1e+07	0.01617182	0.004074959	2.763665e-06	1.657339e-05	0.0009483482	0.004288186	4.728967e-06	1.117821e-05
	2.763665e-06	1.65734e-05	0.01611897	0.004436725	2.231865e-06	2.217423e-05	0.0009537447	0.004348476
	0.0009483482	0.004288186	2.231865e-06	2.217423e-05	0.01609396	0.004482069	2.82758e-06	1.754431e-05
	4.728967e-06	1.117821e-05	0.0009537447	0.004348476	2.82758e-06	1.754431e-05	0.01620081	0.004107609
2e+07	0.01906597	0.005889763	6.412728e-06	1.465099e-05	0.001892301	0.008144753	3.092886e-06	6.972958e-06
	6.41273e-06	1.465099e-05	0.0194047	0.006491988	1.304505e-05	2.294345e-05	0.001902579	0.008264679
	0.001892313	0.008144741	1.304505e-05	2.294345e-05	0.01938386	0.006584142	7.464339e-06	1.617195e-05
	3.092888e-06	6.972957e-06	0.001902591	0.008264667	7.464339e-06	1.617195e-05	0.01911155	0.005947074
3e+07	0.02174679	0.006587275	1.170211e-05	1.336836e-05	0.003234027	0.01192938	2.022148e-06	6.165001e-06
	1.170211e-05	1.336836e-05	0.02238761	0.00720076	2.24286e-05	2.160457e-05	0.003252838	0.01210788
	0.003233995	0.01192941	2.24286e-05	2.160457e-05	0.02236468	0.007346428	1.35107e-05	1.490026e-05
	2.022149e-06	6.165001e-06	0.003252805	0.01210791	1.35107e-05	1.490026e-05	0.02180142	0.006668132
4e+07	0.02418237	0.006606636	1.597323e-05	1.135299e-05	0.005042585	0.01548045	2.296767e-06	5.46616e-06
	1.597323e-05	1.1353e-05	0.02506877	0.007147245	3.000109e-05	1.845646e-05	0.005073019	0.01571557
	0.005042576	0.01548047	3.000109e-05	1.845646e-05	0.02505255	0.007346462	1.839118e-05	1.269206e-05
	2.296768e-06	5.46616e-06	0.00507301	0.0157156	1.839118e-05	1.269206e-05	0.02425166	0.006705987
5e+07	0.02645526	0.0061885	1.938463e-05	8.673748e-06	0.007262694	0.01878374	3.449808e-06	4.482524e-06
	1.938463e-05	8.673746e-06	0.02754079	0.006602652	3.605479e-05	1.39531e-05	0.007307512	0.01907304
	0.007262695	0.01878375	3.605479e-05	1.39531e-05	0.02753535	0.006855281	2.229235e-05	9.688926e-06
	3.449808e-06	4.482524e-06	0.007307513	0.01907305	2.229235e-05	9.688926e-06	0.02653993	0.006302485
6e+07	0.02859254	0.005403215	2.19998e-05	5.462308e-06	0.009869559	0.02180076	4.337825e-06	3.399646e-06
	2.19998e-05	5.462309e-06	0.02983442	0.005651818	4.070131e-05	8.407676e-06	0.00993112	0.02214128
	0.00986958	0.02180075	4.070131e-05	8.407676e-06	0.02984371	0.005958023	2.528674e-05	6.058048e-06
	4.337824e-06	3.399646e-06	0.00993114	0.02214127	2.528674e-05	6.058048e-06	0.02869302	0.005528947
7e+07	0.03058478	0.004304986	2.383573e-05	1.825557e-06	0.01282954	0.0244933	4.962073e-06	2.223937e-06
	2.383572e-05	1.825561e-06	0.03194115	0.004357527	4.398186e-05	2.050624e-06	0.01290973	0.02488163
	0.01282954	0.02449329	4.398186e-05	2.050624e-06	0.03196948	0.004716929	2.739474e-05	1.929337e-06
	4.962073e-06	2.223937e-06	0.01290973	0.02488162	2.739474e-05	1.929336e-06	0.03070168	0.004439518
8e+07	0.0324254	0.002945877	2.487413e-05	-2.163169e-06	0.01610543	0.02682701	5.311853e-06	9.726098e-07
	2.487413e-05	-2.163168e-06	0.03385352	0.002776919	4.586899e-05	-4.976172e-06	0.01620557	0.02725935
	0.01610543	0.02682701	4.586899e-05	-4.976172e-06	0.03390541	0.003188887	2.859582e-05	-2.610783e-06
	5.311853e-06	9.726098e-07	0.01620557	0.02725935	2.859582e-05	-2.610783e-06	0.03255943	0.003086425
9e+07	0.03411787	0.001372093	2.504261e-05	-6.490278e-06	0.0196576	0.02877146	5.364742e-06	-3.438012e-07
	2.504261e-05	-6.490278e-06	0.03557105	0.0009568117	4.623598e-05	-1.265282e-05	0.01977845	0.02924374
	0.0196576	0.02877147	4.623598e-05	-1.265282e-05	0.03565055	0.001419945	2.880763e-05	-7.546679e-06
	5.364742e-06	-3.438013e-07	0.01977845	0.02924375	2.880763e-05	-7.546679e-06	0.03426931	0.001515437
1e+08	0.03569236	-0.0003503141	2.390251e-05	-1.155276e-05	0.02344497	0.03030005	4.983134e-06	-1.811301e-06
	2.390251e-05	-1.155276e-05	0.03710046	-0.001061118	4.430581e-05	-2.172188e-05	0.0235867	0.03080808
	0.02344497	0.03030005	4.430581e-05	-2.172188e-05	0.03721106	-0.0005488694	2.752886e-05	-1.333605e-05
	4.983134e-06	-1.811301e-06	0.0235867	0.03080808	2.752886e-05	-1.333605e-05	0.03586116	-0.000207846
1.1e+08	0.03722296	-0.002408486	2.03347e-05	-1.457339e-05	0.02744018	0.03139004	3.970968e-06	-2.595163e-06
	2.03347e-05	-1.457339e-05	0.03844049	-0.003310772	3.793428e-05	-2.722556e-05	0.02760227	0.03192924
	0.02744018	0.03139003	3.793428e-05	-2.722556e-05	0.03864926	-0.002749928	2.346e-05	-1.681002e-05
	3.970968e-06	-2.595163e-06	0.02760227	0.03192924	2.346e-05	-1.681002e-05	0.03746835	-0.002268345
1.2e+08	0.03848252	-0.004675472	1.736623e-05	-1.632516e-05	0.03155203	0.03201539	3.162028e-06	-3.032008e-06
	1.736623e-05	-1.632516e-05	0.03953732	-0.005698233	3.259862e-05	-3.043636e-05	0.03173284	0.03258138
	0.03155203	0.03201538	3.259862e-05	-3.043636e-05	0.03979625	-0.005121417	2.007328e-05	-1.88292e-05
	3.162028e-06	-3.032008e-06	0.03173284	0.03258138	2.007328e-05	-1.88292e-05	0.03875042	-0.004569227
1.3e+08	0.03951127	-0.007085723	1.5637e-05	-1.665374e-05	0.03574378	0.03217037	2.477795e-06	-3.390311e-06
	1.5637e-05	-1.665374e-05	0.04041199	-0.008195904	3.09976e-05	-2.925692e-05	0.03594108	0.032759
	0.03574378	0.03217036	3.09976e-05	-2.925692e-05	0.04069892	-0.007596969	1.82713e-05	-1.901305e-05
	2.477795e-06	-3.390311e-06	0.03594108	0.032759	1.82713e-05	-1.901305e-05	0.03977395	-0.007005742
1.4e+08	0.04031737	-0.009611449	1.472027e-05	-1.613056e-05	0.03997034	0.03185119	1.865607e-06	-3.683038e-06
	1.472027e-05	-1.613056e-05	0.04106975	-0.01078495	2.935888e-05	-2.838537e-05	0.0401813	0.03245852
	0.03997034	0.03185119	2.935888e-05	-2.838537e-05	0.04138303	-0.01015376	1.722275e-05	-1.842689e-05
	1.865607e-06	-3.683038e-06	0.0401813	0.03245852	1.722275e-05	-1.842689e-05	0.04056784	-0.009545621
1.5e+08	0.04090301	-0.01222839	1.376497e-05	-1.56948e-05	0.04418382	0.0310572	1.281445e-06	-3.873941e-06
	1.376497e-05	-1.56948e-05	0.04151201	-0.01344566	2.764924e-05	-2.767718e-05	0.04440498	0.03167963
	0.04418382	0.0310572	2.764924e-05	-2.767718e-05	0.04185809	-0.01277759	1.613071e-05	-1.794319e-05
	1.281445e-06	-3.873941e-06	0.04440498	0.03167963	1.613071e-05	-1.794319e-05	0.04114259	-0.0121696
1.6e+08	0.0412691	-0.01491325	1.278947e-05	-1.530379e-05	0.04833542	0.02979206	7.254045e-07	-3.979538e-06
	1.278947e-05	-1.530379e-05	0.04173962	-0.01615764	2.59004e-05	-2.70548e-05	0.04856276	0.03042635
	0.04833542	0.02979206	2.59004e-05	-2.70548e-05	0.04212724	-0.01545334	1.501529e-05	-1.75118e-05
	7.254045e-07	-3.979538e-06	0.04856276	0.03042634	1.501529e-05	-1.75118e-05	0.04150163	-0.01485918
1.7e+08	0.04141801	-0.01764343	1.180637e-05	-1.493171e-05	0.05237653	0.0280639	1.985511e-07	-4.012016e-06
	1.180637e-05	-1.493171e-05	0.04175516	-0.01890033	2.413521e-05	-2.647824e-05	0.05260548	0.02870731
	0.05237653	0.0280639	2.413521e-05	-2.647824e-05	0.04219204	-0.01816416	1.389036e-05	-1.71028e-05
	1.985511e-07	-4.012016e-06	0.05260548	0.02870731	1.389036e-05	-1.71028e-05	0.04164664	-0.01759491
1.8e+08	0.04135344	-0.02039762	1.082688e-05	-1.4573e-05	0.05625943	0.02588559	-6.143668e-08	-3.846785e-06
	1.082688e-05	-1.4573e-05	0.04156267	-0.02165414	2.236755e-05	-2.591572e-05	0.05648495	0.0265359
	0.05625943	0.02588559	2.236755e-05	-2.591572e-05	0.04205465	-0.02089266	1.276829e-05	-1.670883e-05
	-6.143668e-08	-3.846785e-06	0.05648495	0.02653589	1.276829e-05	-1.670883e-05	0.04157977	-0.02035734
1.9e+08	0.04108127	-0.02315583	9.855171e-06	-1.42029e-05	0.05993804	0.02327494	-2.852706e-07	-3.658265e-06
	9.855171e-06	-1.42029e-05	0.0411684	-0.02440048	2.060946e-05	-2.53329e-05	0.06015468	0.02393054
	0.05993804	0.02327494	2.060946e-05	-2.53329e-05	0.04171923	-0.0236214	1.165445e-05	-1.630196e-05
	-2.852706e-07	-3.658265e-06	0.06015468	0.02393054	1.165445e-05	-1.630196e-05	0.04130524	-0.02312722
2e+08	0.04060879	-0.02590025	8.897704e-06	-1.381119e-05	0.06336851	0.02025425	-5.026913e-07	-3.464886e-06
	8.897704e-06	-1.381119e-05	0.04058001	-0.02712278	1.88727e-05	-2.471388e-05	0.06357044	0.02091419
	0.06336851	0.02025424	1.88727e-05	-2.471388e-05	0.04119166	-0.02633379	1.055616e-05	-1.587059e-05
	-5.026913e-07	-3.464886e-06	0.06357044	0.02091419	1.055616e-05	-1.587059e-05	0.04082897	-0.02588645
2.1e+08	0.03994407	-0.02861457	7.960617e-06	-1.339216e-05	0.0665093	0.0168501	-7.116715e-07	-3.265246e-06
	7.960617e-06	-1.339216e-05	0.03980587	-0.02980591	1.716776e-05	-2.404787e-05	0.06669045	0.01751414
	0.0665093	0.0168501	1.716776e-05	-2.404787e-05	0.04047887	-0.02901487	9.480444e-06	-1.540819e-05
	-7.116715e-07	-3.265246e-06	0.06669045	0.01751414	9.480444e-06	-1.540819e-05	0.04015801	-0.02861867
2.2e+08	0.03909633	-0.03128499	7.049447e-06	-1.294212e-05	0.06932198	0.01309308	-9.104419e-07	-3.058559e-06
	7.049447e-06	-1.294212e-05	0.03885548	-0.03243711	1.550415e-05	-2.332773e-05	0.06947611	0.01376172
	0.06932198	0.01309308	1.550415e-05	-2.332773e-05	0.03958889	-0.03165116	8.433564e-06	-1.49105e-05
	-9.104419e-07	-3.058559e-06	0.06947611	0.01376172	8.433564e-06	-1.49105e-05	0.03930052	-0.03130908
2.3e+08	0.03807524	-0.03389899	6.16926e-06	-1.245907e-05	0.07177176	0.009017344	-1.097461e-06	-2.844532e-06
	6.16926e-06	-1.245907e-05	0.03773869	-0.03500492	1.389057e-05	-2.254923e-05	0.07189251	0.009691869
	0.07177176	0.009017344	1.389057e-05	-2.254923e-05	0.03853108	-0.03423056	7.421235e-06	-1.437515e-05
	-1.097461e-06	-2.844532e-06	0.07189251	0.009691869	7.421235e-06	-1.437515e-05	0.03826609	-0.03394452
2.4e+08	0.03689072	-0.03644606	5.324684e-06	-1.194226e-05	0.07382733	0.004660473	-1.271333e-06	-2.623249e-06
	5.324684e-06	-1.194226e-05	0.03646556	-0.03749978	1.233507e-05	-2.171051e-05	0.07390836	0.005342939
	0.07382733	0.004660473	1.233507e-05	-2.171051e-05	0.03731463	-0.0367433	6.448728e-06	-1.380127e-05
	-1.271333e-06	-2.623249e-06	0.07390836	0.005342939	6.448728e-06	-1.380127e-05	0.03706419	-0.03651409
2.5e+08	0.03555273	-0.03891728	4.51994e-06	-1.139205e-05	0.0754614	6.266957e-05	-1.430848e-06	-2.395092e-06
	4.51994e-06	-1.139205e-05	0.0350461	-0.03991373	1.084504e-05	-2.081148e-05	0.07549641	0.0007559375
	0.0754614	6.266942e-05	1.084504e-05	-2.081148e-05	0.03594916	-0.03918041	5.520834e-06	-1.318914e-05
	-1.430848e-06	-2.395092e-06	0.07549641	0.0007559374	5.520834e-06	-1.318914e-05	0.0357047	-0.03900787
2.6e+08	0.03407107	-0.04130512	3.758842e-06	-1.080958e-05	0.07665133	-0.004733374	-1.574967e-06	-2.160694e-06
	3.758842e-06	-1.080958e-05	0.03349011	-0.04224005	9.427199e-06	-1.985361e-05	0.07663426	-0.004025638
	0.07665133	-0.004733374	9.427199e-06	-1.985361e-05	0.03444421	-0.041535	4.641901e-06	-1.254005e-05
	-1.574967e-06	-2.160694e-06	0.07663426	-0.004025638	4.641901e-06	-1.254005e-05	0.03419757	-0.04141809
2.7e+08	0.03245552	-0.04360328	3.044798e-06	-1.01967e-05	0.07737836	-0.00968309	-1.702803e-06	-1.920878e-06
	3.044798e-06	-1.01967e-05	0.03180731	-0.04447333	8.087572e-06	-1.883955e-05	0.07730341	-0.008956463
	0.07737836	-0.00968309	8.087572e-06	-1.883955e-05	0.03280913	-0.04380142	3.815742e-06	-1.185602e-05
	-1.702803e-06	-1.920878e-06	0.07730341	-0.008956463	3.815742e-06	-1.185602e-05	0.03255253	-0.04373826
2.8e+08	0.03071506	-0.04580691	2.380833e-06	-9.5559e-06	0.07762864	-0.01474048	-1.813623e-06	-1.676633e-06
	2.380833e-06	-9.5559e-06	0.03000649	-0.04660942	6.831595e-06	-1.777309e-05	0.07749037	-0.01398976
	0.07762864	-0.01474048	6.831595e-06	-1.777309e-05	0.03105272	-0.04597471	3.045807e-06	-1.11398e-05
	-1.813623e-06	-1.676633e-06	0.07749037	-0.01398976	3.045807e-06	-1.11398e-05	0.03077881	-0.04596266
2.9e+08	0.02885872	-0.04791199	1.769531e-06	-8.890121e-06	0.07739309	-0.01985855	-1.906853e-06	-1.429074e-06
	1.769531e-06	-8.890121e-06	0.02809652	-0.0486451	5.664015e-06	-1.665889e-05	0.07718649	-0.01907784
	0.07739309	-0.01985855	5.664015e-06	-1.665889e-05	0.0291834	-0.04805172	2.335026e-06	-1.039467e-05
	-1.906853e-06	-1.429074e-06	0.07718649	-0.01907784	2.335026e-06	-1.039467e-05	0.02888531	-0.04808745
3e+08	0.02689463	-0.04991531	1.213066e-06	-8.202677e-06	0.07666694	-0.02498981	-1.982074e-06	-1.179405e-06
	1.213066e-06	-8.202677e-06	0.0260852	-0.05057774	4.588906e-06	-1.55022e-05	0.07638757	-0.0241725
	0.07666694	-0.02498981	4.588906e-06	-1.55022e-05	0.02720904	-0.05002945	1.685899e-06	-9.624302e-06
	-1.982074e-06	-1.179405e-06	0.07638757	-0.0241725	1.685899e-06	-9.624302e-06	0.02688043	-0.05010902
3.1e+08	0.0248305	-0.05181453	7.131594e-07	-7.497227e-06	0.07545048	-0.03008678	-2.039028e-06	-9.289111e-07
	7.131594e-07	-7.497227e-06	0.02397999	-0.05240564	3.609609e-06	-1.430899e-05	0.0750945	-0.02922568
	0.07545048	-0.03008678	3.609609e-06	-1.430899e-05	0.02513682	-0.05190626	1.100412e-06	-8.832796e-06
	-2.039028e-06	-9.289111e-07	0.0750945	-0.02922568	1.100412e-06	-8.832796e-06	0.02477183	-0.05202514
3.2e+08	0.02267349	-0.05360811	2.711608e-07	-6.777683e-06	0.07374858	-0.03510255	-2.077618e-06	-6.789245e-07
	2.711608e-07	-6.777683e-06	0.02178768	-0.05412777	2.728765e-06	-1.308566e-05	0.07331284	-0.03418989
	0.07374858	-0.03510255	2.728765e-06	-1.308566e-05	0.02297298	-0.05368041	5.800422e-07	-8.024496e-06
	-2.077618e-06	-6.789245e-07	0.07331284	-0.03418989	5.800422e-07	-8.024496e-06	0.02256635	-0.05383358
3.3e+08	0.02042989	-0.05529479	-1.120677e-07	-6.048074e-06	0.07157041	-0.03999076	-2.097868e-06	-4.308023e-07
	-1.120677e-07	-6.048074e-06	0.01951414	-0.05574334	1.948382e-06	-1.183888e-05	0.07105251	-0.03901828
	0.07157041	-0.03999076	1.948382e-06	-1.183888e-05	0.02072339	-0.05535113	1.258609e-07	-7.203937e-06
	-2.097868e-06	-4.308023e-07	0.07105251	-0.03901828	1.258609e-07	-7.203937e-06	0.02027044	-0.0555331
3.4e+08	0.01810545	-0.05687366	-4.360583e-07	-5.312657e-06	0.06892983	-0.04470684	-2.099991e-06	-1.859141e-07
	-4.360583e-07	-5.312657e-06	0.01716471	-0.05725182	1.26968e-06	-1.05757e-05	0.06832819	-0.04366586
	0.06892983	-0.04470684	1.26968e-06	-1.05757e-05	0.01839309	-0.05691748	-2.616107e-07	-6.375812e-06
	-2.099991e-06	-1.859141e-07	0.06832819	-0.04366586	-2.616107e-07	-6.375812e-06	0.01788968	-0.05712238
3.5e+08	0.01570489	-0.05834419	-7.008211e-07	-4.575648e-06	0.06584457	-0.04920757	-2.084311e-06	5.438651e-08
	-7.008211e-07	-4.575648e-06	0.01474371	-0.058653	6.931971e-07	-9.303266e-06	0.0651585	-0.04808908
	0.06584457	-0.04920757	6.931971e-07	-9.303266e-06	0.01598639	-0.05837907	-5.822246e-07	-5.544904e-06
	-2.084311e-06	5.438651e-08	0.0651585	-0.04808908	-5.822246e-07	-5.544904e-06	0.01542904	-0.05860067
3.6e+08	0.01323267	-0.05970605	-9.067244e-07	-3.841376e-06	0.06233673	-0.05345199	-2.051318e-06	2.887647e-07
	-9.067244e-07	-3.841376e-06	0.01225509	-0.05994679	2.187998e-07	-8.028836e-06	0.06156642	-0.05224674
	0.06233673	-0.05345199	2.187998e-07	-8.028836e-06	0.01350682	-0.05973518	-8.364237e-07	-4.715994e-06
	-2.051318e-06	2.887647e-07	0.06156642	-0.05224674	-8.364237e-07	-4.715994e-06	0.01289265	-0.05996693
3.7e+08	0.01069254	-0.06095831	-1.054571e-06	-3.114063e-06	0.05843178	-0.05740191	-2.00162e-06	5.159462e-07
	-1.054571e-06	-3.114063e-06	0.009702186	-0.06113244	-1.543531e-07	-6.759612e-06	0.05757838	-0.0561005
	0.05843178	-0.05740191	-1.543531e-07	-6.759612e-06	0.01095746	-0.06098492	-1.025049e-06	-3.893808e-06
	-2.00162e-06	5.159462e-07	0.05757838	-0.0561005	-1.025049e-06	-3.893808e-06	0.0102842	-0.06122008
3.8e+08	0.008087517	-0.06210058	-1.145558e-06	-2.397869e-06	0.05415855	-0.06102153	-1.935946e-06	7.347064e-07
	-1.145558e-06	-2.397869e-06	0.007087529	-0.06220966	-4.277334e-07	-5.502757e-06	0.05322419	-0.0596145
	0.05415855	-0.06102153	-4.277334e-07	-5.502757e-06	0.008340819	-0.06212758	-1.149312e-06	-3.083025e-06
	-1.935946e-06	7.347064e-07	0.05322419	-0.0596145	-1.149312e-06	-3.083025e-06	0.007606822	-0.06235917
3.9e+08	0.00541971	-0.0631317	-1.181252e-06	-1.696889e-06	0.0495495	-0.06427855	-1.855165e-06	9.438865e-07
	-1.181252e-06	-1.696889e-06	0.004412822	-0.06317731	-6.03487e-07	-4.265348e-06	0.04853724	-0.06275652
	0.0495495	-0.06427855	-6.03487e-07	-4.265348e-06	0.005658734	-0.06316153	-1.210961e-06	-2.288228e-06
	-1.855165e-06	9.438865e-07	0.04853724	-0.06275652	-1.210961e-06	-2.288228e-06	0.004863006	-0.06338243
4e+08	0.00269122	-0.06405058	-1.1636e-06	-1.015038e-06	0.04463915	-0.06714392	-1.760231e-06	1.142424e-06
	-1.1636e-06	-1.015038e-06	0.001679711	-0.06403429	-6.84331e-07	-3.054212e-06	0.04355307	-0.06549763
	0.04463915	-0.06714392	-6.84331e-07	-3.054212e-06	0.002912872	-0.06408532	-1.212024e-06	-1.513777e-06
	-1.760231e-06	1.142424e-06	0.04355307	-0.06549763	-1.212024e-06	-1.513777e-06	0.002055032	-0.06428829
4.1e+08	-9.594684e-05	-0.06485518	-1.094492e-06	-3.559751e-07	0.03946482	-0.06959197	-1.652145e-06	1.329279e-06
	-1.094492e-06	-3.559751e-07	-0.001110112	-0.06477824	-6.741491e-07	-1.875413e-06	0.03831001	-0.06781244
	0.03946482	-0.06959197	-6.741491e-07	-1.875413e-06	0.000104319	-0.06489638	-1.155444e-06	-7.634293e-07
	-1.652145e-06	1.329279e-06	0.03831001	-0.06781244	-1.155444e-06	-7.634293e-07	-0.0008153549	-0.06507426
4.2e+08	-0.002941112	-0.06554307	-9.767215e-07	2.766631e-07	0.03406572	-0.07160136	-1.532082e-06	1.503595e-06
	-9.767215e-07	2.766631e-07	-0.003956315	-0.06540673	-5.768056e-07	-7.352126e-07	0.03284818	-0.06967993
	0.03406572	-0.07160136	-5.768056e-07	-7.352126e-07	-0.002765952	-0.06559177	-1.043976e-06	-4.116373e-08
	-1.532082e-06	1.503595e-06	0.03284818	-0.06967993	-1.043976e-06	-4.116373e-08	-0.0037466	-0.06573734
4.3e+08	-0.00584289	-0.06611112	-8.133218e-07	8.796697e-07	0.02848242	-0.07315422	-1.401286e-06	1.664684e-06
	-8.133218e-07	8.796697e-07	-0.006857826	-0.06591649	-3.960576e-07	3.603152e-07	0.0272091	-0.07108276
	0.02848242	-0.07315422	-3.960576e-07	3.603152e-07	-0.005697028	-0.06616807	-8.802793e-07	6.491745e-07
	-1.401286e-06	1.664684e-06	0.0272091	-0.07108276	-8.802793e-07	6.491745e-07	-0.00673715	-0.06627397
4.4e+08	-0.008800042	-0.06655588	-6.07413e-07	1.450123e-06	0.022757	-0.07423683	-1.261031e-06	1.811922e-06
	-6.07413e-07	1.450123e-06	-0.009813687	-0.06630383	-1.366584e-07	1.405743e-06	0.02143568	-0.07200768
	0.022757	-0.07423683	-1.366584e-07	1.405743e-06	-0.008687952	-0.06662105	-6.677047e-07	1.304225e-06
	-1.261031e-06	1.811922e-06	0.02143568	-0.07200768	-6.677047e-07	1.304225e-06	-0.009785427	-0.06668
4.5e+08	-0.01181147	-0.0668726	-3.623307e-07	1.985345e-06	0.01693212	-0.07483964	-1.112637e-06	1.944816e-06
	-3.623307e-07	1.985345e-06	-0.012823	-0.06656374	1.962178e-07	2.396028e-06	0.01557148	-0.07244587
	0.01693212	-0.07483964	1.962178e-07	2.396028e-06	-0.0117378	-0.06694551	-4.098594e-07	1.920946e-06
	-1.112637e-06	1.944816e-06	0.01557148	-0.07244587	-4.098594e-07	1.920946e-06	-0.01288985	-0.0669503
4.6e+08	-0.01487609	-0.06705608	-8.159256e-08	2.483008e-06	0.011051	-0.07495704	-9.574403e-07	2.063001e-06
	-8.159256e-08	2.483008e-06	-0.01588483	-0.06669064	5.970415e-07	3.326671e-06	0.009660422	-0.07239243
	0.011051	-0.07495704	5.970415e-07	3.326671e-06	-0.01484516	-0.0671359	-1.105238e-07	2.496651e-06
	-9.574403e-07	2.063001e-06	0.009660422	-0.07239243	-1.105238e-07	2.496651e-06	-0.01604838	-0.06707943
4.7e+08	-0.01799151	-0.06710033	2.311124e-07	2.941194e-06	0.005156294	-0.07458766	-7.967984e-07	2.166269e-06
	2.311124e-07	2.941194e-06	-0.01899684	-0.06667824	1.059955e-06	4.193746e-06	0.003745885	-0.07184682
	0.005156294	-0.07458766	1.059955e-06	4.193746e-06	-0.01800834	-0.06718538	2.263033e-07	3.029041e-06
	-7.967984e-07	2.166269e-06	0.003745885	-0.07184682	2.263033e-07	3.029041e-06	-0.01925871	-0.06706073
4.8e+08	-0.02115559	-0.06699888	5.720605e-07	3.358207e-06	-0.0007090718	-0.07373393	-6.320545e-07	2.25451e-06
	5.720605e-07	3.358207e-06	-0.02215694	-0.0665197	1.578923e-06	4.993753e-06	-0.002128619	-0.07081232
