!$
! Info: Touchstone file created by Circ.  Input file=Intel_C2M_200G_2p5in_202208016_staggered.circ
!$
# Hz S RI R 50
0	0.01396923	4.446603e-24	-5.960184e-05	7.29912e-21	0.0003062464	2.991692e-22	-5.523582e-05	6.764437e-21
	-5.960194e-05	7.299132e-21	0.01341258	2.149107e-24	-6.684289e-05	8.185893e-21	8.068724e-05	2.620384e-22
	0.0003063161	2.993759e-22	-6.684298e-05	8.185904e-21	0.01397045	4.507668e-24	-5.962742e-05	7.302253e-21
	-5.523581e-05	6.764436e-21	8.07454e-05	2.621892e-22	-5.962732e-05	7.302241e-21	0.0134105	2.040763e-24
1e+07	0.01662974	0.004108511	-0.0003603166	-0.0001227342	0.0007673161	0.004304085	-4.157451e-05	-9.831816e-05
	-0.0003603166	-0.0001227342	0.01611897	0.004436725	-0.0002256995	4.110134e-06	0.0009537447	0.004348476
	0.0007673161	0.004304085	-0.0002256995	4.110134e-06	0.0165329	0.004358396	-0.0002952317	-9.216611e-05
	-4.157451e-05	-9.831816e-05	0.0009537447	0.004348476	-0.0002952317	-9.216611e-05	0.01620081	0.004107609
2e+07	0.01943889	0.005951256	-0.0003501497	-0.0002385802	0.001580185	0.00832963	-6.374608e-05	-0.0001622584
	-0.0003501496	-0.0002385802	0.0194047	0.006491988	-0.000313462	-8.461002e-05	0.001902579	0.008264679
	0.001580273	0.008329526	-0.000313462	-8.461e-05	0.01957245	0.006409249	-0.0002757594	-0.0002884337
	-6.374607e-05	-0.0001622584	0.001902591	0.008264667	-0.0002757594	-0.0002884337	0.01911155	0.005947074
3e+07	0.02166641	0.00653878	-0.0003655516	-0.0003510364	0.00286569	0.01216883	-9.519192e-05	-0.0002326666
	-0.0003655516	-0.0003510364	0.02238761	0.00720076	-0.0003975622	-0.0001653328	0.003252838	0.01210788
	0.002865667	0.0121688	-0.0003975622	-0.0001653328	0.02199413	0.007062645	-0.000281473	-0.0004090166
	-9.519192e-05	-0.0002326666	0.003252805	0.01210791	-0.000281473	-0.0004090166	0.02180142	0.006668132
4e+07	0.02369435	0.006707691	-0.0003981584	-0.0004437622	0.004530522	0.0158533	-0.0001357225	-0.0002996879
	-0.0003981584	-0.0004437622	0.02506877	0.007147245	-0.0004861236	-0.0002411167	0.005073019	0.01571557
	0.004530522	0.0158533	-0.0004861236	-0.0002411167	0.02418725	0.007246323	-0.0003065494	-0.0005088522
	-0.0001357225	-0.0002996879	0.00507301	0.0157156	-0.0003065494	-0.0005088522	0.02425166	0.006705987
5e+07	0.02555063	0.006491531	-0.000444923	-0.0005230366	0.006585471	0.01932466	-0.0001844722	-0.0003607892
	-0.000444923	-0.0005230366	0.02754079	0.006602652	-0.0005812186	-0.0003104436	0.007307512	0.01907304
	0.006585475	0.01932467	-0.0005812186	-0.0003104436	0.02618828	0.007011196	-0.0003470881	-0.0005945672
	-0.0001844722	-0.0003607892	0.007307513	0.01907305	-0.0003470881	-0.0005945672	0.02653993	0.006302485
6e+07	0.02721258	0.005993427	-0.0005036481	-0.0005903937	0.009003188	0.0225451	-0.0002408296	-0.0004156056
	-0.0005036481	-0.0005903937	0.02983442	0.005651818	-0.0006835941	-0.0003724498	0.00993112	0.02214128
	0.009003187	0.0225451	-0.0006835941	-0.0003724498	0.02797695	0.006467921	-0.0004003866	-0.0006678667
	-0.0002408296	-0.0004156056	0.00993114	0.02214127	-0.0004003866	-0.0006678667	0.02869302	0.005528947
7e+07	0.02869345	0.005292778	-0.0005724581	-0.0006460044	0.01175494	0.02548196	-0.0003041566	-0.0004636708
	-0.0005724582	-0.0006460044	0.03194115	0.004357527	-0.0007936224	-0.0004267156	0.01290973	0.02488163
	0.01175494	0.02548196	-0.0007936224	-0.0004267156	0.0295662	0.005699714	-0.0004642083	-0.0007289872
	-0.0003041566	-0.0004636708	0.01290973	0.02488162	-0.0004642083	-0.0007289872	0.03070168	0.004439518
8e+07	0.0300079	0.004439472	-0.000649531	-0.0006894907	0.01480865	0.02810534	-0.0003733382	-0.0005041102
	-0.000649531	-0.0006894907	0.03385352	0.002776919	-0.0009112927	-0.0004729409	0.01620557	0.02725935
	0.01480865	0.02810534	-0.0009112927	-0.0004729409	0.03096924	0.004758484	-0.0005646184	-0.0007625665
	-0.0003733382	-0.0005041102	0.01620557	0.02725935	-0.0005646184	-0.0007625665	0.03255943	0.003086425
9e+07	0.03116521	0.003475854	-0.0007328815	-0.000719988	0.01813045	0.03038954	-0.0004476186	-0.000536639
	-0.0007328815	-0.000719988	0.03557105	0.0009568117	-0.001037697	-0.0005125193	0.01977845	0.02924374
	0.01813045	0.03038954	-0.001037697	-0.0005125193	0.03219252	0.003686977	-0.000685078	-0.0007694738
	-0.0004476186	-0.000536639	0.01977845	0.02924375	-0.000685078	-0.0007694738	0.03426931	0.001515437
1e+08	0.03219898	0.00247907	-0.0008189722	-0.000733932	0.02168819	0.03231414	-0.0005263797	-0.0005612387
	-0.0008189722	-0.000733932	0.03710046	-0.001061118	-0.001179884	-0.0005549783	0.0235867	0.03080808
	0.02168819	0.03231414	-0.001179884	-0.0005549783	0.03325568	0.00254791	-0.0008003184	-0.0007539565
	-0.0005263797	-0.0005612387	0.0235867	0.03080808	-0.0008003184	-0.0007539565	0.03586116	-0.000207846
1.1e+08	0.03324872	0.001287916	-0.0009205957	-0.0007294649	0.02544196	0.03384053	-0.0006093934	-0.0005772813
	-0.0009205957	-0.0007294649	0.03844049	-0.003310772	-0.001291674	-0.0006080035	0.02760227	0.03192924
	0.02544196	0.03384053	-0.001291674	-0.0006080035	0.03425413	0.001283117	-0.0008968147	-0.0007410451
	-0.0006093934	-0.0005772813	0.02760227	0.03192924	-0.0008968146	-0.0007410451	0.03746835	-0.002268345
1.2e+08	0.03406183	-4.621047e-05	-0.001027307	-0.0007183585	0.02933326	0.0349642	-0.0006958494	-0.0005845645
	-0.001027307	-0.0007183585	0.03953732	-0.005698233	-0.001399053	-0.0006325327	0.03173284	0.03258138
	0.02933326	0.0349642	-0.001399053	-0.0006325327	0.03504003	-0.0001019716	-0.001000115	-0.0007259
	-0.0006958494	-0.0005845645	0.03173284	0.03258138	-0.001000115	-0.0007259	0.03875042	-0.004569227
1.3e+08	0.03467865	-0.001432012	-0.001136065	-0.0006969133	0.03332387	0.03568024	-0.0007848181	-0.0005828631
	-0.001136065	-0.0006969133	0.04041199	-0.008195904	-0.001507569	-0.0006397769	0.03594108	0.032759
	0.03332387	0.03568024	-0.001507569	-0.0006397769	0.03563479	-0.001533255	-0.001105981	-0.0007021932
	-0.0007848181	-0.0005828631	0.03594108	0.032759	-0.001105981	-0.0007021932	0.03977395	-0.007005742
1.4e+08	0.03512103	-0.002827773	-0.001245351	-0.0006644005	0.03737232	0.03598536	-0.0008754707	-0.0005720061
	-0.001245351	-0.0006644005	0.04106975	-0.01078495	-0.001617419	-0.0006322627	0.0401813	0.03245852
	0.03737232	0.03598536	-0.001617419	-0.0006322627	0.03605565	-0.002969976	-0.001212705	-0.0006685942
	-0.0008754707	-0.0005720061	0.0401813	0.03245852	-0.001212705	-0.0006685942	0.04056784	-0.009545621
1.5e+08	0.03541004	-0.00420451	-0.001353884	-0.0006205769	0.04143727	0.03587986	-0.0009670197	-0.0005518228
	-0.001353884	-0.0006205769	0.04151201	-0.01344566	-0.001728226	-0.0006111125	0.04440498	0.03167963
	0.04143727	0.03587986	-0.001728226	-0.0006111125	0.03632283	-0.004383192	-0.001318913	-0.000624578
	-0.0009670197	-0.0005518228	0.04440498	0.03167963	-0.001318913	-0.000624578	0.04114259	-0.0121696
1.6e+08	0.03556653	-0.005540781	-0.001460443	-0.0005654994	0.04547795	0.03536844	-0.00105863	-0.0005222856
	-0.001460443	-0.0005654994	0.04173962	-0.01615764	-0.001839338	-0.0005769879	0.04856276	0.03042635
	0.04547795	0.03536844	-0.001839338	-0.0005769879	0.0364572	-0.005751677	-0.001423392	-0.0005700213
	-0.00105863	-0.0005222856	0.04856276	0.03042634	-0.001423392	-0.0005700213	0.04150163	-0.01485918
1.7e+08	0.03561139	-0.006820796	-0.00156392	-0.0004993473	0.04945438	0.03445929	-0.001149506	-0.0004833847
	-0.00156392	-0.0004993473	0.04175516	-0.01890033	-0.001950017	-0.0005303655	0.05260548	0.02870731
	0.04945438	0.03445929	-0.001950017	-0.0005303655	0.03648021	-0.007060089	-0.001524997	-0.0005049897
	-0.001149506	-0.0004833847	0.05260548	0.02870731	-0.001524997	-0.0005049897	0.04164664	-0.01759491
1.8e+08	0.0355656	-0.00803284	-0.001663271	-0.0004224908	0.05332829	0.0331647	-0.001238845	-0.000435173
	-0.001663271	-0.0004224908	0.04156267	-0.02165414	-0.002059547	-0.0004714702	0.05648495	0.0265359
	0.05332829	0.0331647	-0.002059547	-0.0004714701	0.03641264	-0.008297495	-0.001622737	-0.0004298006
	-0.001238845	-0.000435173	0.05648495	0.02653589	-0.001622737	-0.0004298006	0.04157977	-0.02035734
1.9e+08	0.03544927	-0.009169165	-0.001757546	-0.000335343	0.05706312	0.03150095	-0.001325886	-0.0003777526
	-0.001757546	-0.000335343	0.0411684	-0.02440048	-0.00216708	-0.0004006407	0.06015468	0.02393054
	0.05706312	0.03150095	-0.00216708	-0.0004006407	0.03627522	-0.009456731	-0.001715629	-0.0003448154
	-0.001325886	-0.0003777526	0.06015468	0.02393054	-0.001715629	-0.0003448155	0.04130524	-0.02312722
2e+08	0.035283	-0.01022526	-0.001845868	-0.0002384443	0.06062429	0.02948732	-0.001409818	-0.0003113083
	-0.001845868	-0.0002384443	0.04058001	-0.02712278	-0.002271833	-0.0003180556	0.06357044	0.02091419
	0.06062429	0.02948732	-0.002271833	-0.0003180556	0.03608755	-0.01053367	-0.001802846	-0.0002505069
	-0.001409818	-0.0003113083	0.06357044	0.02091419	-0.001802846	-0.0002505069	0.04082897	-0.02588645
2.1e+08	0.03508569	-0.01119976	-0.001927435	-0.0001323894	0.06398048	0.02714687	-0.001489909	-0.0002360596
	-0.001927435	-0.0001323894	0.03980587	-0.02980591	-0.002372956	-0.0002239871	0.06669045	0.01751414
	0.06398048	0.02714687	-0.002372956	-0.0002239871	0.03586932	-0.01152742	-0.001883621	-0.0001474399
	-0.001489909	-0.0002360596	0.06669045	0.01751414	-0.001883621	-0.0001474399	0.04015801	-0.02861867
2.2e+08	0.03487641	-0.01209414	-0.002001536	-1.780057e-05	0.06710275	0.02450523	-0.001565419	-0.0001522726
	-0.002001536	-1.780057e-05	0.03885548	-0.03243711	-0.002469622	-0.0001186212	0.06947611	0.01376172
	0.06710275	0.02450523	-0.002469622	-0.0001186212	0.0356386	-0.01243953	-0.001957265	-3.6196e-05
	-0.001565419	-0.0001522726	0.06947611	0.01376172	-0.001957265	-3.6196e-05	0.03930052	-0.03130908
2.3e+08	0.03467266	-0.01291256	-0.002067525	0.0001045885	0.06996547	0.02159056	-0.001635649	-6.029401e-05
	-0.002067525	0.0001045885	0.03773869	-0.03500492	-0.002560972	-2.293871e-06	0.07189251	0.009691869
	0.06996547	0.02159056	-0.002560972	-2.293871e-06	0.0354129	-0.01327417	-0.002023187	8.255746e-05
	-0.001635649	-6.029401e-05	0.07189251	0.009691869	-0.002023187	8.255746e-05	0.03826609	-0.03394452
2.4e+08	0.03449069	-0.01366173	-0.002124863	0.0002341619	0.07254682	0.01843347	-0.001699917	3.94784e-05
	-0.002124863	0.0002341619	0.03646556	-0.03749978	-0.002646158	0.0001246977	0.07390836	0.005342939
	0.07254682	0.01843347	-0.002646158	0.0001246977	0.03520835	-0.01403803	-0.002080848	0.0002081669
	-0.001699917	3.94784e-05	0.07390836	0.005342939	-0.002080848	0.0002081669	0.03706419	-0.03651409
2.5e+08	0.03434559	-0.01435075	-0.002173079	0.0003701456	0.07482833	0.01506603	-0.001757556	0.00014666
	-0.002173079	0.0003701456	0.0350461	-0.03991373	-0.002724285	0.0002620189	0.07549641	0.0007559375
	0.07482833	0.01506603	-0.002724285	0.0002620189	0.03503987	-0.01473979	-0.00212983	0.000339925
	-0.001757556	0.00014666	0.07549641	0.0007559374	-0.00212983	0.000339925	0.0357047	-0.03900787
2.6e+08	0.03425006	-0.0149904	-0.002211745	0.0005118263	0.07679535	0.01152149	-0.001807975	0.0002607248
	-0.002211745	0.0005118264	0.03349011	-0.04224005	-0.002794504	0.0004092655	0.07663426	-0.004025638
	0.07679535	0.01152149	-0.002794504	0.0004092655	0.03492028	-0.01539037	-0.002169757	0.000477153
	-0.001807975	0.0002607248	0.07663426	-0.004025638	-0.002169757	0.000477153	0.03419757	-0.04141809
2.7e+08	0.03421545	-0.01559355	-0.002240514	0.000658497	0.07843712	0.007834343	-0.001850566	0.0003812334
	-0.002240514	0.000658497	0.03180731	-0.04447333	-0.00285597	0.0005658765	0.07730341	-0.008956463
	0.07843712	0.007834343	-0.00285597	0.0005658765	0.03486092	-0.01600224	-0.002200317	0.0006191798
	-0.001850566	0.0003812334	0.07730341	-0.008956463	-0.002200317	0.0006191798	0.03255253	-0.04373826
2.8e+08	0.03425079	-0.01617464	-0.002259103	0.0008094519	0.07974688	0.004039051	-0.001884782	0.0005075795
	-0.002259103	0.0008094519	0.03000649	-0.04660942	-0.002907818	0.0007313736	0.07749037	-0.01398976
	0.07974688	0.004039051	-0.002907818	0.0007313736	0.03487098	-0.01658935	-0.002221278	0.0007653066
	-0.001884782	0.0005075795	0.07749037	-0.01398976	-0.002221278	0.0007653066	0.03077881	-0.04596266
2.9e+08	0.0343624	-0.01674894	-0.00226726	0.0009639553	0.08072156	0.0001704147	-0.001910121	0.0006391797
	-0.00226726	0.0009639553	0.02809652	-0.0486451	-0.002949236	0.0009051552	0.07718649	-0.01907784
	0.08072156	0.0001704147	-0.002949236	0.0009051552	0.03495721	-0.01716705	-0.002232429	0.0009149353
	-0.001910121	0.0006391797	0.07718649	-0.01907784	-0.002232429	0.0009149353	0.02888531	-0.04808745
3e+08	0.03455489	-0.01733289	-0.002264776	0.001121322	0.08136177	-0.003737758	-0.001926129	0.0007754195
	-0.002264776	0.001121322	0.0260852	-0.05057774	-0.002979446	0.001086504	0.07638757	-0.0241725
	0.08136177	-0.003737758	-0.002979446	0.001086504	0.03512446	-0.01775138	-0.0022336	0.001067431
	-0.001926129	0.0007754195	0.07638757	-0.0241725	-0.0022336	0.001067431	0.02688043	-0.05010902
3.1e+08	0.03483005	-0.01794338	-0.002251508	0.001280877	0.08167217	-0.007651897	-0.001932341	0.0009156904
	-0.002251508	0.001280877	0.02397999	-0.05240564	-0.002997646	0.00127472	0.0750945	-0.02922568
	0.08167217	-0.007651897	-0.002997646	0.00127472	0.03537478	-0.01835928	-0.002224711	0.00122213
	-0.001932341	0.0009156904	0.0750945	-0.02922568	-0.002224711	0.00122213	0.02477183	-0.05202514
3.2e+08	0.0351873	-0.01859764	-0.002227299	0.001441965	0.08166075	-0.01154027	-0.0019284	0.001059246
	-0.002227299	0.001441965	0.02178768	-0.05412777	-0.003003182	0.001468889	0.07331284	-0.03418989
	0.08166075	-0.01154027	-0.003003182	0.001468889	0.03570797	-0.0190079	-0.002205638	0.001378468
	-0.0019284	0.001059246	0.07331284	-0.03418989	-0.002205638	0.001378468	0.02256635	-0.05383358
3.3e+08	0.03562353	-0.01931279	-0.002192031	0.00160394	0.0813383	-0.01537258	-0.001913938	0.001205402
	-0.002192031	0.00160394	0.01951414	-0.05574334	-0.002995336	0.001668223	0.07105251	-0.03901828
	0.0813383	-0.01537258	-0.002995336	0.001668223	0.0361216	-0.01971421	-0.0021763	0.001535892
	-0.001913938	0.001205402	0.07105251	-0.03901828	-0.0021763	0.001535892	0.02027044	-0.0555331
3.4e+08	0.03613333	-0.02010558	-0.002145621	0.00176615	0.08071942	-0.0191203	-0.00188867	0.001353445
	-0.002145621	0.00176615	0.01716471	-0.05725182	-0.00297356	0.00187167	0.06832819	-0.04366586
	0.08071942	-0.0191203	-0.00297356	0.00187167	0.03661037	-0.02049502	-0.002136631	0.001693877
	-0.00188867	0.001353445	0.06832819	-0.04366586	-0.002136631	0.001693877	0.01788968	-0.05712238
3.5e+08	0.03670863	-0.02099195	-0.002087995	0.001927911	0.07982096	-0.02275774	-0.001852334	0.001502576
	-0.002087995	0.001927911	0.01474371	-0.058653	-0.002937376	0.002078217	0.0651585	-0.04808908
	0.07982096	-0.02275774	-0.002937376	0.002078217	0.03716705	-0.02136678	-0.00208659	0.001851836
	-0.001852334	0.001502576	0.0651585	-0.04808908	-0.00208659	0.001851836	0.01542904	-0.05860067
3.6e+08	0.03733937	-0.02198743	-0.002019113	0.002088599	0.07866231	-0.02626135	-0.001804754	0.001652013
	-0.002019113	0.002088599	0.01225509	-0.05994679	-0.002886257	0.002286855	0.06156642	-0.05224674
	0.07866231	-0.02626135	-0.002886257	0.002286855	0.0377819	-0.02234453	-0.002026145	0.002009252
	-0.001804754	0.001652013	0.06156642	-0.05224674	-0.002026145	0.002009252	0.01289265	-0.05996693
3.7e+08	0.0380133	-0.02310564	-0.001938875	0.002247583	0.07726496	-0.02961051	-0.001745719	0.001801013
	-0.001938875	0.002247583	0.009702186	-0.06113244	-0.002819846	0.002496475	0.05757838	-0.0561005
	0.07726496	-0.02961051	-0.002819846	0.002496475	0.03844301	-0.02344269	-0.001955179	0.002165659
	-0.001745719	0.001801013	0.05757838	-0.0561005	-0.001955179	0.002165659	0.0102842	-0.06122008
3.8e+08	0.03871631	-0.02435886	-0.001847286	0.002404175	0.07565201	-0.03278768	-0.001675176	0.001948708
	-0.001847286	0.002404175	0.007087529	-0.06220966	-0.002737927	0.002705862	0.05322419	-0.0596145
	0.07565201	-0.03278768	-0.002737927	0.002705862	0.03913694	-0.02467406	-0.001873672	0.002320484
	-0.001675176	0.001948708	0.05322419	-0.0596145	-0.001873672	0.002320484	0.007606822	-0.06235917
3.9e+08	0.03943218	-0.02575827	-0.00174433	0.002557708	0.07384825	-0.03577846	-0.00159304	0.00209429
	-0.00174433	0.002557708	0.004412822	-0.06317731	-0.002640332	0.002913848	0.04853724	-0.06275652
	0.07384825	-0.03577846	-0.002640332	0.002913848	0.03984759	-0.02604948	-0.001781566	0.002473215
	-0.00159304	0.00209429	0.04853724	-0.06275652	-0.001781566	0.002473215	0.004863006	-0.06338243
4e+08	0.04014339	-0.02731254	-0.001630011	0.002707486	0.07187909	-0.0385717	-0.001499314	0.002236898
	-0.001630011	0.002707486	0.001679711	-0.06403429	-0.002526905	0.003119262	0.04355307	-0.06549763
	0.07187909	-0.0385717	-0.002526905	0.003119262	0.04055813	-0.02757873	-0.001678736	0.002623327
	-0.001499314	0.002236898	0.04355307	-0.06549763	-0.001678736	0.002623327	0.002055032	-0.06428829
4.1e+08	0.04083126	-0.02902828	-0.001504595	0.002852023	0.06977057	-0.04115916	-0.001394077	0.002375735
	-0.001504595	0.002852023	-0.001110112	-0.06477824	-0.00238665	0.00333197	0.03831001	-0.06781244
	0.06977057	-0.04115916	-0.00238665	0.00333197	0.04124997	-0.02926863	-0.001565728	0.002769536
	-0.001394077	0.002375735	0.03831001	-0.06781244	-0.001565728	0.002769536	-0.0008153549	-0.06507426
4.2e+08	0.04147567	-0.03091014	-0.001368148	0.002991039	0.06754902	-0.04353685	-0.001277469	0.002509924
	-0.001368148	0.002991039	-0.003956315	-0.06540673	-0.002224048	0.003543238	0.03284818	-0.06967993
	0.06754902	-0.04353685	-0.002224048	0.003543238	0.04190345	-0.03112453	-0.001442288	0.002911752
	-0.001277469	0.002509924	0.03284818	-0.06967993	-0.001442288	0.002911752	-0.0037466	-0.06573734
4.3e+08	0.0420561	-0.03296007	-0.001220626	0.003124166	0.06524028	-0.045703	-0.001149524	0.002638594
	-0.001220626	0.003124166	-0.006857826	-0.06591649	-0.002044714	0.003746042	0.0272091	-0.07108276
	0.06524028	-0.045703	-0.002044714	0.003746042	0.04249774	-0.03314917	-0.001308056	0.003049728
	-0.001149524	0.002638594	0.0272091	-0.07108276	-0.001308056	0.003049728	-0.00673715	-0.06627397
4.4e+08	0.04255135	-0.03517777	-0.001062155	0.003250606	0.06286948	-0.04765969	-0.00101053	0.002760859
	-0.001062155	0.003250606	-0.009813687	-0.06630383	-0.00184907	0.003939155	0.02143568	-0.07200768
	0.06286948	-0.04765969	-0.00184907	0.003939155	0.04301217	-0.03534291	-0.001163089	0.003182747
	-0.00101053	0.002760859	0.02143568	-0.07200768	-0.001163089	0.003182747	-0.009785427	-0.06668
4.5e+08	0.04293989	-0.03756043	-0.0008928881	0.003369571	0.06046117	-0.0494118	-0.0008608215	0.002875849
	-0.0008928881	0.003369571	-0.012823	-0.06656374	-0.001637662	0.00412139	0.01557148	-0.07244587
	0.06046117	-0.0494118	-0.001637662	0.00412139	0.04342509	-0.03770358	-0.001007351	0.00331014
	-0.0008608215	0.002875849	0.01557148	-0.07244587	-0.001007351	0.00331014	-0.01288985	-0.0669503
4.6e+08	0.0432004	-0.04010296	-0.0007131263	0.003480188	0.05803826	-0.0509674	-0.0007006953	0.002982717
	-0.0007131263	0.003480188	-0.01588483	-0.06669064	-0.001411341	0.004291516	0.009660422	-0.07239243
	0.05803826	-0.0509674	-0.001411341	0.004291516	0.04371499	-0.04022676	-0.0008406869	0.003431165
	-0.0007006953	0.002982717	0.009660422	-0.07239243	-0.0008406869	0.003431165	-0.01604838	-0.06707943
4.7e+08	0.0433119	-0.04279694	-0.0005230721	0.003581619	0.05562173	-0.05233672	-0.0005306211	0.003080607
	-0.0005230721	0.003581619	-0.01899684	-0.06667824	-0.001170897	0.004448418	0.003745885	-0.07184682
	0.05562173	-0.05233672	-0.001170897	0.004448418	0.04386085	-0.04290509	-0.0006632826	0.003545019
	-0.0005306211	0.003080607	0.003745885	-0.07184682	-0.0006632826	0.003545019	-0.01925871	-0.06706073
4.8e+08	0.04325443	-0.04563252	-0.0003230844	0.003673	0.05323088	-0.05353273	-0.0003510231	0.003168691
	-0.0003230844	0.003673	-0.02215694	-0.0665197	-0.0009170337	0.004591126	-0.002128619	-0.07081232
	0.05323088	-0.05353273	-0.0009170337	0.004591126	0.04384227	-0.045729	-0.0004751392	0.003650854
	-0.0003510231	0.003168691	-0.002128619	-0.07081232	-0.0004751392	0.003650854	-0.02251756	-0.06688724
4.9e+08	0.04300842	-0.04859669	-0.0001136779	0.003753423	0.05088258	-0.05457063	-0.0001624345	0.003246176
