# GHz S RI R 45
0.000     0.015109843724    0.001321287337    0.000000291121    0.000000355642    0.000641825640    0.001241712935    0.000000425832    0.000000570328
            0.000000291099    0.000000355643    0.014933049974    0.001816164879    0.000000423495    0.000000554230    0.000677199115    0.001658343328
            0.000641825529    0.001241712880    0.000000423509    0.000000554230    0.015104991011    0.001334036133    0.000000600387    0.000000835791
            0.000000425881    0.000000570327    0.000677199289    0.001658343257    0.000000600380    0.000000835791    0.014872242239    0.001828015728
0.025     0.018381435300    0.009565210143    0.000000501659    0.000000786648    0.001582266024    0.008709136828    0.000000736873    0.000001258247
            0.000000501659    0.000000786651    0.018189108654    0.010219066271    0.000000732990    0.000001230287    0.001648618104    0.009335305708
            0.001578999156    0.008709415883    0.000000732984    0.000001230286    0.018316407119    0.009575867512    0.000001037566    0.000001846457
            0.000000736874    0.000001258246    0.001648872258    0.009334731857    0.000001037564    0.000001846457    0.018120472266    0.010192809971
0.050     0.022376807080    0.015982038305    0.000000873706    0.000001325681    0.004304018707    0.016894425914    0.000001284683    0.000002149737
            0.000000873706    0.000001325681    0.022274699554    0.017188183547    0.000001277431    0.000002096211    0.004457910207    0.018112567504
            0.004304064130    0.016894382352    0.000001277431    0.000002096211    0.022281972200    0.016023352729    0.000001806341    0.000003174994
            0.000001284683    0.000002149737    0.004458005313    0.018112561603    0.000001806341    0.000003174994    0.022157972243    0.017140178379
0.075     0.027000402862    0.021184194213    0.000001293511    0.000001741195    0.008547449383    0.024153079869    0.000001903522    0.000002868260
            0.000001293511    0.000001741195    0.026960284880    0.022956141666    0.000001892202    0.000002787748    0.008818510071    0.025985364688
            0.008547453440    0.024153075251    0.000001892202    0.000002787748    0.026881136564    0.021270389079    0.000002673636    0.000004267805
            0.000001903522    0.000002868260    0.008818506311    0.025985367020    0.000002673636    0.000004267805    0.026780514848    0.022912434409
0.100     0.032245173549    0.025073494306    0.000001762770    0.000002057414    0.013990723397    0.030213373111    0.000002601670    0.000003451825
            0.000001762770    0.000002057414    0.032268281443    0.027478691413    0.000002583915    0.000003342228    0.014433058183    0.032692948219
            0.013990723290    0.030213374263    0.000002583915    0.000003342228    0.032102364962    0.025218525463    0.000003656361    0.000005181025
            0.000002601670    0.000003451825    0.014433033410    0.032692956970    0.000003656361    0.000005181025    0.032012016600    0.027468589375
0.125     0.037799634960    0.027546414679    0.000002267460    0.000002272141    0.020288225640    0.034876098204    0.000003364078    0.000003896321
            0.000002267460    0.000002272141    0.037866615504    0.030657227535    0.000003336026    0.000003755859    0.020985824126    0.038044843166
            0.020288225640    0.034876098204    0.000003336026    0.000003755860    0.037642719382    0.027759767460    0.000004737569    0.000005908587
            0.000003364079    0.000003896321    0.020985824126    0.038044843166    0.000004737569    0.000005908587    0.037533926124    0.030716867944
0.150     0.043263800596    0.028594165524    0.000002787023    0.000002396690    0.027069061677    0.038037825044    0.000004164787    0.000004215820
            0.000002787023    0.000002396690    0.043544990621    0.032550121761    0.000004122073    0.000004042899    0.028115380323    0.041925718662
            0.027069061677    0.038037825044    0.000004122073    0.000004042899    0.043099580398    0.028898471679    0.000005886656    0.000006467624
            0.000004164787    0.000004215820    0.028115380323    0.041925718662    0.000005886656    0.000006467624    0.043143620325    0.032712051125
0.175     0.048287866122    0.028346906083    0.000003309385    0.000002438638    0.033954142737    0.039683574196    0.000004988957    0.000004417660
            0.000003309385    0.000002438638    0.048936936801    0.033231844482    0.000004926065    0.000004211413    0.035471945768    0.044318889692
            0.033954142737    0.039683574196    0.000004926065    0.000004211413    0.048137219188    0.028755651930    0.000007084699    0.000006864686
            0.000004988957    0.000004417660    0.035471945768    0.044318889692    0.000007084699    0.000006864686    0.048489374409    0.033527871480
0.200     0.052553385554    0.027020408054    0.000003825102    0.000002409610    0.040580042952    0.039896254845    0.000005824157    0.000004514958
            0.000003825102    0.000002409610    0.053752285166    0.032897502034    0.000005734847    0.000004275487    0.042721564684    0.045290284593
            0.040580042952    0.039896254845    0.000005734847    0.000004275487    0.052441382690    0.027539571371    0.000008315091    0.000007114688
            0.000005824157    0.000004514958    0.042721564684    0.045290284593    0.000008315091    0.000007114688    0.053291862928    0.033352887071
0.225     0.055811628815    0.024895858666    0.000004329311    0.000002320055    0.046621372139    0.038840889189    0.000006663345    0.000004518670
            0.000004329311    0.000002320055    0.057783144376    0.031794980936    0.000006540827    0.000004247220    0.049561241549    0.044975294278
            0.046621372139    0.038840889189    0.000006540827    0.000004247220    0.055765781401    0.025524145546    0.000009567727    0.000007229089
            0.000006663345    0.000004518670    0.049561241549    0.044975294278    0.000009567727    0.000007229089    0.057351317705    0.032425050872
0.250     0.057894527609    0.022322302673    0.000004821716    0.000002180870    0.051810782830    0.036760347479    0.000007505043    0.000004441189
            0.000004821716    0.000002180870    0.060899240489    0.030224796714    0.000007342284    0.000004140177    0.055739599113    0.043581794091
            0.051810782830    0.036760347479    0.000007342284    0.000004140177    0.057942754463    0.023051361642    0.000010839233    0.000007221928
            0.000007505043    0.000004441189    0.055739599113    0.043581794091    0.000010839233    0.000007221928    0.060542113706    0.031033138736
0.275     0.058735949440    0.019674871026    0.000005305726    0.000001999047    0.055953423017    0.033950767783    0.000008352250    0.000004289543
            0.000005305726    0.000001999047    0.063057657616    0.028498851952    0.000008142098    0.000003962646    0.061069911399    0.041364219484
            0.055953423017    0.033950767783    0.000008142098    0.000003962646    0.058904972972    0.020488755369    0.000012131592    0.000007100258
            0.000008352250    0.000004289543    0.061069911399    0.041364219484    0.000012131592    0.000007100258    0.062822922090    0.029476061973
0.300     0.058373050576    0.017344269254    0.000005787681    0.000001778936    0.058940776228    0.030749639497    0.000009211835    0.000004067945
            0.000005787681    0.000001778936    0.064302991068    0.026936136516    0.000008947296    0.000003720238    0.065444192910    0.038614530105
            0.058940776228    0.030749639497    0.000008947296    0.000003720238    0.058686322925    0.018219398292    0.000013451175    0.000006868098
            0.000009211835    0.000004067945    0.065444192910    0.038614530105    0.000013451175    0.000006868098    0.064236294351    0.028059377998
0.325     0.056948996215    0.015694915778    0.000006274923    0.000001519509    0.060754911301    0.027506787070    0.000010091582    0.000003773399
            0.000006274923    0.000001519509    0.064765905645    0.025823717804    0.000009765872    0.000003411279    0.068833666929    0.035632137143
            0.060754911301    0.027506787070    0.000009765872    0.000003411279    0.057424116651    0.016601013838    0.000014805538    0.000006520458
            0.000010091582    0.000003773399    0.068833666929    0.035632137143    0.000014805538    0.000006520458    0.064907218044    0.027057812176
0.350     0.054704747877    0.015051778177    0.000006774875    0.000001215734    0.061474771554    0.024568585468    0.000010999852    0.000003398157
            0.000006774875    0.000001215734    0.064655588979    0.025410294284    0.000010606765    0.000003029566    0.071295537411    0.032712502638
            0.061474771554    0.024568585468    0.000010606765    0.000003029566    0.055351927524    0.015953280923    0.000016202667    0.000006047129
            0.000010999852    0.000003398157    0.071295537411    0.032712502638    0.000016202667    0.000006047129    0.065035946980    0.026708909017
0.375     0.051965877177    0.015664017492    0.000007292755    0.000000857182    0.061268457161    0.022245733763    0.000011941303    0.000002927004
            0.000007292755    0.000000857182    0.064244964960    0.025872635761    0.000011475695    0.000002561448    0.072960772810    0.030116081447
            0.061268457161    0.022245733763    0.000011475695    0.000002561448    0.052786432081    0.016522295805    0.000017646044    0.000005428645
            0.000011941303    0.000002927004    0.072960772810    0.030116081447    0.000017646044    0.000005428645    0.064883183250    0.027181016511
0.400     0.049125763199    0.017694424618    0.000007830649    0.000000429752    0.060388921861    0.020798595779    0.000012917184    0.000002340581
            0.000007830649    0.000000429752    0.063855054187    0.027312092524    0.000012374874    0.000001988993    0.074032955030    0.028059243334
            0.060388921861    0.020798595779    0.000012374874    0.000001988993    0.050110578303    0.018470032491    0.000019134832    0.000004640866
            0.000012917184    0.000002340581    0.074032955030    0.028059243334    0.000019134832    0.000004640866    0.064756059608    0.028570338395
0.425     0.046618426231    0.021192987109    0.000008385174    -0.000000084475    0.059153833190    0.020406279010    0.000013920688    0.000001614090
            0.000008385174    -0.000000084475    0.063829461905    0.029732048409    0.000013299353    0.000001288857    0.074765081288    0.026686044444
            0.059153833190    0.020406279010    0.000013299353    0.000001288857    0.047748151826    0.021848577236    0.000020658251    0.000003653291
            0.000013920688    0.000001614090    0.074765081288    0.026686044444    0.000020658251    0.000003653291    0.064982763876    0.030878955732
0.450     0.044893694547    0.026094441495    0.000008946664    -0.000000704848    0.057928799170    0.021158381468    0.000014937173    0.000000721617
            0.000008946664    -0.000000704848    0.064514561245    0.033041866874    0.000014236633    0.000000436204    0.075448488993    0.026065409735
            0.057928799170    0.021158381468    0.000014236633    0.000000436204    0.046139273463    0.026597588541    0.000022196419    0.000002434314
            0.000014937173    0.000000721617    0.075448488993    0.026065409735    0.000022196419    0.000002434314    0.065893578377    0.034018908723
0.475     0.044381469505    0.032207007978    0.000009497338    -0.000001450793    0.057096201995    0.023034066385    0.000015940816    -0.000000362915
            0.000009497338    -0.000001450793    0.066226382537    0.037048740793    0.000015163415    -0.000000594358    0.076381080135    0.026172926411
            0.057096201995    0.023034066385    0.000015163415    -0.000000594358    0.045705017818    0.032533074319    0.000023715780    0.000000952238
            0.000015940816    -0.000000362915    0.076381080135    0.026172926411    0.000023715780    0.000000952238    0.067789447852    0.037804619250
0.500     0.045462575351    0.039224639699    0.000010011759    -0.000002338424    0.057030158738    0.025906665736    0.000016896411    -0.000001660704
            0.000010011759    -0.000002338424    0.069230845450    0.041473900504    0.000016047491    -0.000001824008    0.077851676714    0.026899288714
            0.057030158738    0.025906665736    0.000016047491    -0.000001824008    0.046820134623    0.039358893518    0.000025171497    -0.000000818509
            0.000016896411    -0.000001660704    0.077851676714    0.026899288714    0.000025171497    -0.000000818509    0.070923543671    0.041968236713
0.525     0.048432455862    0.046734942443    0.000010456045    -0.000003378125    0.058059679590    0.029539980427    0.000017757420    -0.000003185456
            0.000010456045    -0.000003378125    0.073712390439    0.045960707510    0.000016845272    -0.000003267142    0.080104382105    0.028046847579
            0.058059679590    0.029539980427    0.000016845272    -0.000003267142    0.049776014266    0.046674627407    0.000026505430    -0.000002894535
            0.000017757420    -0.000003185456    0.080104382105    0.028046847579    0.000026505430    -0.000002894535    0.075470350063    0.046167697409
0.550     0.053478591540    0.054249100555    0.000010790750    -0.000004571035    0.060445662410    0.033611005838    0.000018471075    -0.000004938741
            0.000010790750    -0.000004571035    0.079762472182    0.050103316999    0.000017506830    -0.000004926905    0.083326642420    0.029352391244
            0.060445662410    0.033611005838    0.000017506830    -0.000004926905    0.054760509488    0.054003919468    0.000027651888    -0.000005277757
            0.000018471075    -0.000004938741    0.083326642420    0.029352391244    0.000027651888    -0.000005277757    0.081515365450    0.050013867864
0.575     0.060654732452    0.061227604579    0.000010972658    -0.000005906848    0.064349656425    0.037723890462    0.000018979064    -0.000006907380
            0.000010972658    -0.000005906848    0.087357422349    0.053468641591    0.000017976216    -0.000006792400    0.087619074364    0.030497977577
            0.064349656425    0.037723890462    0.000017976216    -0.000006792400    0.061829741577    0.060820114090    0.000028538197    -0.000007952863
            0.000018979064    -0.000006907380    0.087619074364    0.030497977577    0.000028538197    -0.000007952863    0.089033664399    0.053092394324
0.600     0.069876248474    0.067121929942    0.000010959486    -0.000007362118    0.069825848776    0.041448309233    0.000019225144    -0.000009061538
            0.000010959486    -0.000007362118    0.096363449299    0.055631729727    0.000018198976    -0.000008836684    0.092996685846    0.031143906184
            0.069825848776    0.041448309233    0.000018198976    -0.000008836684    0.070905790605    0.066586243295    0.000029094447    -0.000010884285
            0.000019225144    -0.000009061538    0.092996685846    0.031143906184    0.000029094447    -0.000010884285    0.097895220436    0.054996544985
0.625     0.080913865865    0.071409499210    0.000010713353    -0.000008899991    0.076804798939    0.044343097972    0.000019157695    -0.000011354596
            0.000010713353    -0.000008899991    0.106531761779    0.056203381273    0.000018124605    -0.000011016461    0.099371217666    0.030947459015
            0.076804798939    0.044343097972    0.000018124605    -0.000011016461    0.081769362105    0.070789491801    0.000029255407    -0.000014016785
            0.000019157695    -0.000011354596    0.099371217666    0.030947459015    0.000029255407    -0.000014016785    0.107859731250    0.055353562653
0.650     0.093413404169    0.073633560843    0.000010206343    -0.000010472305    0.085107208272    0.045998148999    0.000018738426    -0.000013725531
            0.000010206343    -0.000010472305    0.117520820060    0.054860441438    0.000017714521    -0.000013274027    0.106570412679    0.029596563384
            0.085107208272    0.045998148999    0.000017714521    -0.000013274027    0.094077780054    0.072980152827    0.000028971402    -0.000017277532
            0.000018738426    -0.000013725531    0.106570412679    0.029596563384    0.000028971402    -0.000017277532    0.118598217459    0.053855028882
0.675     0.106909043156    0.073432211505    0.000009423192    -0.000012022221    0.094446154454    0.046055148690    0.000017943169    -0.000016102007
            0.000009423192    -0.000012022221    0.128907004959    0.051367747328    0.000016943903    -0.000015540126    0.114333319824    0.026827099364
            0.094446154454    0.046055148690    0.000016943903    -0.000015540126    0.107379256298    0.072799968831    0.000028208644    -0.000020579571
            0.000017943169    -0.000016102007    0.114333319824    0.026827099364    0.000028208644    -0.000020579571    0.129703066362    0.050276259956
0.700     0.120861565176    0.070563295851    0.000008364385    -0.000013488831    0.104458247194    0.044239395055    0.000016768535    -0.000018406627
            0.000008364385    -0.000013488831    0.140219862362    0.045595590533    0.000015807664    -0.000017739974    0.122343685592    0.022445713042
            0.104458247194    0.044239395055    0.000015807664    -0.000017739974    0.121147730944    0.070007233805    0.000026958077    -0.000023829444
            0.000016768535    -0.000018406627    0.122343685592    0.022445713042    0.000026958077    -0.000023829444    0.140722355512    0.044494008825
0.725     0.134682161469    0.064917819419    0.000007046510    -0.000014812010    0.114716791116    0.040367847783    0.000015229362    -0.000020561609
            0.000007046510    -0.000014812010    0.150961599604    0.037527721948    0.000014318501    -0.000019797600    0.130233941165    0.016339116184
            0.114716791116    0.040367847783    0.000014318501    -0.000019797600    0.134809577350    0.064488774530    0.000025231345    -0.000026931767
            0.000015229362    -0.000020561609    0.130233941165    0.016339116184    0.000025231345    -0.000026931767    0.151177438058    0.036492595742
0.750     0.147776377949    0.056522582618    0.000005501598    -0.000015937391    0.124769741538    0.034364358279    0.000013360868    -0.000022495829
            0.000005501598    -0.000015937391    0.160643252220    0.027260180166    0.000012509403    -0.000021643180    0.137623213332    0.008482372461
            0.124769741538    0.034364358279    0.000012509403    -0.000021643180    0.147781949620    0.056265563616    0.000023065272    -0.000029798129
            0.000013360868    -0.000022495829    0.137623213332    0.008482372461    0.000023065272    -0.000029798129    0.160598224627    0.026365902414
0.775     0.159567612421    0.045537529624    0.000003774323    -0.000016820152    0.134153594302    0.026253297408    0.000011213076    -0.000024148176
            0.000003774323    -0.000016820152    0.168802876996    0.014997916922    0.000010428150    -0.000023216080    0.144121766027    -0.001062164184
            0.134153594302    0.026253297408    0.000010428150    -0.000023216080    0.159499549676    0.045487523596    0.000020513767    -0.000032350428
            0.000011213076    -0.000024148176    0.144121766027    -0.001062164184    0.000020513767    -0.000032350428    0.168540656183    0.014310556761
0.800     0.169532353382    0.032240958836    0.000001919126    -0.000017428785    0.142427947511    0.016161421063    0.000008849527    -0.000025473288
            0.000001919126    -0.000017428785    0.175035551918    0.001039739262    0.000008136260    -0.000024470828    0.149367419172    -0.012147737565
