# GHz S RI R 45
0.000     0.015833934589    0.001310997209    -0.000000008777    -0.000000085082    0.000756366090    0.001235892704    0.000000010209    -0.000000052879
            -0.000000008777    -0.000000085082    0.014933049974    0.001816164879    -0.000000006132    -0.000000084368    0.000677199115    0.001658343328
            0.000756366090    0.001235892704    -0.000000006132    -0.000000084368    0.015860805318    0.001322825771    0.000000014949    -0.000000049748
            0.000000010209    -0.000000052879    0.000677199289    0.001658343257    0.000000014949    -0.000000049748    0.014872242239    0.001828015728
0.025     0.019317953678    0.009928138877    -0.000000028844    -0.000000195103    0.001788126415    0.009197335446    0.000000006261    -0.000000124490
            -0.000000028844    -0.000000195103    0.018189108654    0.010219066271    -0.000000024826    -0.000000193275    0.001648618104    0.009335305708
            0.001788139854    0.009195622593    -0.000000024826    -0.000000193275    0.019245339538    0.009895773266    0.000000013653    -0.000000117123
            0.000000006261    -0.000000124490    0.001648872258    0.009334731857    0.000000013653    -0.000000117123    0.018120472266    0.010192809971
0.050     0.023643910132    0.016584589855    -0.000000076788    -0.000000367742    0.004883741097    0.017809801328    -0.000000015141    -0.000000245611
            -0.000000076788    -0.000000367742    0.022274699554    0.017188183547    -0.000000071069    -0.000000365791    0.004457910207    0.018112567504
            0.004883796733    0.017809765333    -0.000000071069    -0.000000365791    0.023526100909    0.016557683360    -0.000000004052    -0.000000234162
            -0.000000015141    -0.000000245612    0.004458005313    0.018112561603    -0.000000004052    -0.000000234162    0.022157972243    0.017140178379
0.075     0.028764436566    0.021857118929    -0.000000139742    -0.000000528030    0.009710669668    0.025306804140    -0.000000048025    -0.000000361606
            -0.000000139742    -0.000000528030    0.026960284880    0.022956141666    -0.000000132551    -0.000000526426    0.008818510071    0.025985364688
            0.009710676676    0.025306807877    -0.000000132551    -0.000000526426    0.028587537580    0.021844054182    -0.000000033255    -0.000000347026
            -0.000000048025    -0.000000361606    0.008818506311    0.025985367020    -0.000000033255    -0.000000347026    0.026780514848    0.022912434409
0.100     0.034595139215    0.025577388444    -0.000000217084    -0.000000677547    0.015865564232    0.031344796327    -0.000000090984    -0.000000472250
            -0.000000217084    -0.000000677547    0.032268281443    0.027478691413    -0.000000208424    -0.000000676540    0.014433058183    0.032692948219
            0.015865563685    0.031344796604    -0.000000208424    -0.000000676540    0.034347212393    0.025607333440    -0.000000072244    -0.000000455127
            -0.000000090984    -0.000000472250    0.014433033410    0.032692956970    -0.000000072244    -0.000000455127    0.032012016600    0.027468589375
0.125     0.040727022095    0.027613799107    -0.000000307116    -0.000000816002    0.022903128843    0.035687239530    -0.000000142276    -0.000000577147
            -0.000000307116    -0.000000816002    0.037866615504    0.030657227535    -0.000000297042    -0.000000815820    0.020985824126    0.038044843166
            0.022903128220    0.035687239930    -0.000000297042    -0.000000815820    0.040405194120    0.027711978147    -0.000000119173    -0.000000558181
            -0.000000142276    -0.000000577147    0.020985824126    0.038044843166    -0.000000119173    -0.000000558181    0.037533926124    0.030716867944
0.150     0.046655231871    0.027953357970    -0.000000407228    -0.000000943274    0.030346226943    0.038226369619    -0.000000200319    -0.000000676459
            -0.000000407228    -0.000000943274    0.043544990621    0.032550121761    -0.000000395532    -0.000000944199    0.028115380323    0.041925718662
            0.030346226943    0.038226369619    -0.000000395532    -0.000000944199    0.046273880791    0.028166100312    -0.000000172462    -0.000000656165
            -0.000000200319    -0.000000676459    0.028115380323    0.041925718662    -0.000000172462    -0.000000656165    0.043143620325    0.032712051125
0.175     0.051932172007    0.026774610357    -0.000000515620    -0.000001060609    0.037712968470    0.038976636459    -0.000000263781    -0.000000771132
            -0.000000515620    -0.000001060609    0.048936936801    0.033231844482    -0.000000502188    -0.000001062956    0.035471945768    0.044318889692
            0.037712968470    0.038976636459    -0.000000502188    -0.000001062956    0.051519192368    0.027131982390    -0.000000230737    -0.000000750141
            -0.000000263781    -0.000000771132    0.035471945768    0.044318889692    -0.000000230737    -0.000000750141    0.048489374409    0.033527871480
0.200     0.056161469997    0.024365260124    -0.000000630987    -0.000001169532    0.044549904353    0.038081139821    -0.000000331717    -0.000000862194
            -0.000000630987    -0.000001169532    0.053752285166    0.032897502034    -0.000000615760    -0.000001173608    0.042721564684    0.045290284593
            0.044549904353    0.038081139821    -0.000000615760    -0.000001173608    0.055752310741    0.024887864829    -0.000000293117    -0.000000841196
            -0.000000331717    -0.000000862194    0.042721564684    0.045290284593    -0.000000293117    -0.000000841196    0.053291862928    0.033352887071
0.225     0.059041177313    0.021100488738    -0.000000752925    -0.000001271885    0.050461532735    0.035790345215    -0.000000403864    -0.000000951375
            -0.000000752925    -0.000001271885    0.057783144376    0.031794980936    -0.000000735856    -0.000001278035    0.049561241549    0.044975294278
            0.050461532735    0.035790345215    -0.000000735856    -0.000001278035    0.058678063824    0.021798614555    -0.000000359376    -0.000000931154
            -0.000000403864    -0.000000951375    0.049561241549    0.044975294278    -0.000000359376    -0.000000931154    0.057351317705    0.032425050872
0.250     0.060380217274    0.017437874721    -0.000000881601    -0.000001369407    0.055137378281    0.032452073033    -0.000000480426    -0.000001040145
            -0.000000881601    -0.000001369406    0.060899240489    0.030224796714    -0.000000862660    -0.000001378009    0.055739599113    0.043581794091
            0.055137378281    0.032452073033    -0.000000862660    -0.000001378009    0.060109278752    0.018310192272    -0.000000429793    -0.000001021544
            -0.000000480426    -0.000001040146    0.055739599113    0.043581794091    -0.000000429793    -0.000001021544    0.060542113706    0.031033138736
0.275     0.060122396311    0.013866230974    -0.000001018282    -0.000001463832    0.058370029176    0.028479024581    -0.000000562554    -0.000001130350
            -0.000001018282    -0.000001463832    0.063057657616    0.028498851952    -0.000000997469    -0.000001475336    0.061069911399    0.041364219484
            0.058370029176    0.028479024581    -0.000000997469    -0.000001475336    0.059990406698    0.014898230657    -0.000000505583    -0.000001114301
            -0.000000562554    -0.000001130350    0.061069911399    0.041364219484    -0.000000505583    -0.000001114301    0.062822922090    0.029476061973
0.300     0.058348302465    0.010886269126    -0.000001164764    -0.000001556307    0.060072277391    0.024328893444    -0.000000651821    -0.000001223186
            -0.000001164764    -0.000001556307    0.064302991068    0.026936136516    -0.000001142116    -0.000001571200    0.065444192910    0.038614530105
            0.060072277391    0.024328893444    -0.000001142116    -0.000001571200    0.058398818813    0.012049956261    -0.000000588416    -0.000001210675
            -0.000000651821    -0.000001223186    0.065444192910    0.038614530105    -0.000000588416    -0.000001210675    0.064236294351    0.028059377998
0.325     0.055276223572    0.008959626398    -0.000001323861    -0.000001647457    0.060282086911    0.020466166340    -0.000000750817    -0.000001319836
            -0.000001323861    -0.000001647457    0.064765905645    0.025823717804    -0.000001299487    -0.000001666321    0.068833666929    0.035632137143
            0.060282086911    0.020466166340    -0.000001299487    -0.000001666321    0.055545582586    0.010214717904    -0.000000680981    -0.000001311950
            -0.000000750817    -0.000001319836    0.068833666929    0.035632137143    -0.000000680981    -0.000001311950    0.064907218044    0.027057812176
0.350     0.051250753422    0.008487440163    -0.000001498642    -0.000001736835    0.059168359017    0.017336879206    -0.000000862385    -0.000001420425
            -0.000001498642    -0.000001736835    0.064655588979    0.025410294284    -0.000001472736    -0.000001760300    0.071295537411    0.032712502638
            0.059168359017    0.017336879206    -0.000001472736    -0.000001760300    0.051764612254    0.009783328785    -0.000000786261    -0.000001418305
            -0.000000862385    -0.000001420425    0.071295537411    0.032712502638    -0.000000786261    -0.000001418305    0.065035946980    0.026708909017
0.375     0.046724432646    0.009766161077    -0.000001692851    -0.000001823036    0.057019120528    0.015326663275    -0.000000990290    -0.000001524639
            -0.000001692851    -0.000001823036    0.064244964960    0.025872635761    -0.000001665737    -0.000001851789    0.072960772810    0.030116081447
            0.057019120528    0.015326663275    -0.000001665737    -0.000001851789    0.047494614755    0.011044869489    -0.000000908182    -0.000001529510
            -0.000000990290    -0.000001524639    0.072960772810    0.030116081447    -0.000000908182    -0.000001529510    0.064883183250    0.027181016511
0.400     0.042232460225    0.012969411769    -0.000001909904    -0.000001903145    0.054230696434    0.014736197046    -0.000001138153    -0.000001630663
            -0.000001909904    -0.000001903145    0.063855054187    0.027312092524    -0.000001882037    -0.000001937899    0.074032955030    0.028059243334
            0.054230696434    0.014736197046    -0.000001882037    -0.000001937899    0.043254939664    0.014169810931    -0.000001050571    -0.000001643785
            -0.000001138153    -0.000001630663    0.074032955030    0.028059243334    -0.000001050571    -0.000001643785    0.064756059608    0.028570338395
0.425     0.038355938366    0.018116761666    -0.000002153277    -0.000001973004    0.051278106487    0.015743621252    -0.000001310165    -0.000001735823
            -0.000002153277    -0.000001973004    0.063829461905    0.029732048409    -0.000002125300    -0.000002014497    0.074765081288    0.026686044444
            0.051278106487    0.015743621252    -0.000002125300    -0.000002014497    0.039610345376    0.019178872949    -0.000001217829    -0.000001758469
            -0.000001310165    -0.000001735823    0.074765081288    0.026686044444    -0.000001217829    -0.000001758469    0.064982763876    0.030878955732
0.450     0.035684791543    0.025068536116    -0.000002425212    -0.000002026795    0.048685541044    0.018390015520    -0.000001509628    -0.000001835582
            -0.000002425212    -0.000002026795    0.064514561245    0.033041866874    -0.000002397946    -0.000002075723    0.075448488993    0.026065409735
            0.048685541044    0.018390015520    -0.000002397946    -0.000002075723    0.037134191183    0.025938532230    -0.000001413521    -0.000001868979
            -0.000001509628    -0.000001835582    0.075448488993    0.026065409735    -0.000001413521    -0.000001868979    0.065893578377    0.034018908723
0.475     0.034767731825    0.033516387963    -0.000002727078    -0.000002057555    0.046980233084    0.022558302112    -0.000001739653    -0.000001924356
            -0.000002727078    -0.000002057555    0.066226382537    0.037048740793    -0.000002701570    -0.000002114533    0.076381080135    0.026172926411
            0.046980233084    0.022558302112    -0.000002701570    -0.000002114533    0.036361143572    0.034150897308    -0.000001641023    -0.000001969664
            -0.000001739653    -0.000001924356    0.076381080135    0.026172926411    -0.000001641023    -0.000001969664    0.067789447852    0.037804619250
0.500     0.036070061490    0.043001226502    -0.000003057975    -0.000002057136    0.046652007593    0.027981801150    -0.000002001392    -0.000001994804
            -0.000003057975    -0.000002057136    0.069230845450    0.041473900504    -0.000003035442    -0.000002122636    0.077851676714    0.026899288714
            0.046652007593    0.027981801150    -0.000003035442    -0.000002122636    0.037745066071    0.043371515873    -0.000001901721    -0.000002052989
            -0.000002001392    -0.000001994804    0.077851676714    0.026899288714    -0.000001901721    -0.000002052989    0.070923543671    0.041968236713
0.525     0.039924828207    0.052932460858    -0.000003415187    -0.000002017021    0.048102274116    0.034250382823    -0.000002294809    -0.000002038954
            -0.000003415187    -0.000002017021    0.073712390439    0.045960707510    -0.000003397057    -0.000002091319    0.080104382105    0.028046847579
            0.048102274116    0.034250382823    -0.000003397057    -0.000002091319    0.041612379549    0.053027740162    -0.000002195828    -0.000002110786
            -0.000002294809    -0.000002038954    0.080104382105    0.028046847579    -0.000002195828    -0.000002110786    0.075470350063    0.046167697409
0.550     0.046503340542    0.062633599181    -0.000003792921    -0.000001928730    0.051611367061    0.040847672453    -0.000002616827    -0.000002047979
            -0.000003792921    -0.000001928730    0.079762472182    0.050103316999    -0.000003780727    -0.000002011854    0.083326642420    0.029352391244
            0.051611367061    0.040847672453    -0.000003780727    -0.000002011854    0.048132697104    0.062462097506    -0.000002520432    -0.000002133926
            -0.000002616827    -0.000002047979    0.083326642420    0.029352391244    -0.000002520432    -0.000002133926    0.081515365450    0.050013867864
0.575     0.055786665884    0.071385795248    -0.000004183294    -0.000001784932    0.057301847670    0.047183238702    -0.000002962542    -0.000002013661
            -0.000004183294    -0.000001784932    0.087357422349    0.053468641591    -0.000004178711    -0.000001876610    0.087619074364    0.030497977577
            0.057301847670    0.047183238702    -0.000004178711    -0.000001876610    0.057290947758    0.070975231699    -0.000002870790    -0.000002113895
            -0.000002962542    -0.000002013661    0.087619074364    0.030497977577    -0.000002870790    -0.000002113895    0.089033664399    0.053092394324
0.600     0.067566340777    0.078487604866    -0.000004575487    -0.000001580088    0.065133022669    0.052649768140    -0.000003323704    -0.000001928643
            -0.000004575487    -0.000001580088    0.096363449299    0.055631729727    -0.000004580150    -0.000001679732    0.092996685846    0.031143906184
            0.065133022669    0.052649768140    -0.000004580150    -0.000001679732    0.068888069330    0.077883287033    -0.000003238654    -0.000002042947
            -0.000003323704    -0.000001928643    0.092996685846    0.031143906184    -0.000003238654    -0.000002042947    0.097895220436    0.054996544985
0.625     0.081448193785    0.083304833582    -0.000004957468    -0.000001311403    0.074892998973    0.056662457712    -0.000003690650    -0.000001787786
            -0.000004957468    -0.000001311403    0.106531761779    0.056203381273    -0.000004972989    -0.000001418087    0.099371217666    0.030947459015
            0.074892998973    0.056662457712    -0.000004972989    -0.000001418087    0.082544337148    0.082566650386    -0.000003614373    -0.000001915590
            -0.000003690650    -0.000001787786    0.099371217666    0.030947459015    -0.000003614373    -0.000001915590    0.107859731250    0.055353562653
0.650     0.096888734341    0.085321298534    -0.000005315618    -0.000000979329    0.086226487698    0.058714338599    -0.000004051287    -0.000001588500
            -0.000005315618    -0.000000979329    0.117520820060    0.054860441438    -0.000005343440    -0.000001091807    0.106570412679    0.029596563384
            0.086226487698    0.058714338599    -0.000005343440    -0.000001091807    0.097733140893    0.084519587312    -0.000003985704    -0.000001728882
            -0.000004051287    -0.000001588500    0.106570412679    0.029596563384    -0.000003985704    -0.000001728882    0.118598217459    0.053855028882
0.675     0.113224287710    0.084171676224    -0.000005637003    -0.000000587815    0.098652316337    0.058403074122    -0.000004393712    -0.000001331499
            -0.000005637003    -0.000000587815    0.128907004959    0.051367747328    -0.000005678385    -0.000000704570    0.114333319824    0.026827099364
            0.098652316337    0.058403074122    -0.000005678385    -0.000000704570    0.113811342332    0.083381281444    -0.000004340593    -0.000001483239
            -0.000004393712    -0.000001331499    0.114333319824    0.026827099364    -0.000004340593    -0.000001483239    0.129703066362    0.050276259956
0.700     0.129728377078    0.079664083156    -0.000005909170    -0.000000144323    0.111612236022    0.055463237659    -0.000004705454    -0.000001020787
            -0.000005909170    -0.000000144323    0.140219862362    0.045595590533    -0.000005965062    -0.000000263623    0.122343685592    0.022445713042
            0.111612236022    0.055463237659    -0.000005965062    -0.000000263623    0.130071936792    0.078960112753    -0.000004666292    -0.000001182392
            -0.000004705454    -0.000001020787    0.122343685592    0.022445713042    -0.000004666292    -0.000001182392    0.140722355512    0.044494008825
0.725     0.145648825186    0.071786246477    -0.000006122428    0.000000340817    0.124497703991    0.049769965232    -0.000004976288    -0.000000663391
            -0.000006122428    0.000000340817    0.150961599604    0.037527721948    -0.000006193515    0.000000220904    0.130233941165    0.016339116184
            0.124497703991    0.049769965232    -0.000006193515    0.000000220904    0.145783116581    0.071237234151    -0.000004952339    -0.000000833174
            -0.000004976288    -0.000000663391    0.130233941165    0.016339116184    -0.000004952339    -0.000000833174    0.151177438058    0.036492595742
0.750     0.160262225870    0.060696592176    -0.000006269296    0.000000854853    0.136699839095    0.041345352452    -0.000005197240    -0.000000269031
            -0.000006269296    0.000000854853    0.160643252220    0.027260180166    -0.000006355892    0.000000736299    0.137623213332    0.008482372461
            0.136699839095    0.041345352452    -0.000006355892    0.000000736299    0.160238150908    0.060361377040    -0.000005189416    -0.000000445195
            -0.000005197240    -0.000000269031    0.137623213332    0.008482372461    -0.000005189416    -0.000000445195    0.160598224627    0.026365902414
0.775     0.172902781773    0.046709701947    -0.000006346303    0.000001383905    0.147629590873    0.030343369896    -0.000005363054    0.000000150974
            -0.000006346303    0.000001383905    0.168802876996    0.014997916922    -0.000006448408    0.000001268730    0.144121766027    -0.001062164184
            0.147629590873    0.030343369896    -0.000006448408    0.000001268730    0.172785442754    0.046632834535    -0.000005372002    -0.000000029714
