# GHz S RI R 45
0.000     0.016055754692    0.001800762454    0.000000436698    0.000000930410    0.000827126467    0.001654045305    0.000000451605    0.000001006613
            0.000000436792    0.000000930408    0.014933049974    0.001816164879    0.000000478485    0.000001009744    0.000677199115    0.001658343328
            0.000827125785    0.001654045311    0.000000478326    0.000001009747    0.015983641283    0.001787468196    0.000000484087    0.000001096495
            0.000000451695    0.000001006611    0.000677199289    0.001658343257    0.000000484017    0.000001096496    0.014872242239    0.001828015728
0.025     0.019843964674    0.011034321516    0.000000805633    0.000002111382    0.002013710698    0.010221215926    0.000000840108    0.000002252228
            0.000000805638    0.000002111380    0.018189108654    0.010219066271    0.000000886956    0.000002324047    0.001648618104    0.009335305708
            0.002014277742    0.010220213383    0.000000886948    0.000002324052    0.019780362006    0.010967998856    0.000000903695    0.000002449424
            0.000000840107    0.000002252225    0.001648872258    0.009334731857    0.000000903698    0.000002449440    0.018120472266    0.010192809971
0.050     0.024698197845    0.018496661953    0.000001560176    0.000003858935    0.005522125556    0.019729885224    0.000001625111    0.000004118164
            0.000001560176    0.000003858935    0.022274699554    0.017188183547    0.000001722605    0.000004244422    0.004457910207    0.018112567504
            0.005522188828    0.019729906975    0.000001722605    0.000004244422    0.024571581859    0.018374436363    0.000001749716    0.000004483146
            0.000001625111    0.000004118164    0.004458005313    0.018112561603    0.000001749716    0.000004483146    0.022157972243    0.017140178379
0.075     0.030426290802    0.024360861367    0.000002564478    0.000005374757    0.010950854773    0.027966342837    0.000002668463    0.000005750960
            0.000002564478    0.000005374757    0.026960284880    0.022956141666    0.000002837944    0.000005907849    0.008818510071    0.025985364688
            0.010950860506    0.027966341666    0.000002837944    0.000005907849    0.030235051075    0.024211220329    0.000002873345    0.000006268581
            0.000002668463    0.000005750960    0.008818506311    0.025985367020    0.000002873345    0.000006268581    0.026780514848    0.022912434409
0.100     0.036913632247    0.028483936161    0.000003777796    0.000006657797    0.017839130335    0.034551723021    0.000003932400    0.000007152421
            0.000003777796    0.000006657797    0.032268281443    0.027478691413    0.000004187344    0.000007309525    0.014433058183    0.032692948219
            0.017839128985    0.034551724844    0.000004187344    0.000007309525    0.036648066896    0.028334682265    0.000004236772    0.000007809357
            0.000003932400    0.000007152421    0.014433033410    0.032692956970    0.000004236772    0.000007809357    0.032012016600    0.027468589375
0.125     0.043697996365    0.030771682263    0.000005151388    0.000007690736    0.025675144240    0.039232362915    0.000005371925    0.000008305188
            0.000005151388    0.000007690736    0.037866615504    0.030657227535    0.000005714862    0.000008427927    0.020985824126    0.038044843166
            0.025675144240    0.039232362915    0.000005714862    0.000008427927    0.043356753942    0.030651287995    0.000005794343    0.000009087379
            0.000005371925    0.000008305188    0.020985824126    0.038044843166    0.000005794343    0.000009087379    0.037533926124    0.030716867944
0.150     0.050218523808    0.031193521451    0.000006628280    0.000008484130    0.033915606558    0.041913509499    0.000006933320    0.000009218994
            0.000006628280    0.000008484130    0.043544990621    0.032550121761    0.000007354824    0.000009272560    0.028115380323    0.041925718662
            0.033915606558    0.041913509499    0.000007354824    0.000009272560    0.049816562697    0.031135270424    0.000007490701    0.000010109943
            0.000006933320    0.000009218994    0.028115380323    0.041925718662    0.000007490701    0.000010109943    0.043143620325    0.032712051125
0.175     0.055987584756    0.029995343429    0.000008166523    0.000009051137    0.042021730102    0.042637178232    0.000008577856    0.000009904476
            0.000008166523    0.000009051137    0.048936936801    0.033231844482    0.000009056806    0.000009857249    0.035471945768    0.044318889692
            0.042021730102    0.042637178232    0.000009056806    0.000009857249    0.055549829311    0.030024252027    0.000009285022    0.000010887010
            0.000008577856    0.000009904476    0.035471945768    0.044318889692    0.000009285022    0.000010887010    0.048489374409    0.033527871480
0.200     0.060588252614    0.027533679476    0.000009733499    0.000009418440    0.049497215756    0.041593302464    0.000010275610    0.000010385106
            0.000009733499    0.000009418440    0.053752285166    0.032897502034    0.000010780587    0.000010212396    0.042721564684    0.045290284593
            0.049497215756    0.041593302464    0.000010780587    0.000010212396    0.060147812660    0.027665037670    0.000011146115    0.000011441813
            0.000010275610    0.000010385106    0.042721564684    0.045290284593    0.000011146115    0.000011441813    0.053291862928    0.033352887071
0.225     0.063724276626    0.024251867099    0.000011310364    0.000009613389    0.055923453326    0.039090581652    0.000012009821    0.000010683525
            0.000011310364    0.000009613389    0.057783144376    0.031794980936    0.000012501356    0.000010370378    0.049561241549    0.044975294278
            0.055923453326    0.039090581652    0.000012501356    0.000010370378    0.063319173124    0.024488782533    0.000013056076    0.000011795838
            0.000012009821    0.000010683525    0.049561241549    0.044975294278    0.000013056076    0.000011795838    0.057351317705    0.032425050872
0.250     0.065235943188    0.020672129559    0.000012892743    0.000009665782    0.060989787030    0.035540627957    0.000013777341    0.000010824344
            0.000012892743    0.000009665782    0.060899240489    0.030224796714    0.000014210478    0.000010367596    0.055739599113    0.043581794091
            0.060989787030    0.035540627957    0.000014210478    0.000010367596    0.064905588067    0.021004813788    0.000015010231    0.000011972585
            0.000013777341    0.000010824344    0.055739599113    0.043581794091    0.000015010231    0.000011972585    0.060542113706    0.031033138736
0.275     0.065121977223    0.017334322112    0.000014487533    0.000009596781    0.064511915994    0.031417066089    0.000015585073    0.000010822366
            0.000014487533    0.000009596781    0.063057657616    0.028498851952    0.000015913249    0.000010232599    0.061069911399    0.041364219484
            0.064511915994    0.031417066089    0.000015913249    0.000010232599    0.064902969649    0.017739702605    0.000017014151    0.000011985814
            0.000015585073    0.000010822366    0.061069911399    0.041364219484    0.000017014151    0.000011985814    0.062822922090    0.029476061973
0.300     0.063538346863    0.014771998452    0.000016112758    0.000009421095    0.066449126595    0.027229367007    0.000017449649    0.000010685624
            0.000016112758    0.000009421095    0.064302991068    0.026936136516    0.000017628351    0.000009987265    0.065444192910    0.038614530105
            0.066449126595    0.027229367007    0.000017628351    0.000009987265    0.063460294421    0.015214323676    0.000019082882    0.000011842433
            0.000017449649    0.000010685624    0.065444192910    0.038614530105    0.000019082882    0.000011842433    0.064236294351    0.028059377998
0.325     0.060792648859    0.013452893417    0.000017790731    0.000009138752    0.066905190017    0.023475618663    0.000019390148    0.000010407049
            0.000017790732    0.000009138753    0.064765905645    0.025823717804    0.000019380815    0.000009638139    0.068833666929    0.035632137143
            0.066905190017    0.023475618663    0.000019380815    0.000009638139    0.060874318666    0.013886222130    0.000021233818    0.000011534172
            0.000019390148    0.000010407049    0.068833666929    0.035632137143    0.000021233818    0.000011534172    0.064907218044    0.027057812176
0.350     0.057326356569    0.013754197447    0.000019547371    0.000008738079    0.066130034454    0.020612319554    0.000021427725    0.000009968237
            0.000019547371    0.000008738079    0.064655588979    0.025410294284    0.000021201624    0.000009178755    0.071295537411    0.032712502638
            0.066130034454    0.020612319554    0.000021201624    0.000009178755    0.057572620363    0.014125434814    0.000023486424    0.000011041556
            0.000021427725    0.000009968237    0.071295537411    0.032712502638    0.000023486424    0.000011041556    0.065035946980    0.026708909017
0.375     0.053685560835    0.015912580167    0.000021403618    0.000008190878    0.064499005388    0.019004724438    0.000023576215    0.000009334660
            0.000021403618    0.000008190878    0.064244964960    0.025872635761    0.000023118094    0.000008584146    0.072960772810    0.030116081447
            0.064499005388    0.019004724438    0.000023118094    0.000008584146    0.054084611546    0.016165863333    0.000025852543    0.000010328765
            0.000023576215    0.000009334660    0.072960772810    0.030116081447    0.000025852543    0.000010328765    0.064883183250    0.027181016511
0.400     0.050485908701    0.020007514782    0.000023374633    0.000007456637    0.062494475839    0.018900562139    0.000025841977    0.000008461015
            0.000023374633    0.000007456637    0.063855054187    0.027312092524    0.000025152891    0.000007814820    0.074032955030    0.028059243334
            0.062494475839    0.018900562139    0.000025152891    0.000007814820    0.051008605794    0.020089171356    0.000028336483    0.000009349207
            0.000025841977    0.000008461015    0.074032955030    0.028059243334    0.000028336483    0.000009349207    0.064756059608    0.028570338395
0.425     0.048362223746    0.025931021959    0.000025459904    0.000006481286    0.060660903222    0.020389700647    0.000028213800    0.000007290145
            0.000025459904    0.000006481286    0.063829461905    0.029732048409    0.000027312972    0.000006814787    0.074765081288    0.026686044444
            0.060660903222    0.020389700647    0.000027312972    0.000006814787    0.048962492313    0.025794733079    0.000030924448    0.000008044569
            0.000028213800    0.000007290145    0.074765081288    0.026686044444    0.000030924448    0.000008044569    0.064982763876    0.030878955732
0.450     0.047920162309    0.033390505971    0.000027643456    0.000005203820    0.059566611907    0.023396128350    0.000030663894    0.000005760905
            0.000027643456    0.000005203820    0.064514561245    0.033041866874    0.000029589458    0.000005519155    0.075448488993    0.026065409735
            0.059566611907    0.023396128350    0.000029589458    0.000005519155    0.048537554044    0.033002840901    0.000033585746    0.000006352312
            0.000030663894    0.000005760905    0.075448488993    0.026065409735    0.000033585746    0.000006352312    0.065893578377    0.034018908723
0.475     0.049674926211    0.041910463437    0.000029884143    0.000003560006    0.059741524716    0.027663380606    0.000033138895    0.000003811430
            0.000029884143    0.000003560006    0.066226382537    0.037048740793    0.000031946990    0.000003856646    0.076381080135    0.026172926411
            0.059741524716    0.027663380606    0.000031946990    0.000003856646    0.050237434940    0.041255320732    0.000036263390    0.000004209788
            0.000033138895    0.000003811430    0.076381080135    0.026172926411    0.000036263390    0.000004209788    0.067789447852    0.037804619250
0.500     0.054003545381    0.050868143063    0.000032120194    0.000001491518    0.061633063930    0.032778543909    0.000035565223    0.000001389484
            0.000032120194    0.000001491518    0.069230845450    0.041473900504    0.000034327236    0.000001760568    0.077851676714    0.026899288714
            0.061633063930    0.032778543909    0.000034327236    0.000001760568    0.054433888213    0.049949394614    0.000038879789    0.000001564079
            0.000035565223    0.000001389484    0.077851676714    0.026899288714    0.000038879789    0.000001564079    0.070923543671    0.041968236713
0.525     0.061094791793    0.059530252530    0.000034262388    -0.000001046336    0.065546883134    0.038194845812    0.000037843349    -0.000001540791
            0.000034262388    -0.000001046336    0.073712390439    0.045960707510    0.000036642207    -0.000000824052    0.080104382105    0.028046847579
            0.065546883134    0.038194845812    0.000036642207    -0.000000824052    0.061316149061    0.058374799253    0.000041331097    -0.000001620730
            0.000037843348    -0.000001540791    0.080104382105    0.028046847579    0.000041331097    -0.000001620730    0.075470350063    0.046167697409
0.550     0.070928058743    0.067119126257    0.000036206137    -0.000004075850    0.071622907171    0.043286856790    0.000039860924    -0.000004990091
            0.000036206137    -0.000004075850    0.079762472182    0.050103316999    0.000038785123    -0.000003930113    0.083326642420    0.029352391244
            0.071622907171    0.043286856790    0.000038785123    -0.000003930113    0.070870811138    0.065774689318    0.000043499950    -0.000005354487
            0.000039860924    -0.000004990091    0.083326642420    0.029352391244    0.000043499950    -0.000005354487    0.081515365450    0.050013867864
0.575     0.083257404138    0.072871482226    0.000037830435    -0.000007589102    0.079804266354    0.047399351830    0.000041492186    -0.000008937446
            0.000037830435    -0.000007589102    0.087357422349    0.053468641591    0.000040629810    -0.000007559950    0.087619074364    0.030497977577
            0.079804266354    0.047399351830    0.000040629810    -0.000007559950    0.082865036416    0.071405581844    0.000045255393    -0.000009614502
            0.000041492186    -0.000008937446    0.087619074364    0.030497977577    0.000045255393    -0.000009614502    0.089033664399    0.053092394324
0.600     0.097633703156    0.076108966818    0.000039015822    -0.000011544856    0.089853026184    0.049914292502    0.000042616730    -0.000013327728
            0.000039015822    -0.000011544856    0.096363449299    0.055631729727    0.000042048631    -0.000011681525    0.092996685846    0.031143906184
            0.089853026184    0.049914292502    0.000042048631    -0.000011681525    0.096868037534    0.074603651250    0.000046471872    -0.000014342727
            0.000042616730    -0.000013327728    0.092996685846    0.031143906184    0.000046471872    -0.000014342727    0.097895220436    0.054996544985
0.625     0.113429063897    0.076290962518    0.000039647812    -0.000015865837    0.101356307556    0.050296160319    0.000043121980    -0.000018070415
            0.000039647812    -0.000015865837    0.106531761779    0.056203381273    0.000042915893    -0.000016224956    0.099371217666    0.030947459015
            0.101356307556    0.050296160319    0.000042915893    -0.000016224956    0.112274643979    0.074837217129    0.000047032094    -0.000019444678
            0.000043121980    -0.000018070415    0.099371217666    0.030947459015    0.000047032094    -0.000019444678    0.107859731250    0.055353562653
0.650     0.129896899053    0.073057519772    0.000039635720    -0.000020445411    0.113778172218    0.048142438756    0.000042922734    -0.000023046732
            0.000039635720    -0.000020445411    0.117520820060    0.054860441438    0.000043127853    -0.000021087645    0.106570412679    0.029596563384
            0.113778172218    0.048142438756    0.000043127853    -0.000021087645    0.128361674478    0.071749896728    0.000046846686    -0.000024796270
            0.000042922734    -0.000023046732    0.106570412679    0.029596563384    0.000046846686    -0.000024796270    0.118598217459    0.053855028882
0.675     0.146216719692    0.066252468320    0.000038913734    -0.000025150423    0.126487595024    0.043202839953    0.000041960556    -0.000028113802
            0.000038913734    -0.000025150423    0.128907004959    0.051367747328    0.000042604124    -0.000026137724    0.114333319824    0.026827099364
            0.126487595024    0.043202839953    0.000042604124    -0.000026137724    0.144332648454    0.065181129910    0.000045853872    -0.000030248546
            0.000041960556    -0.000028113802    0.114333319824    0.026827099364    0.000045853872    -0.000030248546    0.129703066362    0.050276259956
0.700     0.161563810546    0.055926041780    0.000037454585    -0.000029836082    0.138822746161    0.035395666793    0.000040217517    -0.000033119074
            0.000037454585    -0.000029836082    0.140219862362    0.045595590533    0.000041302572    -0.000031227582    0.122343685592    0.022445713042
            0.138822746161    0.035395666793    0.000041302572    -0.000031227582    0.159384275269    0.055172077999    0.000044034334    -0.000035642038
            0.000040217517    -0.000033119074    0.122343685592    0.022445713042    0.000044034334    -0.000035642038    0.140722355512    0.044494008825
0.725     0.175151042776    0.042324919573    0.000035264930    -0.000034351046    0.150118178167    0.024800318964    0.000037709640    -0.000037906284
            0.000035264930    -0.000034351046    0.150961599604    0.037527721948    0.000039214938    -0.000036199920    0.130233941165    0.016339116184
            0.150118178210    0.024800318702    0.000039214938    -0.000036199920    0.172748752740    0.041953948172    0.000041403193    -0.000040813418
            0.000037709640    -0.000037906284    0.130233941165    0.016339116184    0.000041403193    -0.000040813418    0.151177438058    0.036492595742
0.750     0.186281882667    0.025864480223    0.000032390260    -0.000038554055    0.159758477914    0.011645479376    0.000034492650    -0.000042331297
            0.000032390260    -0.000038554055    0.160643252220    0.027260180166    0.000036373694    -0.000040903466    0.137623213332    0.008482372461
            0.159758477914    0.011645479376    0.000036373694    -0.000040903466    0.183742925216    0.025924057853    0.000038017710    -0.000045611345
            0.000034492650    -0.000042331297    0.137623213332    0.008482372461    0.000038017710    -0.000045611345    0.160598224627    0.026365902414
0.775     0.194372811577    0.007101593204    0.000028904770    -0.000042316200    0.167189937731    -0.003711544483    0.000030650281    -0.000046264488
            0.000028904770    -0.000042316200    0.168802876996    0.014997916922    0.000032842133    -0.000045196583    0.144121766027    -0.001062164184
            0.167189937731    -0.003711544483    0.000032842133    -0.000045196583    0.191793380408    0.007617405198    0.000033963991    -0.000049899457
            0.000030650281    -0.000046264488    0.144121766027    -0.001062164184    0.000033963991    -0.000049899457    0.168540656183    0.014310556761
0.800     0.198983221629    -0.013304782297    0.000024911029    -0.000045534977    0.171959062570    -0.020808339421    0.000026294239    -0.000049603981
            0.000024911029    -0.000045534977    0.175035551918    0.001039739262    0.000028714335    -0.000048961021    0.149367419172    -0.012147737565
