# GHz S RI R 45
0.000     0.014557203781    0.001571448948    -0.000003813536    -0.000008918924    0.000647112094    0.001395664234    -0.000002631837    -0.000006374783
            -0.000003813531    -0.000008918924    0.014933049974    0.001816164879    -0.000017101931    -0.000011921662    0.000677199115    0.001658343328
            0.000647112592    0.001395664223    -0.000017101934    -0.000011921659    0.014437317196    0.001561719284    -0.000003869427    -0.000008996069
            -0.000002631856    -0.000006374743    0.000677199289    0.001658343257    -0.000003869448    -0.000008996070    0.014872242239    0.001828015728
0.025     0.018261980968    0.009293157288    -0.000008982960    -0.000020221292    0.001928297535    0.008361112790    -0.000006028778    -0.000014153537
            -0.000008982931    -0.000020221206    0.018189108654    0.010219066271    -0.000024864693    -0.000027101966    0.001648618104    0.009335305708
            0.001929805442    0.008361020840    -0.000024864884    -0.000027101775    0.018189512155    0.009248348750    -0.000008853318    -0.000020466366
            -0.000006028787    -0.000014153531    0.001648872258    0.009334731857    -0.000008853311    -0.000020466380    0.018120472266    0.010192809971
0.050     0.023629600486    0.015161060948    -0.000020167823    -0.000035244995    0.005664907468    0.015950266268    -0.000013280842    -0.000024807442
            -0.000020167825    -0.000035244999    0.022274699554    0.017188183547    -0.000042472202    -0.000050061749    0.004457910207    0.018112567504
            0.005664891719    0.015950284596    -0.000042472203    -0.000050061750    0.023531787042    0.015104139884    -0.000019500048    -0.000036015275
            -0.000013280843    -0.000024807442    0.004458005313    0.018112561603    -0.000019500055    -0.000036015273    0.022157972243    0.017140178379
0.075     0.030434070654    0.019200530303    -0.000034836822    -0.000045871043    0.011476333702    0.022134446974    -0.000022796312    -0.000032933648
            -0.000034836823    -0.000045871044    0.026960284880    0.022956141666    -0.000065658949    -0.000064270948    0.008818510071    0.025985364688
            0.011476326913    0.022134447115    -0.000065658950    -0.000064270948    0.030302724553    0.019138271144    -0.000033516708    -0.000047728326
            -0.000022796307    -0.000032933652    0.008818506311    0.025985367020    -0.000033516708    -0.000047728326    0.026780514848    0.022912434409
0.100     0.038473726886    0.021050878724    -0.000051985902    -0.000051838543    0.018900313723    0.026450487829    -0.000034193941    -0.000038423996
            -0.000051985902    -0.000051838543    0.032268281443    0.027478691413    -0.000091646782    -0.000070195915    0.014433058183    0.032692948219
            0.018900313723    0.026450487829    -0.000091646782    -0.000070195915    0.038306593082    0.021000498432    -0.000050244975    -0.000055440579
            -0.000034193941    -0.000038423996    0.014433033410    0.032692956970    -0.000050244975    -0.000055440579    0.032012016600    0.027468589375
0.125     0.047136383424    0.020402814805    -0.000070329170    -0.000052843495    0.027400675413    0.028543462790    -0.000046889247    -0.000041002616
            -0.000070329160    -0.000052843506    0.037866615504    0.030657227535    -0.000118065159    -0.000068312985    0.020985824126    0.038044843166
            0.027400676021    0.028543459434    -0.000118065159    -0.000068312985    0.046937404995    0.020382736573    -0.000068754003    -0.000058783462
            -0.000046889247    -0.000041002616    0.020985824126    0.038044843166    -0.000068754003    -0.000058783462    0.037533926124    0.030716867944
0.150     0.055862922847    0.017076461463    -0.000088574752    -0.000049031865    0.036383591974    0.028195176493    -0.000060247964    -0.000040615157
            -0.000088574752    -0.000049031865    0.043544990621    0.032550121761    -0.000143076569    -0.000059571267    0.028115380323    0.041925718662
            0.036383591974    0.028195176493    -0.000143076569    -0.000059571267    0.055643915618    0.017105997089    -0.000088075564    -0.000057702480
            -0.000060247964    -0.000040615157    0.028115380323    0.041925718662    -0.000088075564    -0.000057702480    0.043143620325    0.032712051125
0.175     0.063894427585    0.011078946231    -0.000105570634    -0.000040814917    0.045216990831    0.025331525585    -0.000073683330    -0.000037277110
            -0.000105570634    -0.000040814917    0.048936936801    0.033231844482    -0.000165306338    -0.000045047162    0.035471945768    0.044318889692
            0.045216990831    0.025331525585    -0.000165306338    -0.000045047162    0.063674413145    0.011173531624    -0.000107298581    -0.000052270322
            -0.000073683330    -0.000037277110    0.035471945768    0.044318889692    -0.000107298581    -0.000052270322    0.048489374409    0.033527871480
0.200     0.070539230158    0.002623607722    -0.000120406168    -0.000028901896    0.053274111257    0.020030399773    -0.000086678275    -0.000031137572
            -0.000120406168    -0.000028901896    0.053752285166    0.032897502034    -0.000183804089    -0.000026014808    0.042721564684    0.045290284593
            0.053274111257    0.020030399773    -0.000183804089    -0.000026014808    0.070343170684    0.002793419264    -0.000125626698    -0.000042762633
            -0.000086678275    -0.000031137572    0.042721564684    0.045290284593    -0.000125626698    -0.000042762633    0.053291862928    0.033352887071
0.225     0.075173335822    -0.007930937678    -0.000132452968    -0.000014137393    0.059958496578    0.012511167235    -0.000098789209    -0.000022385799
            -0.000132452968    -0.000014137393    0.057783144376    0.031794980936    -0.000198015329    -0.000003764542    0.049561241549    0.044975294278
            0.059958496578    0.012511167235    -0.000198015329    -0.000003764542    0.075030731498    -0.007683315987    -0.000142382855    -0.000029541252
            -0.000098789209    -0.000022385799    0.049561241549    0.044975294278    -0.000142382855    -0.000029541252    0.057351317705    0.032425050872
0.250     0.077278838481    -0.020081181580    -0.000141404547    0.000002549028    0.064741126419    0.003125765115    -0.000109663318    -0.000011259717
            -0.000141404547    0.000002549028    0.060899240489    0.030224796714    -0.000207801036    0.000020407293    0.055739599113    0.043581794091
            0.064741126419    0.003125765115    -0.000207801036    0.000020407293    0.077221767581    -0.019761676097    -0.000157045596    -0.000013053981
            -0.000109663318    -0.000011259717    0.055739599113    0.043581794091    -0.000157045596    -0.000013053981    0.060542113706    0.031033138736
0.275     0.076455419385    -0.033215047469    -0.000147241460    0.000020300359    0.067179241119    -0.007658506929    -0.000118998230    0.000002010953
            -0.000147241460    0.000020300359    0.063057657616    0.028498851952    -0.000213366887    0.000045382581    0.061069911399    0.041364219484
            0.067179241119    -0.007658506929    -0.000213366887    0.000045382581    0.076515959851    -0.032838931529    -0.000169203084    0.000006247954
            -0.000118998230    0.000002010953    0.061069911399    0.041364219484    -0.000169203084    0.000006247954    0.062822922090    0.029476061973
0.300     0.072458453198    -0.046634030519    -0.000150209656    0.000038370922    0.066947046281    -0.019282253176    -0.000126550675    0.000017197798
            -0.000150209656    0.000038370922    0.064302991068    0.026936136516    -0.000215227063    0.000070255423    0.065444192910    0.038614530105
            0.066947046281    -0.019282253176    -0.000215227063    0.000070255423    0.072665893861    -0.046226764470    -0.000178565179    0.000027910166
            -0.000126550675    0.000017197798    0.065444192910    0.038614530105    -0.000178565179    0.000027910166    0.064236294351    0.028059377998
0.325     0.065200082995    -0.059590572423    -0.000150714763    0.000056238675    0.063845887581    -0.031116832124    -0.000132077702    0.000034089058
            -0.000150714763    0.000056238675    0.064765905645    0.025823717804    -0.000214061978    0.000094452348    0.068833666929    0.035632137143
            0.063845887581    -0.031116832124    -0.000214061978    0.000094452348    0.065578519537    -0.059186385409    -0.000184893124    0.000051531509
            -0.000132077702    0.000034089058    0.068833666929    0.035632137143    -0.000184893124    0.000051531509    0.064907218044    0.027057812176
0.350     0.054771459288    -0.071325682166    -0.000149268871    0.000073615083    0.057824727174    -0.042497609578    -0.000135354128    0.000052478855
            -0.000149268871    0.000073615083    0.064655588979    0.025410294284    -0.000210633476    0.000117743918    0.071295537411    0.032712502638
            0.057824727174    -0.042497609578    -0.000210633476    0.000117743918    0.055336848146    -0.070966662123    -0.000188008871    0.000076728023
            -0.000135354128    0.000052478855    0.071295537411    0.032712502638    -0.000188008871    0.000076728023    0.065035946980    0.026708909017
0.375     0.041431891235    -0.081103207929    -0.000146354739    0.000090466555    0.048980911637    -0.052749360180    -0.000136113335    0.000072156319
            -0.000146354739    0.000090466555    0.064244964960    0.025872635761    -0.000205615623    0.000140236754    0.072960772810    0.030116081447
            0.048980911637    -0.052749360180    -0.000205615623    0.000140236754    0.042190143003    -0.080837905715    -0.000187716169    0.000103160509
            -0.000136113335    0.000072156319    0.072960772810    0.030116081447    -0.000187716169    0.000103160509    0.064883183250    0.027181016511
0.400     0.025610616380    -0.088255357270    -0.000142364882    0.000106980047    0.037566128510    -0.061228157544    -0.000134084432    0.000092867177
            -0.000142364882    0.000106980047    0.063855054187    0.027312092524    -0.000199507946    0.000162338520    0.074032955030    0.028059243334
            0.037566128510    -0.061228157544    -0.000199507946    0.000162338520    0.026555605409    -0.088135172600    -0.000183824420    0.000130488452
            -0.000134084432    0.000092867177    0.074032955030    0.028059243334    -0.000183824420    0.000130488452    0.064756059608    0.028570338395
0.425     0.007885351327    -0.092211638639    -0.000137492779    0.000123498562    0.023976478873    -0.067345833551    -0.000128955093    0.000114297636
            -0.000137492779    0.000123498562    0.063829461905    0.029732048409    -0.000192502044    0.000184632493    0.074765081288    0.026686044444
            0.023976478873    -0.067345833551    -0.000192502044    0.000184632493    0.008997894662    -0.092289018962    -0.000176096253    0.000158341758
            -0.000128955093    0.000114297636    0.074765081288    0.026686044444    -0.000176096253    0.000158341758    0.064982763876    0.030878955732
0.450     -0.011039085794    -0.092541234908    -0.000131703459    0.000140450817    0.008739957038    -0.070614091333    -0.000120426984    0.000136045920
            -0.000131703459    0.000140450817    0.064514561245    0.033041866874    -0.000184446647    0.000207794077    0.075448488993    0.026065409735
            0.008739957038    -0.070614091333    -0.000184446647    0.000207794077    -0.009791486799    -0.092864933669    -0.000164284494    0.000186302028
            -0.000120426984    0.000136045920    0.075448488993    0.026065409735    -0.000164284494    0.000186302028    0.065893578377    0.034018908723
0.475     -0.030363219241    -0.088973353000    -0.000124693263    0.000158224161    -0.007505995382    -0.070663566866    -0.000108213197    0.000157592496
            -0.000124693263    0.000158224161    0.066226382537    0.037048740793    -0.000174816029    0.000232392930    0.076381080135    0.026172926411
            -0.007505995382    -0.070663566866    -0.000174816029    0.000232392930    -0.029026053515    -0.089586341280    -0.000148123736    0.000213838887
            -0.000108213197    0.000157592496    0.076381080135    0.026172926411    -0.000148123736    0.000213838887    0.067789447852    0.037804619250
0.500     -0.049233823275    -0.081425921954    -0.000115932681    0.000177077894    -0.024048035877    -0.067280457805    -0.000092111163    0.000178304176
            -0.000115932681    0.000177077894    0.069230845450    0.041473900504    -0.000162770272    0.000258800949    0.077851676714    0.026899288714
            -0.024048035877    -0.067280457805    -0.000162770272    0.000258800949    -0.047863888172    -0.082360851490    -0.000127414864    0.000240306664
            -0.000092111163    0.000178304176    0.077851676714    0.026899288714    -0.000127414864    0.000240306664    0.070923543671    0.041968236713
0.525     -0.066785544448    -0.070010272083    -0.000104717675    0.000197026593    -0.040128112672    -0.060412647231    -0.000072031466    0.000197422134
            -0.000104717675    0.000197026593    0.073712390439    0.045960707510    -0.000147230894    0.000287018586    0.080104382105    0.028046847579
            -0.040128112672    -0.060412647231    -0.000147230894    0.000287018586    -0.065448527774    -0.071287504211    -0.000102019933    0.000264923756
            -0.000072031466    0.000197422134    0.080104382105    0.028046847579    -0.000102019933    0.000264923756    0.075470350063    0.046167697409
0.550     -0.082192534831    -0.055036028740    -0.000090267421    0.000217808591    -0.054992725002    -0.050187051441    -0.000048056990    0.000214118322
            -0.000090267421    0.000217808591    0.079762472182    0.050103316999    -0.000127036166    0.000316642834    0.083326642420    0.029352391244
            -0.054992725002    -0.050187051441    -0.000127036166    0.000316642834    -0.080960180021    -0.056660504559    -0.000071993013    0.000286800716
            -0.000048056990    0.000214118322    0.083326642420    0.029352391244    -0.000071993013    0.000286800716    0.081515365450    0.050013867864
0.575     -0.094710162744    -0.036995034588    -0.000071842492    0.000238824728    -0.067926593713    -0.036897312170    -0.000020484599    0.000227510294
            -0.000071842492    0.000238824728    0.087357422349    0.053468641591    -0.000101085035    0.000346789245    0.087619074364    0.030497977577
            -0.067926593713    -0.036897312170    -0.000101085035    0.000346789245    -0.093656206136    -0.038955899488    -0.000037563166    0.000304966584
            -0.000020484599    0.000227510294    0.087619074364    0.030497977577    -0.000037563166    0.000304966584    0.089033664399    0.053092394324
0.600     -0.103723491299    -0.016538621219    -0.000048856851    0.000259194374    -0.078302885985    -0.020994935151    0.000010155918    0.000236765834
            -0.000048856851    0.000259194374    0.096363449299    0.055631729727    -0.000068526705    0.000376169283    0.092996685846    0.031143906184
            -0.078302885985    -0.020994935151    -0.000068526705    0.000376169283    -0.102919537024    -0.018807805158    0.000000766490    0.000318457638
            0.000010155918    0.000236765834    0.092996685846    0.031143906184    0.000000766490    0.000318457638    0.097895220436    0.054996544985
0.625     -0.108775598614    0.005557766998    -0.000020997863    0.000277785434    -0.085607432182    -0.003059190839    0.000043106205    0.000241141822
            -0.000020997863    0.000277785434    0.106531761779    0.056203381273    -0.000028873987    0.000403141540    0.099371217666    0.030947459015
            -0.085607432182    -0.003059190839    -0.000028873987    0.000403141540    -0.108287951577    0.003024832027    0.000042240325    0.000326367260
            0.000043106205    0.000241141822    0.099371217666    0.030947459015    0.000042240325    0.000326367260    0.107859731250    0.055353562653
0.650     -0.109598456339    0.028439433519    0.000011720967    0.000293347132    -0.089476531067    0.016234492373    0.000077405927    0.000240094182
            0.000011720967    0.000293347132    0.117520820060    0.054860441438    0.000017863018    0.000425890983    0.106570412679    0.029596563384
            -0.089476531067    0.016234492373    0.000017863018    0.000425890983    -0.109482964954    0.025701557210    0.000085859797    0.000327973002
            0.000077405927    0.000240094182    0.106570412679    0.029596563384    0.000085859797    0.000327973002    0.118598217459    0.053855028882
0.675     -0.106118372783    0.051216913253    0.000048898575    0.000304594927    -0.089700590183    0.036152805096    0.000111945749    0.000233304941
            0.000048898575    0.000304594927    0.128907004959    0.051367747328    0.000071154491    0.000442544535    0.114333319824    0.026827099364
            -0.089700590183    0.036152805096    0.000071154491    0.000442544535    -0.106418255055    0.048345077593    0.000130430849    0.000322768706
            0.000111945749    0.000233304941    0.114333319824    0.026827099364    0.000130430849    0.000322768706    0.129703066362    0.050276259956
0.700     -0.098459782891    0.073017477832    0.000089793637    0.000310357622    -0.086241372688    0.055948703407    0.000145571070    0.000220747908
            0.000089793637    0.000310357622    0.140219862362    0.045595590533    0.000129947889    0.000451389553    0.122343685592    0.022445713042
            -0.086241372688    0.055948703407    0.000129947889    0.000451389553    -0.099202714386    0.070091219374    0.000174649980    0.000310561312
            0.000145571070    0.000220747908    0.122343685592    0.022445713042    0.000174649980    0.000310561312    0.140722355512    0.044494008825
0.725     -0.086928394313    0.093025096615    0.000133336106    0.000309656588    -0.079213350987    0.074892970966    0.000177126215    0.000202674112
            0.000133336106    0.000309656588    0.150961599604    0.037527721948    0.000192715464    0.000450979491    0.130233941165    0.016339116184
            -0.079213350987    0.074892970966    0.000192715464    0.000450979491    -0.088124885834    0.090129562825    0.000217185862    0.000291450166
            0.000177126215    0.000202674112    0.130233941165    0.016339116184    0.000217185862    0.000291450166    0.151177438058    0.036492595742
0.750     -0.071989982176    0.110523423148    0.000178232719    0.000301809714    -0.068880271296    0.092316728245    0.000205575488    0.000179610595
            0.000178232719    0.000301809714    0.160643252220    0.027260180166    0.000257608307    0.000440286860    0.137623213332    0.008482372461
            -0.068880271296    0.092316728245    0.000257608307    0.000440286860    -0.073632990709    0.107744241477    0.000256773747    0.000265869380
            0.000205575488    0.000179610595    0.137623213332    0.008482372461    0.000256773747    0.000265869380    0.160598224627    0.026365902414
0.775     -0.054238725277    0.124919951487    0.000223033120    0.000286460327    -0.055624235554    0.107627939358    0.000230036692    0.000152302733
            0.000223033120    0.000286460327    0.168802876996    0.014997916922    0.000322532155    0.000418743633    0.144121766027    -0.001062164184
            -0.055624235554    0.107627939358    0.000322532155    0.000418743633    -0.056303845798    0.122340608519    0.000292290331    0.000234502981
            0.000230036692    0.000152302733    0.144121766027    -0.001062164184    0.000292290331    0.000234502981    0.168540656183    0.014310556761
