# GHz S RI R 45
0.000     0.014603200501    0.001749471523    -0.000014859970    -0.000039299133    0.000653610883    0.001475269248    -0.000011480192    -0.000029508624
            -0.000014860016    -0.000039299130    0.014933049974    0.001816164879    -0.000020932644    -0.000054730025    0.000677199115    0.001658343328
            0.000653611571    0.001475269271    -0.000020932688    -0.000054730026    0.014524921835    0.001764128484    -0.000015131319    -0.000039715000
            -0.000011480192    -0.000029508624    0.000677199289    0.001658343257    -0.000015131216    -0.000039714999    0.014872242239    0.001828015728
0.025     0.018409660328    0.009598719555    -0.000034390263    -0.000087081258    0.001981085140    0.008499943349    -0.000026647195    -0.000066129413
            -0.000034390254    -0.000087081280    0.018189108654    0.010219066271    -0.000047913603    -0.000120954204    0.001648618104    0.009335305708
            0.001978800690    0.008498208925    -0.000047913618    -0.000120954241    0.018332729858    0.009595305100    -0.000034971535    -0.000087955990
            -0.000026647769    -0.000066129305    0.001648872258    0.009334731857    -0.000034971585    -0.000087956069    0.018120472266    0.010192809971
0.050     0.023940603590    0.015624489569    -0.000076792169    -0.000154894302    0.005768728721    0.016190936712    -0.000059366757    -0.000117277793
            -0.000076792169    -0.000154894302    0.022274699554    0.017188183547    -0.000106059457    -0.000215025011    0.004457910207    0.018112567504
            0.005768709787    0.016190926473    -0.000106059457    -0.000215025011    0.023879951759    0.015639637780    -0.000078058320    -0.000156210561
            -0.000059366762    -0.000117277802    0.004458005313    0.018112561603    -0.000078058731    -0.000156211451    0.022157972243    0.017140178379
0.075     0.030903014008    0.019773089307    -0.000134018018    -0.000208497001    0.011655190583    0.022457529961    -0.000103459015    -0.000157239038
            -0.000134018018    -0.000208497001    0.026960284880    0.022956141666    -0.000184034254    -0.000289842286    0.008818510071    0.025985364688
            0.011655182861    0.022457529462    -0.000184034260    -0.000289842294    0.030860718707    0.019805382181    -0.000136033336    -0.000209807910
            -0.000103459015    -0.000157239038    0.008818506311    0.025985367020    -0.000136033336    -0.000209807910    0.026780514848    0.022912434409
0.100     0.039109940075    0.021696306473    -0.000203753603    -0.000246793265    0.019168317618    0.026840903468    -0.000156937492    -0.000185088783
            -0.000203753603    -0.000246793265    0.032268281443    0.027478691413    -0.000278974674    -0.000344228547    0.014433058183    0.032692948219
            0.019168317618    0.026840903468    -0.000278974674    -0.000344228547    0.039099375352    0.021745644879    -0.000206375850    -0.000247657094
            -0.000156937492    -0.000185088783    0.014433033410    0.032692956970    -0.000206375850    -0.000247657094    0.032012016600    0.027468589375
0.125     0.047944089675    0.021081401525    -0.000282751255    -0.000267872397    0.027771261752    0.028984201850    -0.000217091938    -0.000199440342
            -0.000282751269    -0.000267872411    0.037866615504    0.030657227535    -0.000386702080    -0.000375664278    0.020985824126    0.038044843166
            0.027771261752    0.028984201850    -0.000386702080    -0.000375664278    0.047980566462    0.021146818202    -0.000285610757    -0.000267945596
            -0.000217091938    -0.000199440342    0.020985824126    0.038044843166    -0.000285610757    -0.000267945596    0.037533926124    0.030716867944
0.150     0.056845955796    0.017756634063    -0.000367361126    -0.000270881768    0.036869216172    0.028669243840    -0.000280953113    -0.000199777693
            -0.000367361126    -0.000270881768    0.043544990621    0.032550121761    -0.000502477897    -0.000383002107    0.028115380323    0.041925718662
            0.036869216172    0.028669243840    -0.000502477897    -0.000383002107    0.056946349773    0.017831275832    -0.000369902247    -0.000270008906
            -0.000280953113    -0.000199777693    0.028115380323    0.041925718662    -0.000369902247    -0.000270008906    0.043143620325    0.032712051125
0.175     0.065052331463    0.011726051388    -0.000454039096    -0.000255476033    0.045830033698    0.025819280115    -0.000345704701    -0.000186063969
            -0.000454039096    -0.000255476033    0.048936936801    0.033231844482    -0.000621675107    -0.000365721546    0.035471945768    0.044318889692
            0.045830033698    0.025819280115    -0.000621675107    -0.000365721546    0.065234404125    0.011800272574    -0.000455612077    -0.000253784816
            -0.000345704701    -0.000186063969    0.035471945768    0.044318889692    -0.000455612077    -0.000253784816    0.048489374409    0.033527871480
0.200     0.071867731984    0.003202433880    -0.000539529935    -0.000222088628    0.054025815618    0.020508671190    -0.000408843139    -0.000158894132
            -0.000539529935    -0.000222088628    0.053752285166    0.032897502034    -0.000740046931    -0.000324298685    0.042721564684    0.045290284593
            0.054025815618    0.020508671190    -0.000740046931    -0.000324298685    0.072149174474    0.003261769523    -0.000539518054    -0.000220032650
            -0.000408843139    -0.000158894132    0.042721564684    0.045290284593    -0.000539518054    -0.000220032650    0.053291862928    0.033352887071
0.225     0.076663535264    -0.007456311561    -0.000620890695    -0.000171464672    0.060857558203    0.012952505310    -0.000468208123    -0.000119067960
            -0.000620890695    -0.000171464672    0.057783144376    0.031794980936    -0.000853734190    -0.000259628275    0.049561241549    0.044975294278
            0.060857558203    0.012952505310    -0.000853734190    -0.000259628275    0.077060964146    -0.007432726144    -0.000618841160    -0.000169797054
            -0.000468208123    -0.000119067960    0.049561241549    0.044975294278    -0.000618841160    -0.000169797054    0.057351317705    0.032425050872
0.250     0.078917094835    -0.019747467601    -0.000695599726    -0.000104723503    0.065792834893    0.003498599820    -0.000522041438    -0.000067664134
            -0.000695599726    -0.000104723503    0.060899240489    0.030224796714    -0.000959447868    -0.000173076593    0.055739599113    0.043581794091
            0.065792834893    0.003498599820    -0.000959447868    -0.000173076593    0.079443462034    -0.019786115977    -0.000691358597    -0.000104474971
            -0.000522041438    -0.000067664134    0.055739599113    0.043581794091    -0.000691358597    -0.000104474971    0.060542113706    0.031033138736
0.275     0.078221794135    -0.033059508008    -0.000761383217    -0.000023082266    0.068383494115    -0.007390170670    -0.000568846546    -0.000005741501
            -0.000761383217    -0.000023082266    0.063057657616    0.028498851952    -0.001054220317    -0.000066086706    0.061069911399    0.041364219484
            0.068383494115    -0.007390170670    -0.001054220317    -0.000066086706    0.078885140325    -0.033192416620    -0.000755207060    -0.000025403272
            -0.000568846546    -0.000005741501    0.061069911399    0.041364219484    -0.000755207060    -0.000025403272    0.062822922090    0.029476061973
0.300     0.074325749180    -0.046693989668    -0.000816276814    0.000072132524    0.068296876528    -0.019158045104    -0.000607405096    0.000065616670
            -0.000816276814    0.000072132524    0.064302991068    0.026936136516    -0.001135472115    0.000059727360    0.065444192910    0.038614530105
            0.068296876528    -0.019158045104    -0.001135472115    0.000059727360    0.075127220679    -0.046957860396    -0.000808900790    0.000066079925
            -0.000607405096    0.000065616670    0.065444192910    0.038614530105    -0.000808900790    0.000066079925    0.064236294351    0.028059377998
0.325     0.067132514430    -0.059901265747    -0.000858362258    0.000179542935    0.065325894028    -0.031178699565    -0.000636537030    0.000145440270
            -0.000858362258    0.000179542935    0.064765905645    0.025823717804    -0.001200689275    0.000202778979    0.068833666929    0.035632137143
            0.065325894028    -0.031178699565    -0.001200689275    0.000202778979    0.068064774189    -0.060335804441    -0.000851012461    0.000168815430
            -0.000636537030    0.000145440270    0.068833666929    0.035632137143    -0.000851012461    0.000168815430    0.064907218044    0.027057812176
0.350     0.056724040775    -0.071919298847    -0.000885842051    0.000297703694    0.059408963576    -0.042788260824    -0.000655123233    0.000232771519
            -0.000885842051    0.000297703694    0.064655588979    0.025410294284    -0.001247456990    0.000361416080    0.071295537411    0.032712502638
            0.059408963576    -0.042788260824    -0.001247456990    0.000361416080    0.057769989497    -0.072565388689    -0.000880184014    0.000281725583
            -0.000655123233    0.000232771519    0.071295537411    0.032712502638    -0.000880184014    0.000281725583    0.065035946980    0.026708909017
0.375     0.043349994694    -0.082006303339    -0.000896799198    0.000424993271    0.050632094655    -0.053309561010    -0.000661889911    0.000326583355
            -0.000896799198    0.000424993271    0.064244964960    0.025872635761    -0.001273165665    0.000533782603    0.072960772810    0.030116081447
            0.050632094655    -0.053309561010    -0.001273165665    0.000533782603    0.044481918498    -0.082903739536    -0.000894820723    0.000403727014
            -0.000661889911    0.000326583355    0.072960772810    0.030116081447    -0.000894820723    0.000403727014    0.064883183250    0.027181016511
0.400     0.027429998769    -0.089485713639    -0.000889364916    0.000559500379    0.039235268972    -0.062093799890    -0.000655487872    0.000425743377
            -0.000889364916    0.000559500379    0.063855054187    0.027312092524    -0.001275187798    0.000717713814    0.074032955030    0.028059243334
            0.039235268972    -0.062093799890    -0.001275187798    0.000717713814    0.028609698877    -0.090670203930    -0.000893180837    0.000533604744
            -0.000655487872    0.000425743377    0.074032955030    0.028059243334    -0.000893180837    0.000533604744    0.064756059608    0.028570338395
0.425     0.009533373181    -0.093775794871    -0.000861589332    0.000698866057    0.025603012153    -0.068544559374    -0.000634413159    0.000528741406
            -0.000861589332    0.000698866057    0.063829461905    0.029732048409    -0.001250696977    0.000910456029    0.074765081288    0.026686044444
            0.025603012153    -0.068544559374    -0.001250696977    0.000910456029    0.010711968593    -0.095276274519    -0.000873203177    0.000669772105
            -0.000634413159    0.000528741406    0.074765081288    0.026686044444    -0.000873203177    0.000669772105    0.064982763876    0.030878955732
0.450     -0.009641467379    -0.094431072383    -0.000811726307    0.000840268963    0.010253252043    -0.072161809145    -0.000597192237    0.000633689553
            -0.000811726307    0.000840268963    0.064514561245    0.033041866874    -0.001196996121    0.001108618784    0.075448488993    0.026065409735
            0.010253252043    -0.072161809145    -0.001196996121    0.001108618784    -0.008521719686    -0.096267008444    -0.000832811946    0.000810093719
            -0.000597192237    0.000633689553    0.075448488993    0.026065409735    -0.000832811946    0.000810093719    0.065893578377    0.034018908723
0.475     -0.029298569522    -0.091164097591    -0.000738278414    0.000980192613    -0.006184343732    -0.072561320513    -0.000542452168    0.000738110509
            -0.000738278414    0.000980192613    0.066226382537    0.037048740793    -0.001111585079    0.001307875122    0.076381080135    0.026172926411
            -0.006184343732    -0.072561320513    -0.001111585079    0.001307875122    -0.028302562233    -0.093342564606    -0.000769874547    0.000951727243
            -0.000542452168    0.000738110509    0.076381080135    0.026172926411    -0.000769874547    0.000951727243    0.067789447852    0.037804619250
0.500     -0.048584395482    -0.083873705133    -0.000640373756    0.001114562667    -0.023000309651    -0.069511958584    -0.000469212823    0.000839005867
            -0.000640373756    0.001114562667    0.069230845450    0.041473900504    -0.000992639380    0.001503088813    0.077851676714    0.026899288714
            -0.023000309651    -0.069511958584    -0.000992639380    0.001503088813    -0.047781044695    -0.086387505423    -0.000682668203    0.001091032971
            -0.000469212823    0.000839005867    0.077851676714    0.026899288714    -0.000682668203    0.001091032971    0.070923543671    0.041968236713
0.525     -0.066628676130    -0.072651625954    -0.000517906176    0.001238749778    -0.039436879709    -0.062942496449    -0.000377068733    0.000932817528
            -0.000517906176    0.001238749778    0.073712390439    0.045960707510    -0.000839210790    0.001688190362    0.080104382105    0.028046847579
            -0.039436879709    -0.062942496449    -0.000839210790    0.001688190362    -0.066087736350    -0.075477829523    -0.000570071697    0.001223564593
            -0.000377068733    0.000932817528    0.080104382105    0.028046847579    -0.000570071697    0.001223564593    0.075470350063    0.046167697409
0.550     -0.082595505685    -0.057788419564    -0.000371793700    0.001347906456    -0.054735686786    -0.052960735024    -0.000266434591    0.001015669863
            -0.000371793700    0.001347906456    0.079762472182    0.050103316999    -0.000651616594    0.001856653857    0.083326642420    0.029352391244
            -0.054735686786    -0.052960735024    -0.000651616594    0.001856653857    -0.082383947928    -0.060887582150    -0.000431955622    0.001344281422
            -0.000266434591    0.001015669863    0.083326642420    0.029352391244    -0.000431955622    0.001344281422    0.081515365450    0.050013867864
0.575     -0.095725782377    -0.039758557430    -0.000204128055    0.001437065106    -0.068171716204    -0.039841809371    -0.000138687113    0.001083518794
            -0.000204128055    0.001437065106    0.087357422349    0.053468641591    -0.000431742033    0.002001548345    0.087619074364    0.030497977577
            -0.068171716204    -0.039841809371    -0.000431742033    0.002001548345    -0.095903302023    -0.043075687613    -0.000269372280    0.001447758492
            -0.000138687113    0.001083518794    0.087619074364    0.030497977577    -0.000269372280    0.001447758492    0.089033664399    0.053092394324
0.600     -0.105385543109    -0.019199095554    -0.000018210282    0.001501723893    -0.079104538923    -0.024020842713    0.000003747210    0.001132561301
            -0.000018210282    0.001501723893    0.096363449299    0.055631729727    -0.000183040400    0.002116273699    0.092996685846    0.031143906184
            -0.079104538923    -0.024020842713    -0.000183040400    0.002116273699    -0.106000621480    -0.022664564097    -0.000084775691    0.001528637946
            0.000003747210    0.001132561301    0.092996685846    0.031143906184    -0.000084775691    0.001528637946    0.097895220436    0.054996544985
0.625     -0.111095481868    0.003124833831    0.000181502855    0.001537986557    -0.087002300892    -0.006064414883    0.000157438304    0.001159477329
            0.000181502855    0.001537986557    0.106531761779    0.056203381273    0.000089392739    0.002194768675    0.099371217666    0.030947459015
            -0.087002300892    -0.006064414883    0.000089392739    0.002194768675    -0.112182389350    -0.000407647412    0.000118006824    0.001581934055
            0.000157438304    0.001159477329    0.099371217666    0.030947459015    0.000118006824    0.001581934055    0.107859731250    0.055353562653
0.650     -0.112562444272    0.026363521858    0.000389687741    0.001543090018    -0.091481121200    0.013360784873    0.000318129409    0.001161797802
            0.000389687741    0.001543090018    0.117520820060    0.054860441438    0.000379055495    0.002232222567    0.106570412679    0.029596563384
            -0.091481121200    0.013360784873    0.000379055495    0.002232222567    -0.114137860371    0.022853382260    0.000333892822    0.001603621886
            0.000318129409    0.001161797802    0.106570412679    0.029596563384    0.000333892822    0.001603621886    0.118598217459    0.053855028882
0.675     -0.109687094419    0.049627155773    0.000600335662    0.001515466886    -0.092309627081    0.033526251929    0.000480955398    0.001138056044
            0.000600335662    0.001515466886    0.128907004959    0.051367747328    0.000678338521    0.002225218506    0.114333319824    0.026827099364
            -0.092309627081    0.033526251929    0.000678338521    0.002225218506    -0.111748590279    0.046233316337    0.000556814013    0.001590783134
            0.000480955398    0.001138056044    0.114333319824    0.026827099364    0.000556814013    0.001590783134    0.129703066362    0.050276259956
0.700     -0.102568213770    0.072037217655    0.000807380370    0.001455033721    -0.089427457339    0.053684165463    0.000640848831    0.001088039003
            0.000807380370    0.001455033721    0.140219862362    0.045595590533    0.000979038341    0.002172199709    0.122343685592    0.022445713042
            -0.089427457339    0.053684165463    0.000979038341    0.002172199709    -0.105093401747    0.068852931689    0.000780090807    0.001542062116
            0.000640848831    0.001088039003    0.122343685592    0.022445713042    0.000780090807    0.001542062116    0.140722355512    0.044494008825
0.725     -0.091487320081    0.092767054214    0.001004741866    0.001363030997    -0.082927519928    0.073101363593    0.000792806253    0.001012637802
            0.001004741866    0.001363030997    0.150961599604    0.037527721948    0.001272775214    0.002073344078    0.130233941165    0.016339116184
            -0.082927519928    0.073101363593    0.001272775214    0.002073344078    -0.094434061076    0.089881335769    0.000996848706    0.001457574395
            0.000792806253    0.001012637802    0.130233941165    0.016339116184    0.000996848706    0.001457574395    0.151177438058    0.036492595742
0.750     -0.076888477514    0.111084636424    0.001187084363    0.001241994732    -0.073053608874    0.091100275717    0.000932240681    0.000913940692
            0.001187084363    0.001241994732    0.160643252220    0.027260180166    0.001551544119    0.001930740486    0.137623213332    0.008482372461
            -0.073053608874    0.091100275717    0.001551544119    0.001930740486    -0.080196636065    0.108577131766    0.001200496440    0.001339053325
            0.000932240681    0.000913940692    0.137623213332    0.008482372461    0.001200496440    0.001339053325    0.160598224627    0.026365902414
0.775     -0.059347584240    0.126378553699    0.001349728985    0.001095458403    -0.060169629176    0.107077559364    0.001055199126    0.000794908528
            0.001349728985    0.001095458403    0.168802876996    0.014997916922    0.001808063974    0.001747954809    0.144121766027    -0.001062164184
            -0.060169629176    0.107077559364    0.001808063974    0.001747954809    -0.062940754642    0.124315965550    0.001384956060    0.001189583221
            0.001055199126    0.000794908528    0.144121766027    -0.001062164184    0.001384956060    0.001189583221    0.168540656183    0.014310556761
