# GHz S RI R 45
0.000     0.014222080319    0.001917259225    -0.000004920054    -0.000010851312    0.000649341153    0.001641663885    -0.000004256933    -0.000009258914
            -0.000004920306    -0.000010851311    0.014933049974    0.001816164879    -0.000005563280    -0.000013077915    0.000677199115    0.001658343328
            0.000649341002    0.001641663838    -0.000005563365    -0.000013077913    0.014181047395    0.001926002364    -0.000004486314    -0.000010964892
            -0.000004256931    -0.000009258913    0.000677199289    0.001658343257    -0.000004486345    -0.000010964891    0.014872242239    0.001828015728
0.025     0.018079133172    0.009751447586    -0.000010365277    -0.000024221705    0.002016103164    0.008619024468    -0.000008960100    -0.000020412006
            -0.000010365279    -0.000024221711    0.018189108654    0.010219066271    -0.000012054530    -0.000028833323    0.001648618104    0.009335305708
            0.002014881406    0.008618699634    -0.000012054535    -0.000028833323    0.018009793124    0.009712518731    -0.000009747564    -0.000022694132
            -0.000008960124    -0.000020412052    0.001648872258    0.009334731857    -0.000009747562    -0.000022694125    0.018120472266    0.010192809971
0.050     0.023747570333    0.015927343216    -0.000022123531    -0.000043157973    0.005939522309    0.016400543038    -0.000019023538    -0.000036202116
            -0.000022123531    -0.000043157974    0.022274699554    0.017188183547    -0.000025904030    -0.000051280329    0.004457910207    0.018112567504
            0.005939517498    0.016400545844    -0.000025904039    -0.000051280326    0.023674029723    0.015882106480    -0.000020976927    -0.000040130586
            -0.000019023538    -0.000036202117    0.004458005313    0.018112561603    -0.000020976934    -0.000040130581    0.022157972243    0.017140178379
0.075     0.030918436726    0.020181665942    -0.000038029543    -0.000058164961    0.012022982160    0.022725846161    -0.000032588025    -0.000048568100
            -0.000038029543    -0.000058164961    0.026960284880    0.022956141666    -0.000044552189    -0.000069159826    0.008818510071    0.025985364688
            0.012022949910    0.022725804394    -0.000044552189    -0.000069159827    0.030847311374    0.020126108193    -0.000036002162    -0.000053729044
            -0.000032588026    -0.000048568101    0.008818506311    0.025985367020    -0.000036002161    -0.000053729043    0.026780514848    0.022912434409
0.100     0.039402936695    0.022168016317    -0.000057439017    -0.000068920464    0.019800644704    0.027124538785    -0.000049047863    -0.000057222698
            -0.000057439017    -0.000068920464    0.032268281443    0.027478691413    -0.000067298117    -0.000082129803    0.014433058183    0.032692948219
            0.019800644704    0.027124538785    -0.000067298117    -0.000082129803    0.039342121951    0.022107494558    -0.000054166028    -0.000063224008
            -0.000049047863    -0.000057222699    0.014433033410    0.032692956970    -0.000054166028    -0.000063224008    0.032012016600    0.027468589375
0.125     0.048624962511    0.021537714754    -0.000079455804    -0.000074891230    0.028729293573    0.029226154037    -0.000067587322    -0.000061734268
            -0.000079455804    -0.000074891230    0.037866615504    0.030657227535    -0.000093128507    -0.000089572617    0.020985824126    0.038044843166
            0.028729294274    0.029226154750    -0.000093128507    -0.000089572617    0.048586479710    0.021474829043    -0.000074574490    -0.000068155920
            -0.000067587322    -0.000061734268    0.020985824126    0.038044843166    -0.000074574490    -0.000068155920    0.037533926124    0.030716867944
0.150     0.057914022933    0.018148506384    -0.000103031860    -0.000075824191    0.038208766464    0.028800269558    -0.000087258905    -0.000061939342
            -0.000103031860    -0.000075824191    0.043544990621    0.032550121761    -0.000120859597    -0.000091191534    0.028115380323    0.041925718662
            0.038208766464    0.028800269558    -0.000120859597    -0.000091191534    0.057911661395    0.018087892550    -0.000096193295    -0.000068359829
            -0.000087258905    -0.000061939342    0.028115380323    0.041925718662    -0.000096193295    -0.000068359829    0.043143620325    0.032712051125
0.175     0.066567383480    0.011989477412    -0.000127187660    -0.000071643723    0.047595277642    0.025756118852    -0.000107211114    -0.000057844548
            -0.000127187660    -0.000071643723    0.048936936801    0.033231844482    -0.000149371746    -0.000086876866    0.035471945768    0.044318889692
            0.047595277642    0.025756118852    -0.000149371746    -0.000086876866    0.066619042011    0.011929276797    -0.000118086674    -0.000063855592
            -0.000107211114    -0.000057844548    0.035471945768    0.044318889692    -0.000118086674    -0.000063855592    0.048489374409    0.033527871480
0.200     0.073887962485    0.003238683751    -0.000151022757    -0.000062478116    0.056247677911    0.020156429847    -0.000126685704    -0.000049637382
            -0.000151022757    -0.000062478116    0.053752285166    0.032897502034    -0.000177632050    -0.000076763445    0.042721564684    0.045290284593
            0.056247677911    0.020156429847    -0.000177632050    -0.000076763445    0.074013003475    0.003171812610    -0.000139428913    -0.000054862979
            -0.000126685704    -0.000049637382    0.042721564684    0.045290284593    -0.000139428913    -0.000054862979    0.053291862928    0.033352887071
0.225     0.079225611903    -0.007769171121    -0.000173725072    -0.000048537369    0.063551213088    0.012206238484    -0.000145029727    -0.000037569492
            -0.000173725072    -0.000048537369    0.057783144376    0.031794980936    -0.000204707539    -0.000061075845    0.049561241549    0.044975294278
            0.063551213088    0.012206238484    -0.000204707539    -0.000061075845    0.079444063516    -0.007855863593    -0.000159508356    -0.000041676999
            -0.000145029727    -0.000037569492    0.049561241549    0.044975294278    -0.000159508356    -0.000041676999    0.057351317705    0.032425050872
0.250     0.082032080164    -0.020543076167    -0.000194599148    -0.000030141538    0.068956072373    0.002245310987    -0.000161717169    -0.000021972692
            -0.000194599148    -0.000030141538    0.060899240489    0.030224796714    -0.000229798485    -0.000040164532    0.055739599113    0.043581794091
            0.068956072373    0.002245310987    -0.000229798485    -0.000040164532    0.082362371844    -0.020669237292    -0.000177765936    -0.000024675031
            -0.000161717169    -0.000021972692    0.055739599113    0.043581794091    -0.000177765936    -0.000024675031    0.060542113706    0.031033138736
0.275     0.081874855285    -0.034479491075    -0.000213025309    -0.000007635638    0.071994146171    -0.009268961670    -0.000176304266    -0.000003177655
            -0.000213025309    -0.000007635638    0.063057657616    0.028498851952    -0.000252190983    -0.000014401826    0.061069911399    0.041364219484
            0.071994146171    -0.009268961670    -0.000252190983    -0.000014401826    0.082332198297    -0.034670845859    -0.000193735380    -0.000004225257
            -0.000176304266    -0.000003177655    0.061069911399    0.041364219484    -0.000193735380    -0.000004225257    0.062822922090    0.029476061973
0.300     0.078476188380    -0.048883780714    -0.000228475471    0.000018603377    0.072312272703    -0.021783943056    -0.000188442281    0.000018496253
            -0.000228475471    0.000018603377    0.064302991068    0.026936136516    -0.000271276354    0.000015800080    0.065444192910    0.038614530105
            0.072312272703    -0.021783943056    -0.000271276354    0.000015800080    0.079070434882    -0.049172522297    -0.000207059958    0.000019318127
            -0.000188442281    0.000018496253    0.065444192910    0.038614530105    -0.000207059958    0.000019318127    0.064236294351    0.028059377998
0.325     0.071711362334    -0.063008017012    -0.000240442254    0.000048204325    0.069680053306    -0.034673386708    -0.000197790966    0.000042765005
            -0.000240442254    0.000048204325    0.064765905645    0.025823717804    -0.000286462246    0.000050035491    0.068833666929    0.035632137143
            0.069680053306    -0.034673386708    -0.000286462246    0.000050035491    0.072445539926    -0.063430994313    -0.000217395516    0.000045643316
            -0.000197790966    0.000042765005    0.068833666929    0.035632137143    -0.000217395516    0.000045643316    0.064907218044    0.027057812176
0.350     0.061632266109    -0.076087665842    -0.000248451445    0.000080770157    0.064012439961    -0.047270792647    -0.000204030071    0.000069360359
            -0.000248451445    0.000080770157    0.064655588979    0.025410294284    -0.000297199382    0.000087880118    0.071295537411    0.032712502638
            0.064012439961    -0.047270792647    -0.000297199382    0.000087880118    0.062500532753    -0.076684952706    -0.000224422136    0.000074472029
            -0.000204030071    0.000069360359    0.071295537411    0.032712502638    -0.000224422136    0.000074472029    0.065035946980    0.026708909017
0.375     0.048455772607    -0.087372995864    -0.000252000396    0.000115868228    0.055369449098    -0.058892031652    -0.000206784601    0.000098004799
            -0.000252000396    0.000115868228    0.064244964960    0.025872635761    -0.000302898611    0.000128862551    0.072960772810    0.030116081447
            0.055369449098    -0.058892031652    -0.000302898611    0.000128862551    0.049442331920    -0.088186059378    -0.000227756903    0.000105531702
            -0.000206784601    0.000098004799    0.072960772810    0.030116081447    -0.000227756903    0.000105531702    0.064883183250    0.027181016511
0.400     0.032567774886    -0.096173679142    -0.000250594788    0.000153005918    0.043964291128    -0.068877801594    -0.000205648490    0.000128393071
            -0.000250594788    0.000153005918    0.063855054187    0.027312092524    -0.000302970949    0.000172462042    0.074032955030    0.028059243334
            0.043964291128    -0.068877801594    -0.000302970949    0.000172462042    0.033646207315    -0.097242649174    -0.000226977503    0.000138522104
            -0.000205648490    0.000128393071    0.074032955030    0.028059243334    -0.000226977503    0.000138522104    0.064756059608    0.028570338395
0.425     0.014502978778    -0.101885648497    -0.000243709524    0.000191580275    0.030153349337    -0.076614666775    -0.000200151281    0.000160120347
            -0.000243709524    0.000191580275    0.063829461905    0.029732048409    -0.000296789838    0.000218022503    0.074765081288    0.026686044444
            0.030153349337    -0.076614666775    -0.000296789838    0.000218022503    0.015636178258    -0.103246773920    -0.000221579014    0.000173052796
            -0.000200151281    0.000160120347    0.074765081288    0.026686044444    -0.000221579014    0.000173052796    0.064982763876    0.030878955732
0.450     -0.005072752827    -0.104033197418    -0.000230872813    0.000230851538    0.014426949687    -0.081579603507    -0.000189819798    0.000192661972
            -0.000230872813    0.000230851538    0.064514561245    0.033041866874    -0.000283763658    0.000264744386    0.075448488993    0.026065409735
            0.014426949687    -0.081579603507    -0.000283763658    0.000264744386    -0.003932474784    -0.105715543922    -0.000211038568    0.000208602393
            -0.000189819798    0.000192661972    0.075448488993    0.026065409735    -0.000211038568    0.000208602393    0.065893578377    0.034018908723
0.475     -0.025392975442    -0.102287803892    -0.000211655695    0.000269918020    -0.002611440139    -0.083356456665    -0.000174196184    0.000225310209
            -0.000211655695    0.000269918020    0.066226382537    0.037048740793    -0.000263342954    0.000311630261    0.076381080135    0.026172926411
            -0.002611440139    -0.083356456665    -0.000263342954    0.000311630261    -0.024301523626    -0.104311223225    -0.000194831449    0.000244451867
            -0.000174196184    0.000225310209    0.076381080135    0.026172926411    -0.000194831449    0.000244451867    0.067789447852    0.037804619250
0.500     -0.045626303538    -0.096498953482    -0.000185788871    0.000307720225    -0.020274376590    -0.081674342786    -0.000152923037    0.000257196589
            -0.000185788871    0.000307720225    0.069230845450    0.041473900504    -0.000235134976    0.000357500787    0.077851676714    0.026899288714
            -0.020274376590    -0.081674342786    -0.000235134976    0.000357500787    -0.044646455175    -0.098870999115    -0.000172512184    0.000279714968
            -0.000152923037    0.000257196589    0.077851676714    0.026899288714    -0.000172512184    0.000279714968    0.070923543671    0.041968236713
0.525     -0.064914684792    -0.086699154477    -0.000153179141    0.000343044220    -0.037818601440    -0.076412753869    -0.000125790495    0.000287265608
            -0.000153179141    0.000343044220    0.073712390439    0.045960707510    -0.000198941527    0.000400972260    0.080104382105    0.028046847579
            -0.037818601440    -0.076412753869    -0.000198941527    0.000400972260    -0.064113243691    -0.089413553569    -0.000143798061    0.000313266685
            -0.000125790495    0.000287265608    0.080104382105    0.028046847579    -0.000143798061    0.000313266685    0.075470350063    0.046167697409
0.550     -0.082422109119    -0.073113974011    -0.000113998587    0.000374601831    -0.054490287158    -0.067624061853    -0.000092833745    0.000314348955
            -0.000113998587    0.000374601831    0.079762472182    0.050103316999    -0.000154847187    0.000440565103    0.083326642420    0.029352391244
            -0.054490287158    -0.067624061853    -0.000154847187    0.000440565103    -0.081865875918    -0.076149054562    -0.000108642633    0.000343855015
            -0.000092833745    0.000314348955    0.083326642420    0.029352391244    -0.000108642633    0.000343855015    0.081515365450    0.050013867864
0.575     -0.097372290144    -0.056148714265    -0.000068735324    0.000401051067    -0.069554846985    -0.055521665194    -0.000054373464    0.000337194697
            -0.000068735324    0.000401051067    0.087357422349    0.053468641591    -0.000103281923    0.000474705834    0.087619074364    0.030497977577
            -0.069554846985    -0.055521665194    -0.000103281923    0.000474705834    -0.097125282676    -0.059467560006    -0.000067301119    0.000370108310
            -0.000054373464    0.000337194697    0.087619074364    0.030497977577    -0.000067301119    0.000370108310    0.089033664399    0.053092394324
0.600     -0.109097201295    -0.036373014315    -0.000018175192    0.000421152239    -0.082347555198    -0.040479949971    -0.000011045945    0.000354602720
            -0.000018175192    0.000421152239    0.096363449299    0.055631729727    -0.000045033359    0.000501898287    0.092996685846    0.031143906184
            -0.082347555198    -0.040479949971    -0.000045033359    0.000501898287    -0.109215881134    -0.039923962197    -0.000020372909    0.000390681126
            -0.000011045945    0.000354602720    0.092996685846    0.031143906184    -0.000020372909    0.000390681126    0.097895220436    0.054996544985
0.625     -0.117065336881    -0.014490221701    0.000036585894    0.000433800562    -0.092294674665    -0.023006514024    0.000036207406    0.000365475870
            0.000036585894    0.000433800562    0.106531761779    0.056203381273    0.000018748196    0.000520766451    0.099371217666    0.030947459015
            -0.092294674665    -0.023006514024    0.000018748196    0.000520766451    -0.117595881469    -0.018208040795    0.000031184781    0.000404308123
            0.000036207406    0.000365475870    0.099371217666    0.030947459015    0.000031184781    0.000404308123    0.107859731250    0.055353562653
0.650     -0.120914887504    0.008699551069    0.000094186010    0.000438160545    -0.098955995266    -0.003719159532    0.000086152596    0.000368956931
            0.000094186010    0.000438160545    0.117520820060    0.054860441438    0.000086599384    0.000530213762    0.106570412679    0.029596563384
            -0.098955995266    -0.003719159532    0.000086599384    0.000530213762    -0.121889368971    0.004890277084    0.000086109886    0.000409963869
            0.000086152596    0.000368956931    0.106570412679    0.029596563384    0.000086109886    0.000409963869    0.118598217459    0.053855028882
0.675     -0.120463937048    0.032340192348    0.000153089312    0.000433694824    -0.102029212230    0.016689438671    0.000137371198    0.000364465184
            0.000153089312    0.000433694824    0.128907004959    0.051367747328    0.000156804760    0.000529452631    0.114333319824    0.026827099364
            -0.102029212230    0.016689438671    0.000156804760    0.000529452631    -0.121898435002    0.028522411878    0.000142870469    0.000406900159
            0.000137371198    0.000364465184    0.114333319824    0.026827099364    0.000142870469    0.000406900159    0.129703066362    0.050276259956
0.700     -0.115721184290    0.055566458299    0.000211676412    0.000420242361    -0.101375254216    0.037490411857    0.000188325472    0.000351784163
            0.000211676412    0.000420242361    0.140219862362    0.045595590533    0.000227535387    0.000518106803    0.122343685592    0.022445713042
            -0.101375254216    0.037490411857    0.000227535387    0.000518106803    -0.117614073275    0.051826522161    0.000199790466    0.000394762507
            0.000188325472    0.000351784163    0.122343685592    0.022445713042    0.000199790466    0.000394762507    0.140722355512    0.044494008825
0.725     -0.106874554940    0.077543083726    0.000268349397    0.000397977977    -0.097002514487    0.057950049150    0.000237442678    0.000331048367
            0.000268349397    0.000397977977    0.150961599604    0.037527721948    0.000296885063    0.000496194724    0.130233941165    0.016339116184
            -0.097002514487    0.057950049150    0.000296885063    0.000496194724    -0.109205735349    0.073966920689    0.000255142888    0.000373563126
            0.000237442678    0.000331048367    0.130233941165    0.016339116184    0.000255142888    0.000373563126    0.151177438058    0.036492595742
0.750     -0.094278511056    0.097507655262    0.000321600653    0.000367440030    -0.089074244630    0.077370759652    0.000283273212    0.000302746224
            0.000321600653    0.000367440030    0.160643252220    0.027260180166    0.000363065699    0.000464142124    0.137623213332    0.008482372461
            -0.089074244630    0.077370759652    0.000363065699    0.000464142124    -0.097010213030    0.094176299232    0.000307261465    0.000343727517
            0.000283273212    0.000302746224    0.137623213332    0.008482372461    0.000307261465    0.000343727517    0.160598224627    0.026365902414
0.775     -0.078427338434    0.114797207919    0.000370115702    0.000329422972    -0.077876834085    0.095110010729    0.000324506357    0.000267662472
            0.000370115702    0.000329422972    0.168802876996    0.014997916922    0.000424436540    0.000422701388    0.144121766027    -0.001062164184
            -0.077876834085    0.095110010729    0.000424436540    0.000422701388    -0.081505223848    0.111783526779    0.000354615459    0.000306014404
            0.000324506357    0.000267662472    0.144121766027    -0.001062164184    0.000354615459    0.000306014404    0.168540656183    0.014310556761
