# GHz S RI R 45
0.000     0.015523029692    0.001468074835    0.000000039693    -0.000000031604    0.000746274081    0.001402612331    0.000000081200    0.000000032943
            0.000000039693    -0.000000031604    0.014933049974    0.001816164879    0.000000059478    -0.000000009395    0.000677199115    0.001658343328
            0.000746273814    0.001402612360    0.000000059478    -0.000000009395    0.015466833068    0.001478021853    0.000000109145    0.000000065620
            0.000000081200    0.000000032943    0.000677199289    0.001658343257    0.000000109145    0.000000065620    0.014872242239    0.001828015728
0.025     0.018893919727    0.009988640984    0.000000053833    -0.000000074850    0.001758711525    0.009326177104    0.000000125700    0.000000067131
            0.000000053833    -0.000000074850    0.018189108654    0.010219066271    0.000000085911    -0.000000025160    0.001648618104    0.009335305708
            0.001761074448    0.009324570946    0.000000085911    -0.000000025160    0.018833386235    0.010033948767    0.000000171991    0.000000139771
            0.000000125700    0.000000067132    0.001648872258    0.009334731857    0.000000171991    0.000000139771    0.018120472266    0.010192809971
0.050     0.023105928292    0.016762247823    0.000000064225    -0.000000168251    0.004779356597    0.018079801012    0.000000191686    0.000000078618
            0.000000064225    -0.000000168251    0.022274699554    0.017188183547    0.000000118624    -0.000000085029    0.004457910207    0.018112567504
            0.004779485564    0.018079861045    0.000000118624    -0.000000085029    0.023047696106    0.016858717146    0.000000267981    0.000000202076
            0.000000191686    0.000000078618    0.004458005313    0.018112561603    0.000000267981    0.000000202076    0.022157972243    0.017140178379
0.075     0.028053962740    0.022212130158    0.000000066952    -0.000000268328    0.009491265409    0.025781766183    0.000000255017    0.000000068229
            0.000000066952    -0.000000268328    0.026960284880    0.022956141666    0.000000144333    -0.000000157547    0.008818510071    0.025985364688
            0.009491263986    0.025781772034    0.000000144333    -0.000000157547    0.028008633999    0.022364510621    0.000000363157    0.000000233787
            0.000000255017    0.000000068229    0.008818506311    0.025985367020    0.000000363157    0.000000233787    0.026780514848    0.022912434409
0.100     0.033678979114    0.026216212846    0.000000062118    -0.000000373391    0.015519878801    0.032108558613    0.000000320062    0.000000041499
            0.000000062118    -0.000000373391    0.032268281443    0.027478691413    0.000000164910    -0.000000239768    0.014433058183    0.032692948219
            0.015519856760    0.032108565934    0.000000164910    -0.000000239768    0.033655757787    0.026424335075    0.000000464009    0.000000243608
            0.000000320062    0.000000041499    0.014433033410    0.032692956970    0.000000464009    0.000000243608    0.032012016600    0.027468589375
0.125     0.039553282990    0.028656241306    0.000000049852    -0.000000483179    0.022455678356    0.036836298603    0.000000386079    -0.000000001168
            0.000000049852    -0.000000483179    0.037866615504    0.030657227535    0.000000180775    -0.000000331104    0.020985824126    0.038044843166
            0.022455678356    0.036836298603    0.000000180775    -0.000000331104    0.039563719526    0.028920482772    0.000000569639    0.000000231412
            0.000000386079    -0.000000001168    0.020985824126    0.038044843166    0.000000569639    0.000000231412    0.037533926124    0.030716867944
0.150     0.045367546814    0.029555280162    0.000000028982    -0.000000596094    0.029856718726    0.039856789369    0.000000450144    -0.000000057987
            0.000000028982    -0.000000596094    0.043544990621    0.032550121761    0.000000189581    -0.000000429795    0.028115380323    0.041925718662
            0.029856718726    0.039856789369    0.000000189581    -0.000000429795    0.045422115874    0.029869531362    0.000000676563    0.000000199740
            0.000000450144    -0.000000057987    0.028115380323    0.041925718662    0.000000676563    0.000000199740    0.043143620325    0.032712051125
0.175     0.050654984200    0.029040856894    -0.000000000415    -0.000000712066    0.037279397578    0.041174502832    0.000000511909    -0.000000128021
            -0.000000000415    -0.000000712066    0.048936936801    0.033231844482    0.000000191563    -0.000000535531    0.035471945768    0.044318889692
            0.037279397578    0.041174502832    0.000000191563    -0.000000535531    0.050765221677    0.029397383635    0.000000783842    0.000000149387
            0.000000511909    -0.000000128021    0.035471945768    0.044318889692    0.000000783842    0.000000149387    0.048489374409    0.033527871480
0.200     0.055043209079    0.027378561633    -0.000000038553    -0.000000830179    0.044304884309    0.040910418064    0.000000569783    -0.000000210686
            -0.000000038553    -0.000000830179    0.053752285166    0.032897502034    0.000000185728    -0.000000647270    0.042721564684    0.045290284593
            0.044304884309    0.040910418064    0.000000185728    -0.000000647270    0.055219841282    0.027766619110    0.000000889831    0.000000081109
            0.000000569783    -0.000000210686    0.042721564684    0.045290284593    0.000000889831    0.000000081109    0.053291862928    0.033352887071
0.225     0.058264712822    0.024909162014    -0.000000085523    -0.000000950917    0.050565761322    0.039282124345    0.000000623797    -0.000000305485
            -0.000000085523    -0.000000950917    0.057783144376    0.031794980936    0.000000172124    -0.000000765322    0.049561241549    0.044975294278
            0.050565761322    0.039282124345    0.000000172124    -0.000000765322    0.058516563859    0.025314641425    0.000000993917    -0.000000004573
            0.000000623797    -0.000000305485    0.049561241549    0.044975294278    0.000000993917    -0.000000004573    0.057351317705    0.032425050872
0.250     0.060156962045    0.022041606031    -0.000000141439    -0.000001073890    0.055770799076    0.036596737751    0.000000672773    -0.000000412271
            -0.000000141439    -0.000001073890    0.060899240489    0.030224796714    0.000000150090    -0.000000889083    0.055739599113    0.043581794091
            0.055770799076    0.036596737751    0.000000150090    -0.000000889083    0.060489061642    0.022447083592    0.000001094968    -0.000000107514
            0.000000672773    -0.000000412271    0.055739599113    0.043581794091    0.000001094968    -0.000000107514    0.060542113706    0.031033138736
0.275     0.060676458381    0.019206439326    -0.000000206906    -0.000001200186    0.059721201575    0.033219870968    0.000000717033    -0.000000531521
            -0.000000206906    -0.000001200186    0.063057657616    0.028498851952    0.000000119325    -0.000001019594    0.061069911399    0.041364219484
            0.059721201575    0.033219870968    0.000000119325    -0.000001019594    0.061089327790    0.019592545872    0.000001192872    -0.000000228108
            0.000000717033    -0.000000531521    0.061069911399    0.041364219484    0.000001192872    -0.000000228108    0.062822922090    0.029476061973
0.300     0.059899925505    0.016841775432    -0.000000282596    -0.000001329907    0.062326157286    0.029558697409    0.000000755264    -0.000000664016
            -0.000000282596    -0.000001329907    0.064302991068    0.026936136516    0.000000078820    -0.000001156860    0.065444192910    0.038614530105
            0.062326157286    0.029558697409    0.000000078820    -0.000001156860    0.060388378542    0.017188004486    0.000001286409    -0.000000367457
            0.000000755264    -0.000000664016    0.065444192910    0.038614530105    0.000001286409    -0.000000367457    0.064236294351    0.028059377998
0.325     0.058023866804    0.015347353245    -0.000000370179    -0.000001464357    0.063606595055    0.026026604557    0.000000787090    -0.000000811401
            -0.000000370179    -0.000001464357    0.064765905645    0.025823717804    0.000000027266    -0.000001302415    0.068833666929    0.035632137143
            0.063606595055    0.026026604557    0.000000027266    -0.000001302415    0.058576711617    0.015634055445    0.000001374904    -0.000000527247
            0.000000787090    -0.000000811401    0.068833666929    0.035632137143    0.000001374904    -0.000000527247    0.064907218044    0.027057812176
0.350     0.055354193199    0.015067856628    -0.000000471456    -0.000001603579    0.063700174539    0.023021470961    0.000000810023    -0.000000975202
            -0.000000471456    -0.000001603579    0.064655588979    0.025410294284    -0.000000037433    -0.000001456441    0.071295537411    0.032712502638
            0.063700174539    0.023021470961    -0.000000037433    -0.000001456441    0.055954321824    0.015278085097    0.000001455804    -0.000000709667
            0.000000810023    -0.000000975202    0.071295537411    0.032712502638    0.000001455804    -0.000000709667    0.065035946980    0.026708909017
0.375     0.052288690521    0.016252498272    -0.000000589495    -0.000001748320    0.062850012931    0.020887174809    0.000000821923    -0.000001157659
            -0.000000589495    -0.000001748320    0.064244964960    0.025872635761    -0.000000118124    -0.000001620216    0.072960772810    0.030116081447
            0.062850012931    0.020887174809    -0.000000118124    -0.000001620216    0.052913487682    0.016373507115    0.000001526591    -0.000000917181
            0.000000821923    -0.000001157659    0.072960772810    0.030116081447    0.000001526591    -0.000000917181    0.064883183250    0.027181016511
0.400     0.049294543584    0.019041934856    -0.000000727348    -0.000001897594    0.061395276364    0.019894348471    0.000000818223    -0.000001360051
            -0.000000727348    -0.000001897594    0.063855054187    0.027312092524    -0.000000218339    -0.000001793098    0.074032955030    0.028059243334
            0.061395276364    0.019894348471    -0.000000218339    -0.000001793098    0.049917210755    0.019067380264    0.000001582257    -0.000001151969
            0.000000818223    -0.000001360051    0.074032955030    0.028059243334    0.000001582257    -0.000001151969    0.064756059608    0.028570338395
0.425     0.046875186008    0.023440246680    -0.000000889302    -0.000002050517    0.059744069909    0.020204944927    0.000000794334    -0.000001583811
            -0.000000889302    -0.000002050517    0.063829461905    0.029732048409    -0.000000342506    -0.000001974953    0.074765081288    0.026686044444
            0.059744069909    0.020204944927    -0.000000342506    -0.000001974953    0.047466295835    0.023371413956    0.000001617571    -0.000001415799
            0.000000794334    -0.000001583811    0.074765081288    0.026686044444    0.000001617571    -0.000001415799    0.064982763876    0.030878955732
0.450     0.045537837395    0.029313394117    -0.000001079156    -0.000002203961    0.058348504473    0.021862637446    0.000000743416    -0.000001828259
            -0.000001079156    -0.000002203961    0.064514561245    0.033041866874    -0.000000495289    -0.000002163054    0.075448488993    0.026065409735
            0.058348504473    0.021862637446    -0.000000495289    -0.000002163054    0.046067560963    0.029160213793    0.000001624676    -0.000001708864
            0.000000743416    -0.000001828259    0.075448488993    0.026065409735    0.000001624676    -0.000001708864    0.065893578377    0.034018908723
0.475     0.045749712332    0.036381100319    -0.000001301500    -0.000002354336    0.057663076331    0.024772431900    0.000000658773    -0.000002092008
            -0.000001301500    -0.000002354336    0.066226382537    0.037048740793    -0.000000681890    -0.000002354478    0.076381080135    0.026172926411
            0.057663076331    0.024772431900    -0.000000681890    -0.000002354478    0.046190122003    0.036162262219    0.000001595876    -0.000002030001
            0.000000658773    -0.000002092008    0.076381080135    0.026172926411    0.000001595876    -0.000002030001    0.067789447852    0.037804619250
0.500     0.047902352394    0.044234278989    -0.000001559509    -0.000002495507    0.058112158879    0.028710100489    0.000000532452    -0.000002370400
            -0.000001559509    -0.000002495507    0.069230845450    0.041473900504    -0.000000906792    -0.000002543266    0.077851676714    0.026899288714
            0.058112158879    0.028710100489    -0.000000906792    -0.000002543266    0.048230338571    0.043977136601    0.000001521630    -0.000002375071
            0.000000532452    -0.000002370400    0.077851676714    0.026899288714    0.000001521630    -0.000002375071    0.070923543671    0.041968236713
0.525     0.052270203644    0.052352417899    -0.000001856213    -0.000002620658    0.060042996270    0.033325685105    0.000000357672    -0.000002657456
            -0.000001856213    -0.000002620658    0.073712390439    0.045960707510    -0.000001174106    -0.000002722895    0.080104382105    0.028046847579
            0.060042996270    0.033325685105    -0.000001174106    -0.000002722895    0.052469987238    0.052091881730    0.000001393801    -0.000002737872
            0.000000357672    -0.000002657456    0.080104382105    0.028046847579    0.000001393801    -0.000002737872    0.075470350063    0.046167697409
0.550     0.058985721807    0.060143242710    -0.000002192009    -0.000002720741    0.063700517081    0.038176637201    0.000000128181    -0.000002943432
            -0.000002192009    -0.000002720741    0.079762472182    0.050103316999    -0.000001485799    -0.000002883928    0.083326642420    0.029352391244
            0.063700517081    0.038176637201    -0.000001485799    -0.000002883928    0.059050966539    0.059919252362    0.000001204206    -0.000003108495
            0.000000128181    -0.000002943432    0.083326642420    0.029352391244    0.000001204206    -0.000003108495    0.081515365450    0.050013867864
0.575     0.068015459911    0.066980130938    -0.000002566049    -0.000002786593    0.069192471608    0.042754029948    -0.000000159530    -0.000003217648
            -0.000002566049    -0.000002786593    0.087357422349    0.053468641591    -0.000001842308    -0.000003016834    0.087619074364    0.030497977577
            0.069192471608    0.042754029948    -0.000001842308    -0.000003016834    0.067950811696    0.066835846761    0.000000947939    -0.000003475382
            -0.000000159530    -0.000003217648    0.087619074364    0.030497977577    0.000000947939    -0.000003475382    0.089033664399    0.053092394324
0.600     0.079161547831    0.072254185663    -0.000002973789    -0.000002808057    0.076486579466    0.046531877645    -0.000000506429    -0.000003466522
            -0.000002973789    -0.000002808057    0.096363449299    0.055631729727    -0.000002240568    -0.000003110337    0.092996685846    0.031143906184
            0.076486579466    0.046531877645    -0.000002240568    -0.000003110337    0.078983614324    0.072232144132    0.000000622146    -0.000003823899
            -0.000000506429    -0.000003466522    0.092996685846    0.031143906184    0.000000622146    -0.000003823899    0.097895220436    0.054996544985
0.625     0.092064361240    0.075416605604    -0.000003408979    -0.000002776283    0.085399872395    0.049001537615    -0.000000909624    -0.000003677264
            -0.000003408979    -0.000002776283    0.106531761779    0.056203381273    -0.000002675373    -0.000003154500    0.099371217666    0.030947459015
            0.085399872395    0.049001537615    -0.000002675373    -0.000003154500    0.091801760502    0.075555532655    0.000000228672    -0.000004139651
            -0.000000909624    -0.000003677264    0.099371217666    0.030947459015    0.000000228672    -0.000004139651    0.107859731250    0.055353562653
0.650     0.106234339461    0.076022656958    -0.000003861524    -0.000002683344    0.095624260784    0.049718961845    -0.000001362660    -0.000003836234
            -0.000003861524    -0.000002683344    0.117520820060    0.054860441438    -0.000003137618    -0.000003139650    0.106570412679    0.029596563384
            0.095624260784    0.049718961845    -0.000003137618    -0.000003139650    0.105926300789    0.076354747494    -0.000000227367    -0.000004407249
            -0.000001362660    -0.000003836234    0.106570412679    0.029596563384    -0.000000227367    -0.000004407249    0.118598217459    0.053855028882
0.675     0.121077223477    0.073760450286    -0.000004320321    -0.000002524228    0.106738165962    0.048330027666    -0.000001855547    -0.000003933023
            -0.000004320321    -0.000002524228    0.128907004959    0.051367747328    -0.000003616611    -0.000003059184    0.114333319824    0.026827099364
            0.106738165962    0.048330027666    -0.000003616611    -0.000003059184    0.120771967374    0.074308243514    -0.000000736313    -0.000004614186
            -0.000001855547    -0.000003933023    0.114333319824    0.026827099364    -0.000000736313    -0.000004614186    0.129703066362    0.050276259956
0.700     0.135942264314    0.068471763965    -0.000004771603    -0.000002296567    0.118250255538    0.044598448270    -0.000002375372    -0.000003958629
            -0.000004771603    -0.000002296567    0.140219862362    0.045595590533    -0.000004098779    -0.000002908679    0.122343685592    0.022445713042
            0.118250255538    0.044598448270    -0.000004098779    -0.000002908679    0.135694205728    0.069246377931    -0.000001285730    -0.000004749323
            -0.000002375372    -0.000003958629    0.122343685592    0.022445713042    -0.000001285730    -0.000004749323    0.140722355512    0.044494008825
0.725     0.150156406623    0.060157789957    -0.000005202408    -0.000002001755    0.129620333307    0.038411922624    -0.000002907631    -0.000003909005
            -0.000005202408    -0.000002001755    0.150961599604    0.037527721948    -0.000004570767    -0.000002687859    0.130233941165    0.016339116184
            0.129620333307    0.038411922624    -0.000004570767    -0.000002687859    0.150024481874    0.061156057992    -0.000001860555    -0.000004806510
            -0.000002907631    -0.000003909005    0.130233941165    0.016339116184    -0.000001860555    -0.000004806510    0.151177438058    0.036492595742
0.750     0.163072334487    0.048972153562    -0.000005599046    -0.000001644394    0.140305944148    0.029788528902    -0.000003436777    -0.000003782753
            -0.000005599046    -0.000001644394    0.160643252220    0.027260180166    -0.000005018243    -0.000002399404    0.137623213332    0.008482372461
            0.140305944148    0.029788528902    -0.000005018243    -0.000002399404    0.163114685797    0.050178058656    -0.000002444815    -0.000004782280
            -0.000003436777    -0.000003782753    0.137623213332    0.008482372461    -0.000002444815    -0.000004782280    0.160598224627    0.026365902414
0.775     0.174093766870    0.035208854854    -0.000005950662    -0.000001232388    0.149777523311    0.018864963284    -0.000003948274    -0.000003583587
            -0.000005950662    -0.000001232388    0.168802876996    0.014997916922    -0.000005429268    -0.000002049896    0.144121766027    -0.001062164184
            0.149777523311    0.018864963284    -0.000005429268    -0.000002049896    0.174365628356    0.036592096572    -0.000003022643    -0.000004678669
            -0.000003948274    -0.000003583587    0.144121766027    -0.001062164184    -0.000003022643    -0.000004678669    0.168540656183    0.014310556761
