# GHz S RI R 45
0.000     0.015546601414    0.001664758027    0.000000582158    0.000001141478    0.000762673918    0.001484466285    0.000000657184    0.000001262258
            0.000000582158    0.000001141478    0.014933049974    0.001816164879    0.000000920567    0.000001262343    0.000677199115    0.001658343328
            0.000762674197    0.001484466254    0.000000920517    0.000001262343    0.015525812912    0.001655617863    0.000000743049    0.000001413005
            0.000000657184    0.000001262257    0.000677199289    0.001658343257    0.000000743066    0.000001413005    0.014872242239    0.001828015728
0.025     0.019194654516    0.010557770049    0.000001052337    0.000002542002    0.001826626694    0.009559532429    0.000001177586    0.000002812508
            0.000001052332    0.000002542003    0.018189108654    0.010219066271    0.000001176380    0.000002823277    0.001648618104    0.009335305708
            0.001826647609    0.009558747759    0.000001176374    0.000002823279    0.019109200847    0.010473359856    0.000001327536    0.000003152403
            0.000001177578    0.000002812506    0.001648872258    0.009334731857    0.000001327547    0.000003152404    0.018120472266    0.010192809971
0.050     0.023705856749    0.017676679055    0.000001953336    0.000004576147    0.004970505952    0.018484467807    0.000002170878    0.000005062313
            0.000001953336    0.000004576147    0.022274699554    0.017188183547    0.000002172175    0.000005082335    0.004457910207    0.018112567504
            0.004970531053    0.018484462093    0.000002172175    0.000005082335    0.023568208041    0.017530036601    0.000002433896    0.000005674133
            0.000002170878    0.000005062313    0.004458005313    0.018112561603    0.000002433896    0.000005674133    0.022157972243    0.017140178379
0.075     0.028992054970    0.023364938399    0.000003080159    0.000006334769    0.009841117235    0.026308926490    0.000003409927    0.000007010632
            0.000003080159    0.000006334769    0.026960284880    0.022956141666    0.000003414173    0.000007039899    0.008818510071    0.025985364688
            0.009841132086    0.026308928409    0.000003414173    0.000007039899    0.028773114289    0.023177653672    0.000003809499    0.000007864097
            0.000003409927    0.000007010632    0.008818506311    0.025985367020    0.000003809499    0.000007864097    0.026780514848    0.022912434409
0.100     0.034980594323    0.027502887918    0.000004406465    0.000007848782    0.016051698506    0.032701907049    0.000004868863    0.000008693775
            0.000004406465    0.000007848782    0.032268281443    0.027478691413    0.000004877242    0.000008732278    0.014433058183    0.032692948219
            0.016051698506    0.032701907049    0.000004877242    0.000008732278    0.034661656177    0.027309376638    0.000005430769    0.000009765443
            0.000004868863    0.000008693775    0.014433033410    0.032692956970    0.000005430769    0.000009765443    0.032012016600    0.027468589375
0.125     0.041235043424    0.029967699178    0.000005890988    0.000009111469    0.023174443836    0.037437209631    0.000006504851    0.000010103950
            0.000005890988    0.000009111469    0.037866615504    0.030657227535    0.000006518824    0.000010151627    0.020985824126    0.038044843166
            0.023174426412    0.037437163964    0.000006518824    0.000010151627    0.040809068244    0.029806740023    0.000007253986    0.000011369364
            0.000006504851    0.000010103950    0.020985824126    0.038044843166    0.000007253986    0.000011369364    0.037533926124    0.030716867944
0.150     0.047385909314    0.030814580974    0.000007484275    0.000010136441    0.030748203640    0.040409989751    0.000008265431    0.000011255208
            0.000007484275    0.000010136441    0.043544990621    0.032550121761    0.000008286646    0.000011311168    0.028115380323    0.041925718662
            0.030748203640    0.040409989751    0.000008286646    0.000011311168    0.046864295263    0.030728646100    0.000009223816    0.000012688726
            0.000008265431    0.000011255208    0.028115380323    0.041925718662    0.000009223816    0.000012688726    0.043143620325    0.032712051125
0.175     0.052956896739    0.030170342417    0.000009149271    0.000010941169    0.038312659962    0.041634335932    0.000010111131    0.000012164906
            0.000009149271    0.000010941169    0.048936936801    0.033231844482    0.000010141038    0.000012227976    0.035471945768    0.044318889692
            0.038312659962    0.041634335932    0.000010141038    0.000012227976    0.052363675538    0.030195290610    0.000011297921    0.000013740275
            0.000010111131    0.000012164906    0.035471945768    0.044318889692    0.000011297921    0.000013740275    0.048489374409    0.033527871480
0.200     0.057561796240    0.028321249711    0.000010860039    0.000011555077    0.045436402124    0.041245618013    0.000012013892    0.000012863445
            0.000010860039    0.000011555077    0.053752285166    0.032897502034    0.000012053739    0.000012932029    0.042721564684    0.045290284593
            0.045436402124    0.041245618013    0.000012053739    0.000012932029    0.056932209487    0.028484605049    0.000013445817    0.000014554766
            0.000012013892    0.000012863445    0.042721564684    0.045290284593    0.000013445817    0.000014554766    0.053291862928    0.033352887071
0.225     0.060923280083    0.025636144452    0.000012604210    0.000012003959    0.051744619178    0.039479441853    0.000013959919    0.000013377083
            0.000012604210    0.000012003959    0.057783144376    0.031794980936    0.000014010717    0.000013449269    0.049561241549    0.044975294278
            0.051744619178    0.039479441853    0.000014010717    0.000013449269    0.060300762065    0.025953453005    0.000015651924    0.000015157977
            0.000013959919    0.000013377083    0.049561241549    0.044975294278    0.000015651924    0.000015157977    0.057351317705    0.032425050872
0.250     0.062877346930    0.022555529737    0.000014382484    0.000012315192    0.056944585116    0.036662262741    0.000015949008    0.000013734004
            0.000014382484    0.000012315192    0.060899240489    0.030224796714    0.000016011188    0.000013807389    0.055739599113    0.043581794091
            0.056944585116    0.036662262741    0.000016011188    0.000013807389    0.062310174279    0.023028654421    0.000017914298    0.000015578030
            0.000015949008    0.000013734004    0.055739599113    0.043581794091    0.000017914298    0.000015578030    0.060542113706    0.031033138736
0.275     0.063388601167    0.019539311864    0.000016205655    0.000012505643    0.060842564788    0.033179546280    0.000017991760    0.000013951198
            0.000016205655    0.000012505643    0.063057657616    0.028498851952    0.000018065146    0.000014023343    0.061069911399    0.041364219484
            0.060842564788    0.033179546280    0.000018065146    0.000014023343    0.062925437217    0.020155219318    0.000020242152    0.000015831350
            0.000017991760    0.000013951198    0.061069911399    0.041364219484    0.000020242152    0.000015831350    0.062822922090    0.029476061973
0.300     0.062551355264    0.017051950833    0.000018094319    0.000012585948    0.063359356849    0.029456454199    0.000020108944    0.000014039176
            0.000018094319    0.000012585948    0.064302991068    0.026936136516    0.000020192318    0.000014107617    0.065444192910    0.038614530105
            0.063359356849    0.029456454199    0.000020192318    0.000014107617    0.062237017912    0.017782526897    0.000022655049    0.000015927824
            0.000020108944    0.000014039176    0.065444192910    0.038614530105    0.000022655049    0.000015927824    0.064236294351    0.028059377998
0.325     0.060587726491    0.015512568928    0.000020072117    0.000012551427    0.064533553833    0.025920476913    0.000022324567    0.000013992045
            0.000020072117    0.000012551427    0.064765905645    0.025823717804    0.000022416001    0.000014054695    0.068833666929    0.035632137143
            0.064533553833    0.025920476913    0.000022416001    0.000014054695    0.060458703127    0.016316188842    0.000025175699    0.000015860251
            0.000022324567    0.000013992045    0.068833666929    0.035632137143    0.000025175699    0.000015860251    0.064907218044    0.027057812176
0.350     0.057835675552    0.015276859901    0.000022165977    0.000012386286    0.064525814544    0.022977831071    0.000024665777    0.000013792428
            0.000022165977    0.000012386286    0.064655588979    0.025410294284    0.000024762596    0.000013848026    0.071295537411    0.032712502638
            0.064525814544    0.022977831071    0.000024762596    0.000013848026    0.057916542245    0.016100862282    0.000027830182    0.000015610104
            0.000024665777    0.000013792428    0.071295537411    0.032712502638    0.000027830182    0.000015610104    0.065035946980    0.026708909017
0.375     0.054729001439    0.016594112212    0.000024397030    0.000012058069    0.063605182421    0.020973310757    0.000027153351    0.000013404976
            0.000024397030    0.000012058069    0.064244964960    0.025872635761    0.000027252414    0.000013453092    0.072960772810    0.030116081447
            0.063605182421    0.020973310757    0.000027252414    0.000013453092    0.055028933204    0.017378186964    0.000030637624    0.000015139906
            0.000027153351    0.000013404976    0.072960772810    0.030116081447    0.000030637624    0.000015139906    0.064883183250    0.027181016511
0.400     0.051771633469    0.019593363652    0.000026780611    0.000011522591    0.062138522304    0.020169206101    0.000029801845    0.000012782342
            0.000026780611    0.000011522591    0.063855054187    0.027312092524    0.000029899678    0.000012823938    0.074032955030    0.028059243334
            0.062138522304    0.020169206101    0.000029899678    0.000012823938    0.052282547026    0.020274047813    0.000033610547    0.000014400342
            0.000029801845    0.000012782342    0.074032955030    0.028059243334    0.000033610547    0.000014400342    0.064756059608    0.028570338395
0.425     0.049500569363    0.024254315814    0.000029316125    0.000010721634    0.060559054516    0.020709713887    0.000032608390    0.000011862459
            0.000029316125    0.000010721634    0.063829461905    0.029732048409    0.000032702153    0.000011899830    0.074765081288    0.026686044444
            0.060559055101    0.020709715268    0.000032702153    0.000011899830    0.050196023216    0.024769969118    0.000036743411    0.000013326849
            0.000032608390    0.000011862459    0.074765081288    0.026686044444    0.000036743411    0.000013326849    0.064982763876    0.030878955732
0.450     0.048449813026    0.030406788130    0.000031987918    0.000009590407    0.059339534810    0.022611289171    0.000035553967    0.000010576908
            0.000031987918    0.000009590407    0.064514561245    0.033041866874    0.000035641423    0.000010613384    0.075448488993    0.026065409735
            0.059339534810    0.022611289171    0.000035641423    0.000010613384    0.049285554968    0.030703138088    0.000040013778    0.000011848740
            0.000035553967    0.000010576908    0.075448488993    0.026065409735    0.000040013778    0.000011848740    0.065893578377    0.034018908723
0.475     0.049101538565    0.037724439826    0.000034754957    0.000008059548    0.058945698912    0.025743896202    0.000038592662    0.000008852939
            0.000034754957    0.000008059548    0.066226382537    0.037048740793    0.000038672956    0.000008892986    0.076381080135    0.026172926411
            0.058945698912    0.025743896202    0.000038672956    0.000008892986    0.050017772975    0.037759228123    0.000043371317    0.000009891143
            0.000038592662    0.000008852939    0.076381080135    0.026172926411    0.000043371317    0.000009891143    0.067789447852    0.037804619250
0.500     0.051848318013    0.045746232739    0.000037555260    0.000006065291    0.059802122627    0.029843257405    0.000041656490    0.000006624480
            0.000037555260    0.000006065291    0.069230845450    0.041473900504    0.000041730344    0.000006672921    0.077851676714    0.026899288714
            0.059802122627    0.029843257405    0.000041730344    0.000006672921    0.052773320792    0.045494079577    0.000046742820    0.000007386670
            0.000041656490    0.000006624480    0.077851676714    0.026899288714    0.000046742820    0.000007386670    0.070923543671    0.041968236713
0.525     0.056947972337    0.053898294256    0.000040298611    0.000003555802    0.062242885640    0.034518778797    0.000044648107    0.000003838494
            0.000040298611    0.000003555802    0.073712390439    0.045960707510    0.000044717965    0.000003900165    0.080104382105    0.028046847579
            0.062242885640    0.034518778797    0.000044717965    0.000003900165    0.057802857416    0.053353854981    0.000050025248    0.000004281668
            0.000044648107    0.000003838494    0.080104382105    0.028046847579    0.000050025248    0.000004281668    0.075470350063    0.046167697409
0.550     0.064499809855    0.061539613497    0.000042877574    0.000000501358    0.066485776603    0.039290879504    0.000047452330    0.000000465942
            0.000042877574    0.000000501359    0.079762472182    0.050103316999    0.000047522671    0.000000544846    0.083326642420    0.029352391244
            0.066485776603    0.039290879504    0.000047522671    0.000000544846    0.065204746396    0.060719091035    0.000053097090    0.000000547514
            0.000047452330    0.000000465942    0.083326642420    0.029352391244    0.000053097090    0.000000547514    0.081515365450    0.050013867864
0.575     0.074421322754    0.068005187374    0.000045165770    -0.000003098534    0.072599397818    0.043622120838    0.000049935421    -0.000003491040
            0.000045165770    -0.000003098534    0.087357422349    0.053468641591    0.000050011980    -0.000003392320    0.087619074364    0.030497977577
            0.072599397818    0.043622120838    0.000050011980    -0.000003392320    0.074901404540    0.066946744714    0.000055817843    -0.000003811995
            0.000049935421    -0.000003491040    0.087619074364    0.030497977577    0.000055817843    -0.000003811995    0.089033664399    0.053092394324
0.600     0.086454612465    0.072662038995    0.000047036251    -0.000007209709    0.080503759279    0.046970646620    0.000051963108    -0.000007993985
            0.000047036251    -0.000007209709    0.096363449299    0.055631729727    0.000052052652    -0.000007874634    0.092996685846    0.031143906184
            0.080503759279    0.046970646620    0.000052052652    -0.000007874634    0.086645651481    0.071423362437    0.000058046991    -0.000008755163
            0.000051963108    -0.000007993985    0.092996685846    0.031143906184    0.000058046991    -0.000008755163    0.097895220436    0.054996544985
0.625     0.100172578146    0.074956017608    0.000048364093    -0.000011760383    0.089963728768    0.048826734691    0.000053404118    -0.000012965642
            0.000048364093    -0.000011760383    0.106531761779    0.056203381273    0.000053513619    -0.000012826983    0.099371217666    0.030947459015
            0.089963728768    0.048826734691    0.000053513619    -0.000012826983    0.100027723434    0.073610932655    0.000059647036    -0.000014200757
            0.000053404118    -0.000012965642    0.099371217666    0.030947459015    0.000059647036    -0.000014200757    0.107859731250    0.055353562653
0.650     0.115018989839    0.074456016256    0.000049046657    -0.000016646171    0.100620002840    0.048760489472    0.000054151297    -0.000018294223
            0.000049046657    -0.000016646171    0.117520820060    0.054860441438    0.000054287437    -0.000018139550    0.106570412679    0.029596563384
            0.100620002840    0.048760489472    0.000054287437    -0.000018139550    0.114510258307    0.073089551671    0.000060505903    -0.000020031209
            0.000054151297    -0.000018294223    0.106570412679    0.029596563384    0.000060505903    -0.000020031209    0.118598217459    0.053855028882
0.675     0.130337118235    0.070882059826    0.000049005547    -0.000021732903    0.112004821579    0.046446218124    0.000054122781    -0.000023837749
            0.000049005547    -0.000021732903    0.128907004959    0.051367747328    0.000054291369    -0.000023672405    0.114333319824    0.026827099364
            0.112004821579    0.046446218124    0.000054291369    -0.000023672405    0.129459456608    0.069584753189    0.000060537137    -0.000026098240
            0.000054122781    -0.000023837749    0.114333319824    0.026827099364    0.000060537137    -0.000026098240    0.129703066362    0.050276259956
0.700     0.145425225478    0.064123392077    0.000048202550    -0.000026870563    0.123590717130    0.041687423324    0.000053279070    -0.000029437961
            0.000048202550    -0.000026870563    0.140219862362    0.045595590533    0.000053484238    -0.000029268539    0.122343685592    0.022445713042
            0.123590717130    0.041687423324    0.000053484238    -0.000029268539    0.144195891105    0.062985363228    0.000059698501    -0.000032236417
            0.000053279070    -0.000029437961    0.122343685592    0.022445713042    0.000059698501    -0.000032236417    0.140722355512    0.044494008825
0.725     0.159571793042    0.054239815746    0.000046635092    -0.000031900003    0.134812197183    0.034419649284    0.000051617477    -0.000034927627
            0.000046635092    -0.000031900003    0.150961599604    0.037527721948    0.000051861648    -0.000034761706    0.130233941165    0.016339116184
            0.134812197183    0.034419649284    0.000051861648    -0.000034761706    0.158031273279    0.053343989193    0.000057985209    -0.000038270761
            0.000051617477    -0.000034927627    0.130233941165    0.016339116184    0.000057985209    -0.000038270761    0.151177438058    0.036492595742
0.750     0.172107142670    0.041450834568    0.000044343709    -0.000036669997    0.145114524504    0.024712546608    0.000049180331    -0.000040147539
            0.000044343709    -0.000036669997    0.160643252220    0.027260180166    0.000049464088    -0.000039993171    0.137623213332    0.008482372461
            0.145114524504    0.024712546608    0.000049464088    -0.000039993171    0.170314132815    0.040869688254    0.000055439753    -0.000044034533
            0.000049180331    -0.000040147539    0.137623213332    0.008482372461    0.000055439753    -0.000044034533    0.160598224627    0.026365902414
0.775     0.182428330788    0.026119021289    0.000041401129    -0.000041041864    0.153968178349    0.012755502143    0.000046042913    -0.000044951858
            0.000041401129    -0.000041041864    0.168802876996    0.014997916922    0.000046364899    -0.000044816953    0.144121766027    -0.001062164184
            0.153968178349    0.012755502143    0.000046364899    -0.000044816953    0.180457845502    0.025908622554    0.000052137993    -0.000049374136
            0.000046042913    -0.000044951858    0.144121766027    -0.001062164184    0.000052137993    -0.000049374136    0.168540656183    0.014310556761
0.800     0.190032590827    0.008723656458    0.000037912492    -0.000044903899    0.160905977670    -0.001153191289    0.000042314510    -0.000049222594
            0.000037912492    -0.000044903899    0.175035551918    0.001039739262    0.000042671971    -0.000049114627    0.149367419172    -0.012147737565
