# GHz S RI R 45
0.000     0.014645552100    0.001424850791    -0.000008574808    -0.000021597723    0.000615692032    0.001228939626    -0.000008630765    -0.000022778186
            -0.000008574786    -0.000021597723    0.014933049974    0.001816164879    -0.000007896313    -0.000019315339    0.000677199115    0.001658343328
            0.000615692032    0.001228939626    -0.000007896318    -0.000019315339    0.014471447210    0.001420137857    -0.000008901977    -0.000022146854
            -0.000008630833    -0.000022778186    0.000677199289    0.001658343257    -0.000008901937    -0.000022146855    0.014872242239    0.001828015728
0.025     0.018384192444    0.009307735392    -0.000020389838    -0.000051521996    0.001860842742    0.008262318400    -0.000020560293    -0.000052818412
            -0.000020389836    -0.000051521991    0.018189108654    0.010219066271    -0.000018695652    -0.000047665686    0.001648618104    0.009335305708
            0.001860587927    0.008262587046    -0.000018695683    -0.000047665743    0.018314048193    0.009250953812    -0.000021016499    -0.000053141549
            -0.000020560303    -0.000052818408    0.001648872258    0.009334731857    -0.000021016484    -0.000053141538    0.018120472266    0.010192809971
0.050     0.023714730578    0.015161585110    -0.000045753765    -0.000091429609    0.005475048379    0.015762074862    -0.000046453565    -0.000093913890
            -0.000045753765    -0.000091429609    0.022274699554    0.017188183547    -0.000042170609    -0.000084811119    0.004457910207    0.018112567504
            0.005475036221    0.015762078026    -0.000042170610    -0.000084811121    0.023621950312    0.015075890178    -0.000047005329    -0.000094379107
            -0.000046453570    -0.000093913899    0.004458005313    0.018112561603    -0.000047005373    -0.000094379196    0.022157972243    0.017140178379
0.075     0.030387467272    0.019185276464    -0.000079815144    -0.000122766115    0.011078268901    0.021893552500    -0.000081321598    -0.000126298654
            -0.000079815144    -0.000122766115    0.026960284880    0.022956141666    -0.000073853000    -0.000113945086    0.008818510071    0.025985364688
            0.011078261815    0.021893552724    -0.000073853000    -0.000113945086    0.030271412206    0.019079275329    -0.000081896069    -0.000126914894
            -0.000081321603    -0.000126298662    0.008818506311    0.025985367020    -0.000081896069    -0.000126914894    0.026780514848    0.022912434409
0.100     0.038222682005    0.021055087820    -0.000121178587    -0.000144867016    0.018218842393    0.026214443386    -0.000123767303    -0.000149276170
            -0.000121178580    -0.000144867008    0.032268281443    0.027478691413    -0.000112355362    -0.000134420981    0.014433058183    0.032692948219
            0.018218842393    0.026214443386    -0.000112355362    -0.000134420981    0.038085120769    0.020941108881    -0.000124335687    -0.000150100380
            -0.000123767309    -0.000149276178    0.014433033410    0.032692956970    -0.000124335693    -0.000150100388    0.032012016600    0.027468589375
0.125     0.046638330216    0.020466176759    -0.000167829007    -0.000156649965    0.026371972107    0.028388364434    -0.000171744043    -0.000161705140
            -0.000167829007    -0.000156649965    0.037866615504    0.030657227535    -0.000155774158    -0.000145270749    0.020985824126    0.038044843166
            0.026371971797    0.028388366087    -0.000155774158    -0.000145270749    0.046486746709    0.020355234994    -0.000172326587    -0.000162810297
            -0.000171744043    -0.000161705140    0.020985824126    0.038044843166    -0.000172326587    -0.000162810297    0.037533926124    0.030716867944
0.150     0.055037570799    0.017281486340    -0.000217522749    -0.000157717130    0.034964665717    0.028212526594    -0.000222979213    -0.000163130503
            -0.000217522749    -0.000157717130    0.043544990621    0.032550121761    -0.000201990016    -0.000146075508    0.028115380323    0.041925718662
            0.034964665796    0.028212529681    -0.000201990024    -0.000146075514    0.054882324714    0.017187622990    -0.000223642722    -0.000164594193
            -0.000222979213    -0.000163130503    0.028115380323    0.041925718662    -0.000223642722    -0.000164594193    0.043143620325    0.032712051125
0.175     0.062711040727    0.011520819488    -0.000268164661    -0.000147977022    0.043382608374    0.025622876772    -0.000275318218    -0.000153418697
            -0.000268164661    -0.000147977022    0.048936936801    0.033231844482    -0.000249016891    -0.000136784795    0.035471945768    0.044318889692
            0.043382602460    0.025622892684    -0.000249016891    -0.000136784795    0.062569870798    0.011452828955    -0.000276171342    -0.000155285068
            -0.000275318218    -0.000153418697    0.035471945768    0.044318889692    -0.000276171342    -0.000155285068    0.048489374409    0.033527871480
0.200     0.068988207295    0.003393413178    -0.000317858668    -0.000127802854    0.051019325041    0.020704878119    -0.000326808047    -0.000132897972
            -0.000317858668    -0.000127802854    0.053752285166    0.032897502034    -0.000295080090    -0.000117762989    0.042721564684    0.045290284593
            0.051019325041    0.020704878119    -0.000295080090    -0.000117762989    0.068883261730    0.003354466278    -0.000327980666    -0.000135173027
            -0.000326808047    -0.000132897972    0.042721564684    0.045290284593    -0.000327980666    -0.000135173027    0.053291862928    0.033352887071
0.225     0.073258799241    -0.006740189214    -0.000364948874    -0.000097726590    0.057300966056    0.013681258940    -0.000375717486    -0.000102072858
            -0.000364948874    -0.000097726590    0.057783144376    0.031794980936    -0.000338628042    -0.000089538626    0.049561241549    0.044975294278
            0.057300966056    0.013681258940    -0.000338628042    -0.000089538626    0.073214998688    -0.006754216313    -0.000377340737    -0.000104727911
            -0.000375717486    -0.000102072858    0.049561241549    0.044975294278    -0.000377340737    -0.000104727911    0.057351317705    0.032425050872
0.250     0.075019599244    -0.018372536589    -0.000408059283    -0.000058483856    0.061720619994    0.004902918300    -0.000420592859    -0.000061658971
            -0.000408059283    -0.000058483856    0.060899240489    0.030224796714    -0.000378383280    -0.000052818930    0.055739599113    0.043581794091
            0.061720619994    0.004902918300    -0.000378383280    -0.000052818930    0.075062323699    -0.018373462904    -0.000422791660    -0.000064612241
            -0.000420592859    -0.000061658971    0.055739599113    0.043581794091    -0.000422791660    -0.000064612241    0.060542113706    0.031033138736
0.275     0.073888006283    -0.030889423084    -0.000445994783    -0.000010796366    0.063857305160    -0.005167924197    -0.000460149356    -0.000012379506
            -0.000445994783    -0.000010796366    0.063057657616    0.028498851952    -0.000413237762    -0.000008311562    0.061069911399    0.041364219484
            0.063857305160    -0.005167924197    -0.000413237762    -0.000008311562    0.074041001007    -0.030897165011    -0.000463021667    -0.000015531605
            -0.000460149356    -0.000012379506    0.061069911399    0.041364219484    -0.000463021667    -0.000015531605    0.062822922090    0.029476061973
0.300     0.069638122501    -0.043593777396    -0.000477742492    0.000044569880    0.063404935810    -0.015980112253    -0.000493281181    0.000044985250
            -0.000477742492    0.000044569880    0.064302991068    0.026936136516    -0.000442264038    0.000043256747    0.065444192910    0.038614530105
            0.063404935810    -0.015980112253    -0.000442264038    0.000043256747    0.069921381521    -0.043636710108    -0.000496895434    0.000041774209
            -0.000493281181    0.000044985250    0.065444192910    0.038614530105    -0.000496895434    0.000041774209    0.064236294351    0.028059377998
0.325     0.062201436468    -0.055742510849    -0.000502308143    0.000106924398    0.060183923130    -0.026915990642    -0.000518903411    0.000109705515
            -0.000502308143    0.000106924398    0.064765905645    0.025823717804    -0.000464556887    0.000101227696    0.068833666929    0.035632137143
            0.060183923130    -0.026915990642    -0.000464556887    0.000101227696    0.062628467485    -0.055855847875    -0.000523289899    0.000106568494
            -0.000518903411    0.000109705515    0.068833666929    0.035632137143    -0.000523289899    0.000106568494    0.064907218044    0.027057812176
0.350     0.051687211624    -0.066584081435    -0.000518722841    0.000175571436    0.054159578705    -0.037323740259    -0.000535964719    0.000181016384
            -0.000518722841    0.000175571436    0.064655588979    0.025410294284    -0.000479235579    0.000164929190    0.071295537411    0.032712502638
            0.054159578705    -0.037323740259    -0.000479235579    0.000164929190    0.052263027554    -0.066809272859    -0.000541120099    0.000178089163
            -0.000535964719    0.000181016384    0.071295537411    0.032712502638    -0.000541120099    0.000178089163    0.065035946980    0.026708909017
0.375     0.038372932044    -0.075392734472    -0.000525893043    0.000249741172    0.045445421842    -0.046543426508    -0.000543294097    0.000258084010
            -0.000525893043    0.000249741172    0.064244964960    0.025872635761    -0.000485308194    0.000233638698    0.072960772810    0.030116081447
            0.045445421842    -0.046543426508    -0.000485308194    0.000233638698    0.039092402659    -0.075774749785    -0.000549196029    0.000255467701
            -0.000543294097    0.000258084010    0.072960772810    0.030116081447    -0.000549196029    0.000255467701    0.064883183250    0.027181016511
0.400     0.022705303712    -0.081512799425    -0.000522667746    0.000328524147    0.034307517390    -0.053948073265    -0.000539688010    0.000339890987
            -0.000522667746    0.000328524147    0.063855054187    0.027312092524    -0.000481723358    0.000306518954    0.074032955030    0.028059243334
            0.034307517390    -0.053948073265    -0.000481723358    0.000306518954    0.023551483997    -0.082098189281    -0.000546295303    0.000337681057
            -0.000539688010    0.000339890987    0.074032955030    0.028059243334    -0.000546295303    0.000337681057    0.064756059608    0.028570338395
0.425     0.005279777786    -0.084389651560    -0.000507759730    0.000410753740    0.021156043856    -0.058969910317    -0.000523826784    0.000425159744
            -0.000507759730    0.000410753740    0.063829461905    0.029732048409    -0.000467318819    0.000382464560    0.074765081288    0.026686044444
            0.021156043856    -0.058969910317    -0.000467318819    0.000382464560    0.006223230059    -0.085223054108    -0.000531102522    0.000423424154
            -0.000523826784    0.000425159744    0.074765081288    0.026686044444    -0.000531102522    0.000423424154    0.064982763876    0.030878955732
0.450     -0.013181640373    -0.083611736812    -0.000479925736    0.000494898457    0.006531278328    -0.061143069173    -0.000494470156    0.000512228984
            -0.000479925736    0.000494898457    0.064514561245    0.033041866874    -0.000440957514    0.000460068250    0.075448488993    0.026065409735
            0.006531278328    -0.061143069173    -0.000440957514    0.000460068250    -0.012182849677    -0.084732585262    -0.000502392896    0.000511011746
            -0.000494470156    0.000512228984    0.075448488993    0.026065409735    -0.000502392896    0.000511011746    0.065893578377    0.034018908723
0.475     -0.031863766324    -0.078933366772    -0.000438012891    0.000578961084    -0.008918596606    -0.060126210528    -0.000450475162    0.000599000553
            -0.000438012891    0.000578961084    0.066226382537    0.037048740793    -0.000401584271    0.000537481832    0.076381080135    0.026172926411
            -0.008918596606    -0.060126210528    -0.000401584271    0.000537481832    -0.030862175478    -0.080372509763    -0.000459044016    0.000598350674
            -0.000450475162    0.000599000553    0.076381080135    0.026172926411    -0.000459044016    0.000598350674    0.067789447852    0.037804619250
0.500     -0.049900007814    -0.070302316788    -0.000381192088    0.000660520120    -0.024473094407    -0.055737044647    -0.000391058406    0.000682938956
            -0.000381192088    0.000660520120    0.069230845450    0.041473900504    -0.000348444867    0.000612466837    0.077851676714    0.026899288714
            -0.024473094407    -0.055737044647    -0.000348444867    0.000612466837    -0.048958036743    -0.072079200432    -0.000400318317    0.000682899394
            -0.000391058406    0.000682938956    0.077851676714    0.026899288714    -0.000400318317    0.000682899394    0.070923543671    0.041968236713
0.525     -0.066416754260    -0.057866476768    -0.000309064465    0.000736713824    -0.039372449909    -0.047960736277    -0.000315922582    0.000761067876
            -0.000309064465    0.000736713824    0.073712390439    0.045960707510    -0.000281224122    0.000682351905    0.080104382105    0.028046847579
            -0.039372449909    -0.047960736277    -0.000281224122    0.000682351905    -0.065603361942    -0.059986523730    -0.000325933227    0.000761727802
            -0.000315922582    0.000761067876    0.080104382105    0.028046847579    -0.000325933227    0.000761727802    0.075470350063    0.046167697409
0.550     -0.080587561585    -0.041976903548    -0.000221928637    0.000804411969    -0.052868808410    -0.036964695118    -0.000225434321    0.000830198278
            -0.000221928637    0.000804411969    0.079762472182    0.050103316999    -0.000200190161    0.000744264984    0.083326642420    0.029352391244
            -0.052868808410    -0.036964695118    -0.000200190161    0.000744264984    -0.079974495730    -0.044429263279    -0.000236275165    0.000831692238
            -0.000225434321    0.000830198278    0.083326642420    0.029352391244    -0.000236275165    0.000831692238    0.081515365450    0.050013867864
0.575     -0.091677143259    -0.023170713296    -0.000120845640    0.000860343307    -0.064262041454    -0.023085814683    -0.000120781762    0.000887003536
            -0.000120845640    0.000860343307    0.087357422349    0.053468641591    -0.000106357359    0.000795184465    0.087619074364    0.030497977577
            -0.064262041454    -0.023085814683    -0.000106357359    0.000795184465    -0.091335174972    -0.025927947146    -0.000132505285    0.000889538399
            -0.000120781762    0.000887003536    0.087619074364    0.030497977577    -0.000132505285    0.000889538399    0.089033664399    0.053092394324
0.600     -0.099091377628    -0.002144307682    -0.000007704500    0.000901438636    -0.072952114806    -0.006817791791    -0.000003945901    0.000928392395
            -0.000007704500    0.000901438636    0.096363449299    0.055631729727    -0.000001507326    0.000832281045    0.092996685846    0.031143906184
            -0.072952114806    -0.006817791791    -0.000001507326    0.000832281045    -0.099085629411    -0.005162615219    -0.000016605696    0.000932231484
            -0.000003945901    0.000928392395    0.092996685846    0.031143906184    -0.000016605696    0.000932231484    0.097895220436    0.054996544985
0.625     -0.102407049624    0.020284293003    0.000114796193    0.000924974522    -0.078463511281    0.011221464914    0.000122246067    0.000951643000
            0.000114796193    0.000924974522    0.106531761779    0.056203381273    0.000111819357    0.000853060510    0.099371217666    0.030947459015
            -0.078463511281    0.011221464914    0.000111819357    0.000853060510    -0.102793745725    0.017064474563    0.000108679932    0.000957123540
            0.000122246067    0.000951643000    0.099371217666    0.030947459015    0.000108679932    0.000957123540    0.107859731250    0.055353562653
0.650     -0.101400583957    0.043225455382    0.000243291978    0.000928919655    -0.080481279206    0.030326293839    0.000254331639    0.000954754733
            0.000243291978    0.000928919655    0.117520820060    0.054860441438    0.000230512975    0.000855682920    0.106570412679    0.029596563384
            -0.080481279206    0.030326293839    0.000230512975    0.000855682920    -0.102222675907    0.039875757245    0.000239971926    0.000962259753
            0.000254331639    0.000954754733    0.106570412679    0.029596563384    0.000239971926    0.000962259753    0.118598217459    0.053855028882
0.675     -0.096053464275    0.065765362938    0.000373929235    0.000912024210    -0.078854463368    0.049744244856    0.000388389781    0.000936515791
            0.000373929235    0.000912024210    0.128907004959    0.051367747328    0.000350966726    0.000839039990    0.114333319824    0.026827099364
            -0.078854463368    0.049744244856    0.000350966726    0.000839039990    -0.097338295973    0.062367074111    0.000373472513    0.000946457607
            0.000388389781    0.000936515791    0.114333319824    0.026827099364    0.000373472513    0.000946457607    0.129703066362    0.050276259956
0.700     -0.086550566228    0.087020728796    0.000502656864    0.000874014945    -0.073607597873    0.068723057617    0.000520281946    0.000896713012
            0.000502656864    0.000874014945    0.140219862362    0.045595590533    0.000469462216    0.000802925778    0.122343685592    0.022445713042
            -0.073607597873    0.068723057617    0.000469462216    0.000802925778    -0.088307732823    0.083660213892    0.000505168477    0.000909499146
            0.000520281946    0.000896713012    0.122343685592    0.022445713042    0.000505168477    0.000909499146    0.140722355512    0.044494008825
0.725     -0.073260772034    0.106179573374    0.000625443236    0.000815532770    -0.064920606406    0.086543807094    0.000645932305    0.000836058944
            0.000625443236    0.000815532770    0.150961599604    0.037527721948    0.000582266118    0.000747991630    0.130233941165    0.016339116184
            -0.064920606406    0.086543807094    0.000582266118    0.000747991630    -0.075481430283    0.102945188744    0.000631121749    0.000852025534
            0.000645932305    0.000836058944    0.130233941165    0.016339116184    0.000631121764    0.000852025523    0.151177438058    0.036492595742
0.750     -0.056710021554    0.122544801154    0.000738616548    0.000738115634    -0.053118175182    0.102562606773    0.000761644806    0.000756136895
            0.000738616548    0.000738115634    0.160643252220    0.027260180166    0.000686024822    0.000675704428    0.137623213332    0.008482372461
            -0.053118175182    0.102562606773    0.000686024822    0.000675704428    -0.059367117250    0.119521415262    0.000747753156    0.000775569434
            0.000761644806    0.000756136895    0.137623213332    0.008482372461    0.000747753156    0.000775569434    0.160598224627    0.026365902414
0.775     -0.037546673659    0.135556769006    0.000838961055    0.000644035254    -0.038637361321    0.116226345983    0.000864152664    0.000659300220
            0.000838961055    0.000644035254    0.168802876996    0.014997916922    0.000777803493    0.000588189415    0.144121766027    -0.001062164184
            -0.038637361321    0.116226345983    0.000777803493    0.000588189415    -0.040596298904    0.132822732128    0.000851935583    0.000682310857
            0.000864152664    0.000659300220    0.144121766027    -0.001062164184    0.000851935583    0.000682310857    0.168540656183    0.014310556761
