# GHz S RI R 45
0.000     0.016041658130    0.001455750340    -0.000000000471    -0.000000057188    0.000714310895    0.001400880505    0.000000014547    -0.000000030963
            -0.000000000471    -0.000000057188    0.014933049974    0.001816164879    -0.000000004906    -0.000000064875    0.000677199115    0.001658343328
            0.000714310246    0.001400880500    -0.000000004906    -0.000000064875    0.015969812076    0.001460015121    0.000000010066    -0.000000038750
            0.000000014547    -0.000000030963    0.000677199289    0.001658343257    0.000000010066    -0.000000038750    0.014872242239    0.001828015728
0.025     0.019661820319    0.010564616117    -0.000000012941    -0.000000133613    0.001904450841    0.009889582830    0.000000015098    -0.000000076200
            -0.000000012941    -0.000000133613    0.018189108654    0.010219066271    -0.000000020234    -0.000000150718    0.001648618104    0.009335305708
            0.001906842627    0.009889240077    -0.000000020234    -0.000000150718    0.019605773255    0.010624376970    0.000000007720    -0.000000093550
            0.000000015098    -0.000000076200    0.001648872258    0.009334731857    0.000000007720    -0.000000093550    0.018120472266    0.010192809971
0.050     0.024385316764    0.017556092815    -0.000000043535    -0.000000252358    0.005360495108    0.019047193133    0.000000006043    -0.000000153079
            -0.000000043535    -0.000000252358    0.022274699554    0.017188183547    -0.000000056261    -0.000000283441    0.004457910207    0.018112567504
            0.005360529694    0.019047200021    -0.000000056261    -0.000000283441    0.024344474124    0.017681253956    -0.000000006783    -0.000000184529
            0.000000006043    -0.000000153079    0.004458005313    0.018112561603    -0.000000006783    -0.000000184529    0.022157972243    0.017140178379
0.075     0.029941056299    0.022987932252    -0.000000082015    -0.000000363410    0.010687121998    0.026933653682    -0.000000007790    -0.000000228033
            -0.000000082015    -0.000000363410    0.026960284880    0.022956141666    -0.000000101525    -0.000000406973    0.008818510071    0.025985364688
            0.010687137171    0.026933656269    -0.000000101525    -0.000000406973    0.029935077977    0.023179321145    -0.000000027493    -0.000000272149
            -0.000000007790    -0.000000228033    0.008818506311    0.025985367020    -0.000000027493    -0.000000272149    0.026780514848    0.022912434409
0.100     0.036207427690    0.026702100265    -0.000000128792    -0.000000468382    0.017427058196    0.033173903265    -0.000000026293    -0.000000301369
            -0.000000128792    -0.000000468382    0.032268281443    0.027478691413    -0.000000156401    -0.000000523284    0.014433058183    0.032692948219
            0.017427057617    0.033173903570    -0.000000156401    -0.000000523284    0.036253969460    0.026950021422    -0.000000054211    -0.000000356996
            -0.000000026293    -0.000000301369    0.014433033410    0.032692956970    -0.000000054211    -0.000000356996    0.032012016600    0.027468589375
0.125     0.042667338062    0.028572046529    -0.000000183001    -0.000000567261    0.025071003021    0.037517890619    -0.000000048500    -0.000000373277
            -0.000000183001    -0.000000567261    0.037866615504    0.030657227535    -0.000000220038    -0.000000632428    0.020985824126    0.038044843166
            0.025071003021    0.037517890619    -0.000000220038    -0.000000632428    0.042780109867    0.028861842127    -0.000000085950    -0.000000439154
            -0.000000048500    -0.000000373277    0.020985824126    0.038044843166    -0.000000085950    -0.000000439154    0.037533926124    0.030716867944
0.150     0.048892420084    0.028636029121    -0.000000242822    -0.000000660568    0.033073010623    0.039863993988    -0.000000073664    -0.000000443958
            -0.000000242822    -0.000000660568    0.043544990621    0.032550121761    -0.000000290398    -0.000000734621    0.028115380323    0.041925718662
            0.033073041417    0.039863980134    -0.000000290398    -0.000000734621    0.049084486041    0.028950692806    -0.000000121816    -0.000000518886
            -0.000000073664    -0.000000443958    0.028115380323    0.041925718662    -0.000000121816    -0.000000518886    0.043143620325    0.032712051125
0.175     0.054334172951    0.027081280450    -0.000000307496    -0.000000749515    0.040891407718    0.040255472130    -0.000000101222    -0.000000514552
            -0.000000307496    -0.000000749515    0.048936936801    0.033231844482    -0.000000366585    -0.000000831129    0.035471945768    0.044318889692
            0.040891423928    0.040255462791    -0.000000366585    -0.000000831129    0.054613298769    0.027399255236    -0.000000161168    -0.000000597232
            -0.000000101222    -0.000000514552    0.035471945768    0.044318889692    -0.000000161168    -0.000000597232    0.048489374409    0.033527871480
0.200     0.058550838557    0.024258153476    -0.000000376480    -0.000000835280    0.048023688969    0.038880651391    -0.000000130916    -0.000000585923
            -0.000000376480    -0.000000835280    0.053752285166    0.032897502034    -0.000000447962    -0.000000923210    0.042721564684    0.045290284593
            0.048023688969    0.038880651391    -0.000000447962    -0.000000923210    0.058918868329    0.024555250442    -0.000000203599    -0.000000675071
            -0.000000130916    -0.000000585923    0.042721564684    0.045290284593    -0.000000203599    -0.000000675071    0.053291862928    0.033352887071
0.225     0.061231113884    0.020611990788    -0.000000449966    -0.000000919473    0.054040643362    0.036049059204    -0.000000163044    -0.000000659690
            -0.000000449966    -0.000000919473    0.057783144376    0.031794980936    -0.000000534657    -0.000001012461    0.049561241549    0.044975294278
            0.054040643362    0.036049059204    -0.000000534657    -0.000001012461    0.061683579748    0.020862568548    -0.000000249328    -0.000000753958
            -0.000000163044    -0.000000659690    0.049561241549    0.044975294278    -0.000000249328    -0.000000753958    0.057351317705    0.032425050872
0.250     0.062200489776    0.016667998684    -0.000000528472    -0.000001003439    0.058616919885    0.032176630885    -0.000000198169    -0.000000736962
            -0.000000528472    -0.000001003439    0.060899240489    0.030224796714    -0.000000627130    -0.000001100245    0.055739599113    0.043581794091
            0.058616919885    0.032176630885    -0.000000627130    -0.000001100245    0.062725613984    0.016846701979    -0.000000298824    -0.000000835033
            -0.000000198169    -0.000000736962    0.055739599113    0.043581794091    -0.000000298824    -0.000000835033    0.060542113706    0.031033138736
0.275     0.061438275642    0.012976205022    -0.000000613503    -0.000001088677    0.061551932758    0.027748198545    -0.000000237679    -0.000000819414
            -0.000000613503    -0.000001088677    0.063057657616    0.028498851952    -0.000000726849    -0.000001188009    0.061069911399    0.041364219484
            0.061551932758    0.027748198545    -0.000000726849    -0.000001188009    0.062017073826    0.013059989090    -0.000000353436    -0.000000919903
            -0.000000237679    -0.000000819414    0.061069911399    0.041364219484    -0.000000353436    -0.000000919903    0.062822922090    0.029476061973
0.300     0.059079420698    0.010087568002    -0.000000706858    -0.000001176036    0.062788416379    0.023291612918    -0.000000283184    -0.000000907938
            -0.000000706858    -0.000001176036    0.064302991068    0.026936136516    -0.000000835591    -0.000001276566    0.065444192910    0.038614530105
            0.062788416379    0.023291612918    -0.000000835591    -0.000001276566    0.059685551081    0.010057488966    -0.000000414733    -0.000001009441
            -0.000000283184    -0.000000907938    0.065444192910    0.038614530105    -0.000000414733    -0.000001009441    0.064236294351    0.028059377998
0.325     0.055412391505    0.008498852547    -0.000000811342    -0.000001266112    0.062416451673    0.019331849341    -0.000000337270    -0.000001003703
            -0.000000811342    -0.000001266112    0.064765905645    0.025823717804    -0.000000956123    -0.000001366404    0.068833666929    0.035632137143
            0.062416451673    0.019331849341    -0.000000956123    -0.000001366404    0.056013203187    0.008342522739    -0.000000485272    -0.000001104691
            -0.000000337270    -0.000001003703    0.068833666929    0.035632137143    -0.000000485272    -0.000001104691    0.064907218044    0.027057812176
0.350     0.050865172058    0.008625974990    -0.000000929830    -0.000001358412    0.060677832779    0.016359993458    -0.000000402657    -0.000001106754
            -0.000000929830    -0.000001358412    0.064655588979    0.025410294284    -0.000001091294    -0.000001456939    0.071295537411    0.032712502638
            0.060677832779    0.016359993458    -0.000001091294    -0.000001456939    0.051422985238    0.008339451018    -0.000000567722    -0.000001205614
            -0.000000402657    -0.000001106754    0.071295537411    0.032712502638    -0.000000567722    -0.000001205614    0.065035946980    0.026708909017
0.375     0.045980700398    0.010754155669    -0.000001065957    -0.000001451755    0.057949482419    0.014783543709    -0.000000483028    -0.000001217003
            -0.000001065957    -0.000001451755    0.064244964960    0.025872635761    -0.000001244667    -0.000001546824    0.072960772810    0.030116081447
            0.057949482419    0.014783543709    -0.000001244667    -0.000001546824    0.046455139667    0.010343953341    -0.000000665699    -0.000001311930
            -0.000000483028    -0.000001217003    0.072960772810    0.030116081447    -0.000000665699    -0.000001311930    0.064883183250    0.027181016511
0.400     0.041384971844    0.015017456542    -0.000001222934    -0.000001543524    0.054726111625    0.014896496895    -0.000000581903    -0.000001332802
            -0.000001222934    -0.000001543524    0.063855054187    0.027312092524    -0.000001419370    -0.000001633277    0.074032955030    0.028059243334
            0.054726111625    0.014896496895    -0.000001419370    -0.000001633277    0.041735613247    0.014501685225    -0.000000782599    -0.000001421864
            -0.000000581903    -0.000001332802    0.074032955030    0.028059243334    -0.000000782599    -0.000001421864    0.064756059608    0.028570338395
0.425     0.037740683871    0.021365193103    -0.000001404195    -0.000001630082    0.051580757342    0.016836779417    -0.000000703475    -0.000001451941
            -0.000001404195    -0.000001630082    0.063829461905    0.029732048409    -0.000001618678    -0.000001712456    0.074765081288    0.026686044444
            0.051580757342    0.016836779417    -0.000001618678    -0.000001712456    0.037930598039    0.020773748089    -0.000000922437    -0.000001532954
            -0.000000703475    -0.000001451941    0.074765081288    0.026686044444    -0.000000922437    -0.000001532954    0.064982763876    0.030878955732
0.450     0.035699772135    0.029558396159    -0.000001611944    -0.000001706210    0.049124833616    0.020572123370    -0.000000851086    -0.000001570249
            -0.000001611944    -0.000001706210    0.064514561245    0.033041866874    -0.000001844600    -0.000001778966    0.075448488993    0.026065409735
            0.049124833616    0.020572123370    -0.000001844600    -0.000001778966    0.035698845257    0.028933109131    -0.000001088318    -0.000001640909
            -0.000000851086    -0.000001570249    0.075448488993    0.026065409735    -0.000001088318    -0.000001640909    0.065893578377    0.034018908723
0.475     0.035842552291    0.039166073776    -0.000001847764    -0.000001765739    0.047948873146    0.025881070997    -0.000001028027    -0.000001682742
            -0.000001847764    -0.000001765739    0.066226382537    0.037048740793    -0.000002098431    -0.000001826447    0.076381080135    0.026172926411
            0.047948873146    0.025881070997    -0.000002098431    -0.000001826447    0.035630848678    0.038558524646    -0.000001283247    -0.000001740568
            -0.000001028027    -0.000001682742    0.076381080135    0.026172926411    -0.000001283247    -0.000001740568    0.067789447852    0.037804619250
0.500     0.038627069558    0.049593617104    -0.000002111011    -0.000001801359    0.048572444756    0.032370492079    -0.000001235716    -0.000001782611
            -0.000002111011    -0.000001801359    0.069230845450    0.041473900504    -0.000002379199    -0.000001847473    0.077851676714    0.026899288714
            0.048572444756    0.032370492079    -0.000002379199    -0.000001847473    0.038198535206    0.049062287273    -0.000001508263    -0.000001825052
            -0.000001235716    -0.000001782611    0.077851676714    0.026899288714    -0.000001508263    -0.000001825052    0.070923543671    0.041968236713
0.525     0.044334654868    0.060114570063    -0.000002399599    -0.000001805521    0.051383784609    0.039493614241    -0.000001474563    -0.000001862587
            -0.000002399599    -0.000001805521    0.073712390439    0.045960707510    -0.000002684419    -0.000001834412    0.080104382105    0.028046847579
            0.051383784609    0.039493614241    -0.000002684419    -0.000001834412    0.043698963957    0.059721852459    -0.000001763411    -0.000001887039
            -0.000001474563    -0.000001862587    0.080104382105    0.028046847579    -0.000001763411    -0.000001887039    0.075470350063    0.046167697409
0.550     0.053041308965    0.069932418635    -0.000002708543    -0.000001770731    0.056606118607    0.046602321337    -0.000001742102    -0.000001914466
            -0.000002708543    -0.000001770731    0.079762472182    0.050103316999    -0.000003008664    -0.000001779781    0.083326642420    0.029352391244
            0.056606118607    0.046602321337    -0.000003008664    -0.000001779781    0.052224920467    0.069739002007    -0.000002045777    -0.000001918392
            -0.000001742102    -0.000001914466    0.083326642420    0.029352391244    -0.000002045777    -0.000001918392    0.081515365450    0.050013867864
0.575     0.064594162534    0.078238890514    -0.000003031212    -0.000001690584    0.064262223724    0.052995555590    -0.000002034297    -0.000001930735
            -0.000003031212    -0.000001690584    0.087357422349    0.053468641591    -0.000003344874    -0.000001677294    0.087619074364    0.030497977577
            0.064262223724    0.052995555590    -0.000003344874    -0.000001677294    0.063640420448    0.078300235302    -0.000002350929    -0.000001911715
            -0.000002034297    -0.000001930735    0.087619074364    0.030497977577    -0.000002350929    -0.000001911715    0.089033664399    0.053092394324
0.600     0.078625030961    0.084286188764    -0.000003358304    -0.000001560319    0.074179997498    0.057988419259    -0.000002343987    -0.000001904544
            -0.000003358304    -0.000001560319    0.096363449299    0.055631729727    -0.000003683295    -0.000001522402    0.092996685846    0.031143906184
            0.074179997498    0.057988419259    -0.000003683295    -0.000001522402    0.077592172639    0.084647083374    -0.000002671261    -0.000001860411
            -0.000002343987    -0.000001904544    0.092996685846    0.031143906184    -0.000002671261    -0.000001860411    0.097895220436    0.054996544985
0.625     0.094569208381    0.087443569708    -0.000003679769    -0.000001377638    0.085996284975    0.060962909148    -0.000002662885    -0.000001831188
            -0.000003679769    -0.000001377638    0.106531761779    0.056203381273    -0.000004013457    -0.000001313077    0.099371217666    0.030947459015
            0.085996286039    0.060962907647    -0.000004013457    -0.000001313077    0.093528137475    0.088134313122    -0.000002998138    -0.000001760061
            -0.000002662885    -0.000001831188    0.099371217666    0.030947459015    -0.000002998138    -0.000001760061    0.107859731250    0.055353562653
0.650     0.111719128938    0.087248714356    -0.000003984151    -0.000001143015    0.099201481346    0.061423622925    -0.000002980524    -0.000001708141
            -0.000003984151    -0.000001143015    0.117520820060    0.054860441438    -0.000004323592    -0.000001050233    0.106570412679    0.029596563384
            0.099201481346    0.061423622925    -0.000004323592    -0.000001050233    0.110748479533    0.088282613525    -0.000003320745    -0.000001608565
            -0.000002980524    -0.000001708141    0.106570412679    0.029596563384    -0.000003320745    -0.000001608565    0.118598217459    0.053855028882
0.675     0.129269490355    0.083434709176    -0.000004260953    -0.000000859891    0.113170180351    0.059023839297    -0.000003286756    -0.000001535866
            -0.000004260953    -0.000000859891    0.128907004959    0.051367747328    -0.000004602909    -0.000000737743    0.114333319824    0.026827099364
            0.113170180351    0.059023839297    -0.000004602909    -0.000000737743    0.128451426109    0.084805828270    -0.000003628737    -0.000001406806
            -0.000003286756    -0.000001535866    0.114333319824    0.026827099364    -0.000003628737    -0.000001406806    0.129703066362    0.050276259956
0.700     0.146384520882    0.075943451731    -0.000004500059    -0.000000534576    0.127223588624    0.053588902667    -0.000003570953    -0.000001317548
            -0.000004500059    -0.000000534576    0.140219862362    0.045595590533    -0.000004841142    -0.000000382459    0.122343685592    0.022445713042
            0.127223588624    0.053588902667    -0.000004841142    -0.000000382459    0.145800365545    0.077626050736    -0.000003911318    -0.000001158513
            -0.000003570953    -0.000001317548    0.122343685592    0.022445713042    -0.000003911318    -0.000001158513    0.140722355512    0.044494008825
0.725     0.162243755505    0.064918064087    -0.000004693936    -0.000000175613    0.140662051548    0.045111352032    -0.000003824565    -0.000001059014
            -0.000004693936    -0.000000175613    0.150961599604    0.037527721948    -0.000005030718    0.000000006581    0.130233941165    0.016339116184
            0.140662051548    0.045111352032    -0.000005030718    0.000000006581    0.161969690560    0.066866983672    -0.000004159907    -0.000000869969
            -0.000003824565    -0.000001059014    0.130233941165    0.016339116184    -0.000004159907    -0.000000869969    0.151177438058    0.036492595742
0.750     0.176098655819    0.050681447785    -0.000004836836    0.000000206577    0.152819536368    0.033744940438    -0.000004040071    -0.000000768215
            -0.000004836836    0.000000206577    0.160643252220    0.027260180166    -0.000005165928    0.000000418393    0.137623213332    0.008482372461
            0.152819536368    0.033744940438    -0.000005165928    0.000000418393    0.176199818712    0.052834808861    -0.000004367039    -0.000000549693
            -0.000004040071    -0.000000768215    0.137623213332    0.008482372461    -0.000004367039    -0.000000549693    0.160598224627    0.026365902414
0.775     0.187298329899    0.033709940710    -0.000004926464    0.000000600892    0.163082719257    0.019781249212    -0.000004213176    -0.000000454434
            -0.000004926464    0.000000600892    0.168802876996    0.014997916922    -0.000005244616    0.000000841390    0.144121766027    -0.001062164184
            0.163082719257    0.019781249212    -0.000005244616    0.000000841390    0.187827244039    0.035990078216    -0.000004528565    -0.000000207411
