# GHz S RI R 45
0.000     0.015328041668    0.001817166579    0.000001876311    0.000003765085    0.000713062462    0.001660306217    0.000002040988    0.000004406316
            0.000001876156    0.000003765087    0.014933049974    0.001816164879    0.000002258868    0.000004425856    0.000677199115    0.001658343328
            0.000713062249    0.001660306199    0.000002258876    0.000004425856    0.015287566449    0.001805011532    0.000002466463    0.000005252216
            0.000002041331    0.000004406310    0.000677199289    0.001658343257    0.000002466382    0.000005252217    0.014872242239    0.001828015728
0.025     0.018920722773    0.010696620583    0.000003478513    0.000008891671    0.001810145933    0.009738719554    0.000003753997    0.000009944268
            0.000003478532    0.000008891665    0.018189108654    0.010219066271    0.000004341445    0.000010967570    0.001648618104    0.009335305708
            0.001802241117    0.009736534348    0.000004341448    0.000010967585    0.018853685277    0.010618341151    0.000004550224    0.000012048048
            0.000003754017    0.000009944278    0.001648872258    0.009334731857    0.000004550218    0.000012048040    0.018120472266    0.010192809971
0.050     0.023413117583    0.017940577050    0.000006763502    0.000016195880    0.004923670164    0.018829158030    0.000007207934    0.000018168268
            0.000006763502    0.000016195880    0.022274699554    0.017188183547    0.000008552049    0.000019873566    0.004457910207    0.018112567504
            0.004923730395    0.018829091632    0.000008552049    0.000019873566    0.023301333747    0.017834026775    0.000008760252    0.000022006807
            0.000007207935    0.000018168269    0.004458005313    0.018112561603    0.000008760252    0.000022006807    0.022157972243    0.017140178379
0.075     0.028638908159    0.023784581606    0.000011116333    0.000022458044    0.009752423441    0.026854042414    0.000011752062    0.000025369726
            0.000011116333    0.000022458044    0.026960284880    0.022956141666    0.000014129104    0.000027405714    0.008818510071    0.025985364688
            0.009752421078    0.026854094339    0.000014129104    0.000027405715    0.028475819993    0.023651343276    0.000014298084    0.000030714864
            0.000011752062    0.000025369726    0.008818506311    0.025985367020    0.000014298084    0.000030714864    0.026780514848    0.022912434409
0.100     0.034553357649    0.028140028509    0.000016353581    0.000027671275    0.015920740391    0.033507402156    0.000017247913    0.000031584953
            0.000016353581    0.000027671275    0.032268281443    0.027478691413    0.000020818465    0.000033520737    0.014433058183    0.032692948219
            0.015920740391    0.033507402156    0.000020818466    0.000033520736    0.034329992854    0.028000733735    0.000021001263    0.000038209797
            0.000017247913    0.000031584953    0.014433033410    0.032692956970    0.000021001263    0.000038209797    0.032012016600    0.027468589375
0.125     0.040800746703    0.030933743059    0.000022251499    0.000031754511    0.023027756629    0.038569689028    0.000023520297    0.000036737257
            0.000022251499    0.000031754511    0.037866615504    0.030657227535    0.000028296942    0.000038097904    0.020985824126    0.038044843166
            0.023027756629    0.038569689028    0.000028296943    0.000038097905    0.040514232587    0.030809702515    0.000028652798    0.000044387621
            0.000023520297    0.000036737257    0.020985824126    0.038044843166    0.000028652798    0.000044387621    0.037533926124    0.030716867944
0.150     0.046927445160    0.032130222530    0.000028543126    0.000034742953    0.030645826191    0.041943057176    0.000030344879    0.000040859604
            0.000028543126    0.000034742953    0.043544990621    0.032550121761    0.000036180801    0.000041171979    0.028115380323    0.041925718662
            0.030645826191    0.041943057176    0.000036180801    0.000041171979    0.046586942914    0.032047375264    0.000036971076    0.000049276832
            0.000030344879    0.000040859604    0.028115380323    0.041925718662    0.000036971076    0.000049276832    0.043143620325    0.032712051125
0.175     0.052547749480    0.031915329249    0.000035022723    0.000036694476    0.038345241598    0.043627870259    0.000037560601    0.000043984852
            0.000035022723    0.000036694476    0.048936936801    0.033231844482    0.000044155105    0.000042827296    0.035471945768    0.044318889692
            0.038345241598    0.043627870259    0.000044155106    0.000042827297    0.052170195190    0.031894101030    0.000045744268    0.000052910448
            0.000037560601    0.000043984852    0.035471945768    0.044318889692    0.000045744268    0.000052910448    0.048489374409    0.033527871480
0.200     0.057320835917    0.030559038425    0.000041521260    0.000037729107    0.045721824855    0.043739939080    0.000045036070    0.000046198017
            0.000041521260    0.000037729107    0.053752285166    0.032897502034    0.000051953135    0.000043244599    0.042721564684    0.045290284593
            0.045721824855    0.043739939080    0.000051953135    0.000043244599    0.056929133441    0.030612954023    0.000054792232    0.000055390333
            0.000045036070    0.000046198017    0.042721564684    0.045290284593    0.000054792232    0.000055390333    0.053291862928    0.033352887071
0.225     0.060995475138    0.028396249875    0.000047925927    0.000037979609    0.052422991556    0.042486527772    0.000052687737    0.000047581466
            0.000047925927    0.000037979609    0.057783144376    0.031794980936    0.000059386469    0.000042639869    0.049561241549    0.044975294278
            0.052422991556    0.042486527772    0.000059386469    0.000042639869    0.060616820773    0.028530371794    0.000063991520    0.000056822066
            0.000052687737    0.000047581466    0.049561241549    0.044975294278    0.000063991520    0.000056822066    0.057351317705    0.032425050872
0.250     0.063421928828    0.025829130961    0.000054185932    0.000037599984    0.058172347193    0.040159660966    0.000060482368    0.000048230823
            0.000054185932    0.000037599984    0.060899240489    0.030224796714    0.000066357623    0.000041271671    0.055739599113    0.043581794091
            0.058172347193    0.040159660966    0.000066357623    0.000041271671    0.063084855424    0.026039573713    0.000073279463    0.000057335889
            0.000060482368    0.000048230823    0.055739599113    0.043581794091    0.000073279463    0.000057335889    0.060542113706    0.031033138736
0.275     0.064571070385    0.023275859617    0.000060304252    0.000036720070    0.062782838579    0.037103786203    0.000068426041    0.000048208244
            0.000060304252    0.000036720070    0.063057657616    0.028498851952    0.000072855652    0.000039381825    0.061069911399    0.041364219484
            0.062782838579    0.037103786203    0.000072855652    0.000039381825    0.064303121480    0.023549334789    0.000082644630    0.000057029788
            0.000068426041    0.000048208244    0.061069911399    0.041364219484    0.000082644630    0.000057029788    0.062822922090    0.029476061973
0.300     0.064534286425    0.021157558869    0.000066338509    0.000035452628    0.066172668207    0.033699891101    0.000076563879    0.000047555320
            0.000066338509    0.000035452628    0.064302991068    0.026936136516    0.000078959354    0.000037196400    0.065444192910    0.038614530105
            0.066172668207    0.033699891101    0.000078959354    0.000037196400    0.064359090385    0.021471658413    0.000092127751    0.000055982996
            0.000076563879    0.000047555320    0.065444192910    0.038614530105    0.000092127751    0.000055982996    0.064236294351    0.028059377998
0.325     0.063520499521    0.019848884882    0.000072377071    0.000033858465    0.068365262207    0.030329609340    0.000084952636    0.000046259848
            0.000072377071    0.000033858465    0.064765905645    0.025823717804    0.000084811781    0.000034877744    0.068833666929    0.035632137143
            0.068365262207    0.030329609340    0.000084811781    0.000034877744    0.063454658106    0.020173251022    0.000101793491    0.000054217262
            0.000084952636    0.000046259848    0.068833666929    0.035632137143    0.000101793491    0.000054217262    0.064907218044    0.027057812176
0.350     0.061843797204    0.019662677593    0.000078540283    0.000031954982    0.069494559750    0.027355672818    0.000093663156    0.000044271175
            0.000078540283    0.000031954982    0.064655588979    0.025410294284    0.000090619592    0.000032527092    0.071295537411    0.032712502638
            0.069494559750    0.027355672818    0.000090619592    0.000032527092    0.061894958291    0.019961215443    0.000111731189    0.000051709863
            0.000093663156    0.000044271175    0.071295537411    0.032712502638    0.000111731189    0.000051709863    0.065035946980    0.026708909017
0.375     0.059901869728    0.020809287448    0.000084946032    0.000029692297    0.069789492714    0.025083890696    0.000102742825    0.000041479243
            0.000084946032    0.000029692297    0.064244964960    0.025872635761    0.000096608121    0.000030148169    0.072960772810    0.030116081447
            0.069789492714    0.025083890696    0.000096608121    0.000030148169    0.060066944180    0.021042764465    0.000122016552    0.000048368161
            0.000102742825    0.000041479243    0.072960772810    0.030116081447    0.000122016552    0.000048368161    0.064883183250    0.027181016511
0.400     0.058152147686    0.023386622587    0.000091708577    0.000026966186    0.069566088807    0.023746738322    0.000112220819    0.000037735091
            0.000091708577    0.000026966186    0.063855054187    0.027312092524    0.000103019267    0.000027657805    0.074032955030    0.028059243334
            0.069566088807    0.023746738322    0.000103019267    0.000027657805    0.058415993026    0.023515763706    0.000132710439    0.000044048342
            0.000112220819    0.000037735091    0.074032955030    0.028059243334    0.000132710439    0.000044048342    0.064756059608    0.028570338395
0.425     0.057074966827    0.027353783571    0.000098900234    0.000023606074    0.069196235771    0.023470638352    0.000122066586    0.000032842041
            0.000098900234    0.000023606074    0.063829461905    0.029732048409    0.000110055310    0.000024865547    0.074765081288    0.026686044444
            0.069196235771    0.023470638352    0.000110055310    0.000024865547    0.057410609760    0.027342914094    0.000143817529    0.000038544669
            0.000122066586    0.000032842041    0.074765081288    0.026686044444    0.000143817529    0.000038544669    0.064982763876    0.030878955732
0.450     0.057141041595    0.032534473803    0.000106547728    0.000019395342    0.069085929291    0.024270022124    0.000132195459    0.000026583146
            0.000106547728    0.000019395342    0.064514561245    0.033041866874    0.000117867056    0.000021495898    0.075448488993    0.026065409735
            0.069085929291    0.024270022124    0.000117867056    0.000021495898    0.057510454952    0.032354840433    0.000155287020    0.000031617326
            0.000132195459    0.000026583146    0.075448488993    0.026065409735    0.000155287020    0.000031617326    0.065893578377    0.034018908723
0.475     0.058766207299    0.038612192694    0.000114589726    0.000014078259    0.069631311312    0.026030368290    0.000142435396    0.000018729854
            0.000114589726    0.000014078259    0.066226382537    0.037048740793    0.000126503418    0.000017194734    0.076381080135    0.026172926411
            0.069631311312    0.026030368290    0.000126503418    0.000017194734    0.059122348905    0.038245468638    0.000166967526    0.000022999912
            0.000142435396    0.000018729854    0.076381080135    0.026172926411    0.000166967526    0.000022999912    0.067789447852    0.037804619250
0.500     0.062279165682    0.045153690492    0.000122888389    0.000007392823    0.071191969779    0.028521919661    0.000152539709    0.000009076874
            0.000122888389    0.000007392823    0.069230845450    0.041473900504    0.000135902347    0.000011569984    0.077851676714    0.026899288714
            0.071191969779    0.028521919661    0.000135902347    0.000011569984    0.062568749759    0.044594256214    0.000178626199    0.000012438669
            0.000152539709    0.000009076874    0.077851676714    0.026899288714    0.000178626199    0.000012438669    0.070923543671    0.041968236713
0.525     0.067880100564    0.051629376944    0.000131191429    -0.000000903523    0.074044523220    0.031405554748    0.000162163738    -0.000002534946
            0.000131191429    -0.000000903523    0.073712390439    0.045960707510    0.000145854157    0.000004222659    0.080104382105    0.028046847579
            0.074044523220    0.031405554748    0.000145854157    0.000004222659    0.068048105051    0.050886504507    0.000189913261    -0.000000281867
            0.000162163738    -0.000002534946    0.080104382105    0.028046847579    0.000189913261    -0.000000281867    0.075470350063    0.046167697409
0.550     0.075624544195    0.057457020863    0.000139167826    -0.000010996369    0.078365288413    0.034267780427    0.000170906494    -0.000016184358
            0.000139167826    -0.000010996369    0.079762472182    0.050103316999    0.000156023290    -0.000005200916    0.083326642420    0.029352391244
            0.078365288413    0.034267780427    0.000156023290    -0.000005200916    0.075617280762    0.056554791015    0.000200404413    -0.000015298449
            0.000170906494    -0.000016184358    0.083326642420    0.029352391244    0.000200404413    -0.000015298449    0.081515365450    0.050013867864
0.575     0.085401002999    0.062039897935    0.000146392881    -0.000022978993    0.084197989628    0.036646977653    0.000178300294    -0.000031842560
            0.000146392881    -0.000022978993    0.087357422349    0.053468641591    0.000165931911    -0.000016963882    0.087619074364    0.030497977577
            0.084197989628    0.036646977653    0.000165931911    -0.000016963882    0.085170996188    0.061017318900    0.000209588310    -0.000032636291
            0.000178300294    -0.000031842560    0.087619074364    0.030497977577    0.000209588310    -0.000032636291    0.089033664399    0.053092394324
0.600     0.096941140858    0.064818863732    0.000152411441    -0.000036830230    0.091459462528    0.038080786987    0.000183881239    -0.000049358822
            0.000152411441    -0.000036830230    0.096363449299    0.055631729727    0.000175024119    -0.000031198430    0.092996685846    0.031143906184
            0.091459462528    0.038080786987    0.000175024119    -0.000031198430    0.096450986359    0.063727024695    0.000216940970    -0.000052187470
            0.000183881239    -0.000049358822    0.092996685846    0.031143906184    0.000216940970    -0.000052187470    0.097895220436    0.054996544985
0.625     0.109825859230    0.065311953442    0.000156743154    -0.000052389338    0.099929955569    0.038136577161    0.000187191424    -0.000068447403
            0.000156743154    -0.000052389338    0.106531761779    0.056203381273    0.000182677372    -0.000047874768    0.099371217666    0.030947459015
            0.099929955569    0.038136577161    0.000182677372    -0.000047874768    0.109051843869    0.064211618063    0.000221926628    -0.000073695056
            0.000187191424    -0.000068447403    0.099371217666    0.030947459015    0.000221926628    -0.000073695056    0.107859731250    0.055353562653
0.650     0.123523030822    0.063154844177    0.000158961535    -0.000069368517    0.109285007963    0.036453490127    0.000187855811    -0.000088704984
            0.000158961535    -0.000069368517    0.117520820060    0.054860441438    0.000188286414    -0.000066794052    0.106570412679    0.029596563384
            0.109285007963    0.036453490127    0.000188286414    -0.000066794052    0.122456362770    0.062112426638    0.000224089454    -0.000096762950
            0.000187855811    -0.000088704984    0.106570412679    0.029596563384    0.000224089454    -0.000096762950    0.118598217459    0.053855028882
0.675     0.137413572663    0.058124807178    0.000158700908    -0.000087353771    0.119104670845    0.032763233350    0.000185584964    -0.000109621693
            0.000158700908    -0.000087353771    0.128907004959    0.051367747328    0.000191283832    -0.000087585743    0.114333319824    0.026827099364
            0.119104670845    0.032763233350    0.000191283832    -0.000087585743    0.136062127747    0.057208634601    0.000223049305    -0.000120867251
            0.000185584964    -0.000109621693    0.114333319824    0.026827099364    0.000223049305    -0.000120867251    0.129703066362    0.050276259956
0.700     0.150842159622    0.050156122522    0.000155723763    -0.000105849083    0.128920252876    0.026911116090    0.000180235427    -0.000130628193
            0.000155723763    -0.000105849083    0.140219862362    0.045595590533    0.000191219960    -0.000109746557    0.122343685592    0.022445713042
            0.128920252876    0.026911116090    0.000191219960    -0.000109746557    0.149230569636    0.049431371269    0.000218580174    -0.000145402724
            0.000180235427    -0.000130628193    0.122343685592    0.022445713042    0.000218580174    -0.000145402724    0.140722355512    0.044494008825
0.725     0.163150458801    0.039342083235    0.000149910164    -0.000124296379    0.138227901660    0.018860514255    0.000171788550    -0.000151118565
            0.000149910164    -0.000124296379    0.150961599604    0.037527721948    0.000187763355    -0.000132656202    0.130233941165    0.016339116184
            0.138227901660    0.018860514255    0.000187763355    -0.000132656202    0.161317950707    0.038867008151    0.000210587438    -0.000169707718
            0.000171788550    -0.000151118565    0.130233941165    0.016339116184    0.000210587438    -0.000169707718    0.151177438058    0.036492595742
0.750     0.173722565472    0.025922790643    0.000141292938    -0.000142139045    0.146537652040    0.008692469235    0.000160386657    -0.000170513688
            0.000141292938    -0.000142139045    0.160643252220    0.027260180166    0.000180753659    -0.000155646107    0.137623213332    0.008482372461
            0.146537652040    0.008692469235    0.000180753659    -0.000155646107    0.171721481838    0.025746137049    0.000199152726    -0.000193131169
            0.000160386657    -0.000170513688    0.137623213332    0.008482372461    0.000199152726    -0.000193131169    0.160598224627    0.026365902414
0.775     0.182009393967    0.010271961866    0.000130023501    -0.000158833438    0.153381359418    -0.003404570666    0.000146286799    -0.000188270903
            0.000130023501    -0.000158833438    0.168802876996    0.014997916922    0.000170178343    -0.000178015243    0.144121766027    -0.001062164184
            0.153381359418    -0.003404570666    0.000170178343    -0.000178015243    0.179902561353    0.010429452916    0.000184487542    -0.000215047379
            0.000146286799    -0.000188270903    0.144121766027    -0.001062164184    0.000184487542    -0.000215047379    0.168540656183    0.014310556761
0.800     0.187560888333    -0.007129197948    0.000116384176    -0.000173912312    0.158349129721    -0.017144915756    0.000129869175    -0.000203944940
            0.000116384176    -0.000173912312    0.175035551918    0.001039739262    0.000156190783    -0.000199100665    0.149367419172    -0.012147737565
