# GHz S RI R 45
0.000     0.016000747654    0.001661698204    0.000000203105    0.000000409471    0.000730713866    0.001486727928    0.000000217725    0.000000427863
            0.000000203105    0.000000409471    0.014933049974    0.001816164879    0.000000211886    0.000000424001    0.000677199115    0.001658343328
            0.000730713996    0.001486727865    0.000000211886    0.000000424001    0.015948899371    0.001650709961    0.000000227264    0.000000443749
            0.000000217725    0.000000427863    0.000677199289    0.001658343257    0.000000227264    0.000000443749    0.014872242239    0.001828015728
0.025     0.019971749885    0.011150279138    0.000000373412    0.000000906358    0.001978013804    0.010136718524    0.000000395940    0.000000946789
            0.000000373412    0.000000906356    0.018189108654    0.010219066271    0.000000387872    0.000000939447    0.001648618104    0.009335305708
            0.001976631409    0.010136731431    0.000000387873    0.000000939446    0.019894268675    0.011079339853    0.000000411662    0.000000983020
            0.000000395940    0.000000946788    0.001648872258    0.009334731857    0.000000411662    0.000000983022    0.018120472266    0.010192809971
0.050     0.025017044035    0.018506651909    0.000000695496    0.000001625621    0.005566755803    0.019473077509    0.000000732355    0.000001698452
            0.000000695496    0.000001625621    0.022274699554    0.017188183547    0.000000721021    0.000001685781    0.004457910207    0.018112567504
            0.005566765537    0.019472984241    0.000000721021    0.000001685781    0.024881757215    0.018383080723    0.000000760037    0.000001764419
            0.000000732355    0.000001698452    0.004458005313    0.018112561603    0.000000760037    0.000001764419    0.022157972243    0.017140178379
0.075     0.030933529481    0.024179914744    0.000001094505    0.000002246146    0.011067552503    0.027481881926    0.000001149517    0.000002347183
            0.000001094505    0.000002246146    0.026960284880    0.022956141666    0.000001133735    0.000002330207    0.008818510071    0.025985364688
            0.011067556179    0.027481877211    0.000001133735    0.000002330207    0.030725796441    0.024032847084    0.000001192021    0.000002439519
            0.000001149517    0.000002347183    0.008818506311    0.025985367020    0.000001192021    0.000002439519    0.026780514848    0.022912434409
0.100     0.037586233006    0.028017783184    0.000001561079    0.000002779252    0.018003717421    0.033779083839    0.000001637713    0.000002904982
            0.000001561079    0.000002779252    0.032268281443    0.027478691413    0.000001616709    0.000002884809    0.014433058183    0.032692948219
            0.018003739937    0.033779076371    0.000001616709    0.000002884809    0.037294952613    0.027878969052    0.000001697991    0.000003021139
            0.000001637713    0.000002904982    0.014433033410    0.032692956970    0.000001697991    0.000003021139    0.032012016600    0.027468589375
0.125     0.044433345606    0.029885630710    0.000002079908    0.000003223690    0.025843385958    0.038113138044    0.000002181326    0.000003370449
            0.000002079908    0.000003223690    0.037866615504    0.030657227535    0.000002154557    0.000003348170    0.020985824126    0.038044843166
            0.025843385854    0.038113139323    0.000002154557    0.000003348170    0.044054245688    0.029796176550    0.000002262273    0.000003507688
            0.000002181326    0.000003370449    0.020985824126    0.038044843166    0.000002262273    0.000003507688    0.037533926124    0.030716867944
0.150     0.051000067040    0.029864557798    0.000002632988    0.000003586081    0.034017712976    0.040388404471    0.000002761737    0.000003750103
            0.000002632988    0.000003586081    0.043544990621    0.032550121761    0.000002728874    0.000003726724    0.028115380323    0.041925718662
            0.034017712976    0.040388404471    0.000002728874    0.000003726724    0.050554742212    0.029850025414    0.000002865854    0.000003905496
            0.000002761737    0.000003750103    0.028115380323    0.041925718662    0.000002865854    0.000003905496    0.043143620325    0.032712051125
0.175     0.056714583665    0.028144149366    0.000003207650    0.000003874424    0.041965471287    0.040661717198    0.000003365827    0.000004052016
            0.000003207650    0.000003874424    0.048936936801    0.033231844482    0.000003326697    0.000004028405    0.035471945768    0.044318889692
            0.041965470578    0.040661717930    0.000003326697    0.000004028405    0.056230432973    0.028232342893    0.000003495274    0.000004222534
            0.000003365827    0.000004052016    0.035471945768    0.044318889692    0.000003495274    0.000004222534    0.048489374409    0.033527871480
0.200     0.061116474467    0.025101504674    0.000003795701    0.000004100888    0.049170487757    0.039141192208    0.000003985025    0.000004288534
            0.000003795701    0.000004100888    0.053752285166    0.032897502034    0.000003939505    0.000004265411    0.042721564684    0.045290284593
            0.049170487757    0.039141192208    0.000003939505    0.000004265411    0.060628774450    0.025311404550    0.000004141698    0.000004471138
            0.000003985025    0.000004288534    0.042721564684    0.045290284593    0.000004141698    0.000004471138    0.053291862928    0.033352887071
0.225     0.063884507156    0.021217977320    0.000004394439    0.000004276254    0.055196754872    0.036159424339    0.000004616425    0.000004470475
            0.000004394439    0.000004276254    0.057783144376    0.031794980936    0.000004564329    0.000004448432    0.049561241549    0.044975294278
            0.055196754872    0.036159424339    0.000004564329    0.000004448432    0.063435081365    0.021556132493    0.000004801888    0.000004662022
            0.000004616425    0.000004470475    0.049561241549    0.044975294278    0.000004801888    0.000004662022    0.057351317705    0.032425050872
0.250     0.064846549829    0.017058797166    0.000005006325    0.000004411283    0.059720316824    0.032157689617    0.000005262341    0.000004608729
            0.000005006325    0.000004411283    0.060899240489    0.030224796714    0.000005203407    0.000004588300    0.055739599113    0.043581794091
            0.059720316824    0.032157689617    0.000005203407    0.000004588300    0.064479377976    0.017517159586    0.000005477920    0.000004806074
            0.000005262341    0.000004608729    0.055739599113    0.043581794091    0.000005477920    0.000004806074    0.060542113706    0.031033138736
0.275     0.063996717119    0.013210771674    0.000005638018    0.000004512498    0.062550333601    0.027645291729    0.000005929380    0.000004709785
            0.000005638018    0.000004512498    0.063057657616    0.028498851952    0.000005863184    0.000004691479    0.061069911399    0.041364219484
            0.062550333601    0.027645291729    0.000005863184    0.000004691479    0.063753635033    0.013766522462    0.000006176150    0.000004909738
            0.000005929380    0.000004709785    0.061069911399    0.041364219484    0.000006176150    0.000004909738    0.062822922090    0.029476061973
0.300     0.061496791139    0.010256763117    0.000006299813    0.000004583259    0.063647612651    0.023171111509    0.000006627840    0.000004776902
            0.000006299813    0.000004583259    0.064302991068    0.026936136516    0.000006553767    0.000004761347    0.065444192910    0.038614530105
            0.063647612651    0.023171111509    0.000006553767    0.000004761347    0.061412875129    0.010873077869    0.000006906654    0.000004976219
            0.000006627840    0.000004776902    0.065444192910    0.038614530105    0.000006906654    0.000004976219    0.064236294351    0.028059377998
0.325     0.057672435529    0.008715571641    0.000007003350    0.000004620581    0.063128555313    0.019276041892    0.000007369381    0.000004806814
            0.000007003350    0.000004620581    0.064765905645    0.025823717804    0.000007286626    0.000004794878    0.068833666929    0.035632137143
            0.063128555313    0.019276041892    0.000007286626    0.000004794878    0.057771822932    0.009343888900    0.000007680861    0.000005002212
            0.000007369381    0.000004806814    0.068833666929    0.035632137143    0.000007680861    0.000005002212    0.064907218044    0.027057812176
0.350     0.052996688549    0.009012984723    0.000007761047    0.000004616452    0.061267052193    0.016458182903    0.000008166329    0.000004791170
            0.000007761047    0.000004616452    0.064655588979    0.025410294284    0.000008074018    0.000004784047    0.071295537411    0.032712502638
            0.061267052193    0.016458182903    0.000008074018    0.000004784047    0.053288616530    0.009596462309    0.000008510895    0.000004979295
            0.000008166329    0.000004791170    0.071295537411    0.032712502638    0.000008510895    0.000004979295    0.065035946980    0.026708909017
0.375     0.048061641906    0.011429173396    0.000008582820    0.000004555865    0.058475605270    0.015120643183    0.000009028565    0.000004714372
            0.000008582820    0.000004555865    0.064244964960    0.025872635761    0.000008925698    0.000004713691    0.072960772810    0.030116081447
            0.058475605270    0.015120643183    0.000008925698    0.000004713691    0.048538189965    0.011906755726    0.000009406426    0.000004891843
            0.000009028565    0.000004714372    0.072960772810    0.030116081447    0.000009406426    0.000004891843    0.064883183250    0.027181016511
0.400     0.043542332370    0.016076158107    0.000009475480    0.000004418631    0.055285358864    0.015540832917    0.000009962353    0.000004555633
            0.000009475480    0.000004418631    0.063855054187    0.027312092524    0.000009848328    0.000004563611    0.074032955030    0.028059243334
            0.055285358864    0.015540832917    0.000009848328    0.000004563611    0.044176887689    0.016388345747    0.000010373470    0.000004718915
            0.000009962353    0.000004555633    0.074032955030    0.028059243334    0.000010373470    0.000004718915    0.064756059608    0.028570338395
0.425     0.040144216720    0.022863381449    0.000010438925    0.000004178907    0.052300573875    0.017826326796    0.000010967173    0.000004288479
            0.000010438925    0.000004178907    0.063829461905    0.029732048409    0.000010841596    0.000004307807    0.074765081288    0.026686044444
            0.052300573875    0.017826326796    0.000010841596    0.000004307807    0.040891645439    0.022957530717    0.000011411222    0.000004433969
            0.000010967173    0.000004288479    0.074765081288    0.026686044444    0.000011411222    0.000004433969    0.064982763876    0.030878955732
0.450     0.038550033236    0.031496949580    0.000011465768    0.000003808193    0.050155228026    0.021902272424    0.000012034528    0.000003883809
            0.000011465768    0.000003808193    0.064514561245    0.033041866874    0.000011897813    0.000003917648    0.075448488993    0.026065409735
            0.050155228026    0.021902272424    0.000011897813    0.000003917648    0.039349171533    0.031333256132    0.000012511000    0.000004007827
            0.000012034528    0.000003883809    0.075448488993    0.026065409735    0.000012511000    0.000004007827    0.065893578377    0.034018908723
0.475     0.039352804920    0.041478723944    0.000012537842    0.000003276727    0.049447178298    0.027495147975    0.000013145431    0.000003311576
            0.000012537842    0.000003276727    0.066226382537    0.037048740793    0.000012998488    0.000003363310    0.076381080135    0.026172926411
            0.049447178298    0.027495147975    0.000012998488    0.000003363310    0.040129544322    0.041034886924    0.000013653353    0.000003410387
            0.000013145431    0.000003311576    0.076381080135    0.026172926411    0.000013653353    0.000003410387    0.067789447852    0.037804619250
0.500     0.043001311575    0.052141054662    0.000013627432    0.000002557916    0.050686130331    0.034156134026    0.000014270717    0.000002544992
            0.000013627432    0.000002557916    0.069230845450    0.041473900504    0.000014115687    0.000002618070    0.077851676714    0.026899288714
            0.050686130331    0.034156134026    0.000014115687    0.000002618070    0.043674884624    0.051416095081    0.000014808795    0.000002614808
            0.000014270717    0.000002544992    0.077851676714    0.026899288714    0.000014808795    0.000002614808    0.070923543671    0.041968236713
0.525     0.049742776525    0.062686890538    0.000014695480    0.000001631239    0.054230393633    0.041284790990    0.000015370039    0.000001563800
            0.000014695480    0.000001631239    0.073712390439    0.045960707510    0.000015209877    0.000001661342    0.080104382105    0.028046847579
            0.054230393633    0.041284790990    0.000015209877    0.000001661342    0.050231824953    0.061703385596    0.000015936614    0.000001600771
            0.000015370039    0.000001563800    0.080104382105    0.028046847579    0.000015936614    0.000001600771    0.075470350063    0.046167697409
0.550     0.059596442397    0.072259958195    0.000015695945    0.000000486540    0.060255363031    0.048189929968    0.000016395971    0.000000358418
            0.000015695945    0.000000486540    0.079762472182    0.050103316999    0.000016234480    0.000000482996    0.083326642420    0.029352391244
            0.060255363031    0.048189929968    0.000016234480    0.000000482996    0.059825926653    0.071063241541    0.000016988844    0.000000358752
            0.000016395971    0.000000358418    0.083326642420    0.029352391244    0.000016988844    0.000000358752    0.081515365450    0.050013867864
0.575     0.072333508822    0.080010834917    0.000016576335    -0.000000873082    0.068721254802    0.054143064116    0.000017294908    -0.000001067189
            0.000016576335    -0.000000873082    0.087357422349    0.053468641591    0.000017136766    -0.000000913859    0.087619074364    0.030497977577
            0.068721254802    0.054143064116    0.000017136766    -0.000000913859    0.072241627731    0.078667522790    0.000017911661    -0.000001107237
            0.000017294908    -0.000001067189    0.087619074364    0.030497977577    0.000017911661    -0.000001107237    0.089033664399    0.053092394324
0.600     0.087498816941    0.085174550891    0.000017285092    -0.000002429710    0.079386636161    0.058452982908    0.000018014341    -0.000002693879
            0.000017285092    -0.000002429710    0.096363449299    0.055631729727    0.000017864597    -0.000002511178    0.092996685846    0.031143906184
            0.079386636161    0.058452982908    0.000017864597    -0.000002511178    0.087042742619    0.083767178911    0.000018651866    -0.000002777893
            0.000018014341    -0.000002693879    0.092996685846    0.031143906184    0.000018651866    -0.000002777893    0.097895220436    0.054996544985
0.625     0.104437710281    0.087130219705    0.000017773776    -0.000004150000    0.091818056888    0.060516884307    0.000018505187    -0.000004487196
            0.000017773776    -0.000004150000    0.106531761779    0.056203381273    0.000018368876    -0.000004275536    0.099371217666    0.030947459015
            0.091818056888    0.060516884307    0.000018368876    -0.000004275536    0.103597436715    0.085751554417    0.000019159942    -0.000004618649
            0.000018505187    -0.000004487196    0.099371217666    0.030947459015    0.000019159942    -0.000004618649    0.107859731250    0.055353562653
0.650     0.122358509097    0.085450114351    0.000018004482    -0.000005988006    0.105443253439    0.059874725706    0.000018729248    -0.000006399610
            0.000018004482    -0.000005988006    0.117520820060    0.054860441438    0.000018611440    -0.000006160590    0.106570412679    0.029596563384
            0.105443253439    0.059874725706    0.000018611440    -0.000006160590    0.121138238417    0.084197106947    0.000019397125    -0.000006581653
            0.000018729248    -0.000006399610    0.106570412679    0.029596563384    0.000019397125    -0.000006581653    0.118598217459    0.053855028882
0.675     0.140384216770    0.079924938233    0.000017951312    -0.000007887185    0.119587037111    0.056232040580    0.000018660375    -0.000008373364
            0.000017951312    -0.000007887185    0.128907004959    0.051367747328    0.000018565468    -0.000008109477    0.114333319824    0.026827099364
            0.119587037111    0.056232040580    0.000018565468    -0.000008109477    0.138814066597    0.078890863338    0.000019336809    -0.000008608750
            0.000018660375    -0.000008373364    0.114333319824    0.026827099364    0.000019336809    -0.000008608750    0.129703066362    0.050276259956
0.700     0.157626662451    0.070568741963    0.000017604745    -0.000009786422    0.133537197262    0.049476727383    0.000018289479    -0.000010345940
            0.000017604745    -0.000009786422    0.140219862362    0.045595590533    0.000018221263    -0.000010060546    0.122343685592    0.022445713042
            0.133537197262    0.049476727383    0.000018221263    -0.000010060546    0.155758704593    0.069838007079    0.000018969342    -0.000010636995
            0.000018289479    -0.000010345940    0.122343685592    0.022445713042    0.000018969342    -0.000010636995    0.140722355512    0.044494008825
0.725     0.173233038732    0.057607190363    0.000016970662    -0.000011623142    0.146578138343    0.039668970117    0.000017622500    -0.000012253727
            0.000016970662    -0.000011623142    0.150961599604    0.037527721948    0.000017584120    -0.000011950687    0.130233941165    0.016339116184
            0.146578138343    0.039668970117    0.000017584120    -0.000011950687    0.171139953089    0.057248651355    0.000018300220    -0.000012602142
            0.000017622500    -0.000012253727    0.130233941165    0.016339116184    0.000018300220    -0.000012602142    0.151177438058    0.036492595742
0.750     0.186443248697    0.041448686113    0.000016070956    -0.000013339867    0.158045432203    0.027030181581    0.000016682198    -0.000014038103
            0.000016070956    -0.000013339867    0.160643252220    0.027260180166    0.000016675764    -0.000013721672    0.137623213332    0.008482372461
            0.158045432203    0.027030181581    0.000016675764    -0.000013721672    0.184211633176    0.041512604062    0.000017351943    -0.000014444967
            0.000016682198    -0.000014038103    0.137623213332    0.008482372461    0.000017351943    -0.000014444967    0.160598224627    0.026365902414
0.775     0.196614089958    0.022653641661    0.000014940227    -0.000014885977    0.167341411929    0.011915984963    0.000015503467    -0.000015647587
            0.000014940227    -0.000014885977    0.168802876996    0.014997916922    0.000015530386    -0.000015322102    0.144121766027    -0.001062164184
            0.167341411929    0.011915984963    0.000015530386    -0.000015322102    0.194341284353    0.023168714788    0.000016159078    -0.000016113050
            0.000015503467    -0.000015647587    0.144121766027    -0.001062164184    0.000016159078    -0.000016113050    0.168540656183    0.014310556761
0.800     0.203249593397    0.001894224075    0.000013623830    -0.000016222649    0.173969893600    -0.005205658629    0.000014132543    -0.000017042535
            0.000013623830    -0.000016222649    0.175035551918    0.001039739262    0.000014193402    -0.000016712337    0.149367419172    -0.012147737565
