# GHz S RI R 45
0.000     0.014734197394    0.001917223296    0.984956347772    -0.008295460242    0.000678984615    0.001643262578    -0.000667091016    -0.000591287648
            0.984956347772    -0.008295460242    0.014933049974    0.001816164879    -0.000666902044    -0.000591209320    0.000677199115    0.001658343328
            0.000678984758    0.001643262518    -0.000666902059    -0.000591209333    0.014700327390    0.001928028193    0.985005552694    -0.008297457596
            -0.000667091157    -0.000591287565    0.000677199289    0.001658343257    0.985005552694    -0.008297457596    0.014872242239    0.001828015728
0.025     0.018882134803    0.010238419208    0.974907512284    -0.122108968608    0.002141809953    0.009180316005    -0.001071647288    -0.002126657776
            0.974907508448    -0.122108999236    0.018189108654    0.010219066271    -0.001068871821    -0.002126171791    0.001648618104    0.009335305708
            0.002141006896    0.009180287484    -0.001068969290    -0.002126604292    0.018817058559    0.010205973793    0.975030930466    -0.121806573123
            -0.001071496426    -0.002126236498    0.001648872258    0.009334731857    0.975030918136    -0.121806671825    0.018120472266    0.010192809971
0.050     0.024849325739    0.016681005114    0.950689860428    -0.239133148846    0.006329961088    0.017423277823    -0.002197441766    -0.003924280504
            0.950689860428    -0.239133148846    0.022274699554    0.017188183547    -0.002197289412    -0.003923187600    0.004457910207    0.018112567504
            0.006329950071    0.017423271186    -0.002197252345    -0.003923192085    0.024789316326    0.016614974586    0.950916128135    -0.238479274259
            -0.002197357312    -0.003924266249    0.004458005313    0.018112561603    0.950916128135    -0.238479274259    0.022157972243    0.017140178379
0.075     0.032366543959    0.021026876344    0.912994496083    -0.351788767685    0.012789624339    0.024055178629    -0.003827181370    -0.005245544342
            0.912994496083    -0.351788767685    0.026960284880    0.022956141666    -0.003826649181    -0.005243015851    0.008818510071    0.025985364688
            0.012789616164    0.024055178446    -0.003826643931    -0.005243012502    0.032310319889    0.020933456662    0.913422254496    -0.350849429424
            -0.003827175204    -0.005245541660    0.008818506311    0.025985367020    0.913422254496    -0.350849429424    0.026780514848    0.022912434409
0.100     0.041182712944    0.022899673288    0.862185748730    -0.458589967326    0.020985788361    0.028559665701    -0.005782241363    -0.006027504575
            0.862185748730    -0.458589967326    0.032268281443    0.027478691413    -0.005779871101    -0.006022893437    0.014433058183    0.032692948219
            0.020985788361    0.028559665701    -0.005779867393    -0.006022895887    0.041135045811    0.022782242333    0.862884271056    -0.457410271476
            -0.005782238124    -0.006027509622    0.014433033410    0.032692956970    0.862884271056    -0.457410271476    0.032012016600    0.027468589375
0.125     0.050629847672    0.021946272365    0.799140213423    -0.558045006725    0.030292948182    0.030548142166    -0.007897402997    -0.006242010089
            0.799140213423    -0.558045006725    0.037866615504    0.030657227535    -0.007891012078    -0.006235318775    0.020985824126    0.038044843166
            0.030292948182    0.030548142166    -0.007891012863    -0.006235319395    0.050596023574    0.021806727831    0.800169386071    -0.556682904620
            -0.007897401908    -0.006242011467    0.020985824126    0.038044843166    0.800169386071    -0.556682904620    0.037533926124    0.030716867944
0.150     0.059962045589    0.018046380135    0.724862207403    -0.648795839580    0.040024901211    0.029799041129    -0.010025342621    -0.005914641999
            0.724862207403    -0.648795839580    0.043544990621    0.032550121761    -0.010012657745    -0.005906750769    0.028115380323    0.041925718662
            0.040024901211    0.029799041129    -0.010012657745    -0.005906750769    0.059957810748    0.017887592604    0.726270307488    -0.647319141126
            -0.010025342621    -0.005914641999    0.028115380323    0.041925718662    0.726270307488    -0.647319141126    0.043143620325    0.032712051125
0.175     0.068387394188    0.011245716103    0.640567444485    -0.729652721837    0.049456033308    0.026258876357    -0.012042818377    -0.005097509273
            0.640567444485    -0.729652721837    0.048936936801    0.033231844482    -0.012021412061    -0.005090615772    0.035471945768    0.044318889692
            0.049456033308    0.026258876357    -0.012021412061    -0.005090615772    0.068427752795    0.011062857905    0.642390497425    -0.728136918577
            -0.012042817456    -0.005097508884    0.035471945768    0.044318889692    0.642390497425    -0.728136918577    0.048489374409    0.033527871480
0.200     0.075144406416    0.001805095098    0.547556519430    -0.799599126838    0.057875344164    0.020052214801    -0.013860900663    -0.003869738325
            0.547556519430    -0.799599126838    0.053752285166    0.032897502034    -0.013828882273    -0.003867598470    0.042721564684    0.045290284593
            0.057875344164    0.020052214801    -0.013828882273    -0.003867598470    0.075244013631    0.001588527273    0.549818434689    -0.798123881561
            -0.013860900663    -0.003869738325    0.042721564684    0.045290284593    0.549818434689    -0.798123881561    0.053291862928    0.033352887071
0.225     0.079543180153    -0.009837110191    0.447211513605    -0.857772594653    0.064615753240    0.011466986675    -0.015426977340    -0.002318609890
            0.447211513605    -0.857772594653    0.057783144376    0.031794980936    -0.015383773905    -0.002326134894    0.049561241549    0.044975294278
            0.064615753240    0.011466986675    -0.015383773905    -0.002326134894    0.079716132312    -0.010102714218    0.449920787331    -0.856421104414
            -0.015426977340    -0.002318609890    0.049561241549    0.044975294278    0.449920787331    -0.856421104414    0.057351317705    0.032425050872
0.250     0.081025549979    -0.023074073734    0.340975178822    -0.903473221885    0.069097655745    0.000941740834    -0.016725290462    -0.000527410462
            0.340975178822    -0.903473221885    0.060899240489    0.030224796714    -0.016672155840    -0.000550412778    0.055739599113    0.043581794091
            0.069097655745    0.000941740834    -0.016672155840    -0.000550412778    0.081283841033    -0.023409683942    0.344129150930    -0.902331964475
            -0.016725290462    -0.000527410462    0.055739599113    0.043581794091    0.344129150930    -0.902331964475    0.060542113706    0.031033138736
0.275     0.079181100697    -0.037179471063    0.230341969498    -0.936160729358    0.070849644058    -0.010956583061    -0.017766854438    0.001438937881
            0.230341969498    -0.936160729358    0.063057657616    0.028498851952    -0.017707373811    0.001394931486    0.061069911399    0.041364219484
            0.070849644058    -0.010956583061    -0.017707373811    0.001394931486    0.079531981317    -0.037611647234    0.233928142034    -0.935314705719
            -0.017766854438    0.001438937881    0.061069911399    0.041364219484    0.233928142034    -0.935314705719    0.062822922090    0.029476061973
0.300     0.073786878803    -0.051339005785    0.116847557650    -0.955452138521    0.069543334838    -0.023561382995    -0.018580189175    0.003542418104
            0.116847557650    -0.955452138521    0.064302991068    0.026936136516    -0.018520306132    0.003472398371    0.065444192910    0.038614530105
            0.069543334838    -0.023561382995    -0.018520306132    0.003472398371    0.074231786454    -0.051899678866    0.120835470810    -0.954987260554
            -0.018580189175    0.003542418104    0.065444192910    0.038614530105    0.120835470810    -0.954987260554    0.064236294351    0.028059377998
0.325     0.064807084021    -0.064693632556    0.002060999918    -0.961122680232    0.065004826809    -0.036133907150    -0.019194420766    0.005775166113
            0.002060999918    -0.961122680232    0.064765905645    0.025823717804    -0.019142204227    0.005675510826    0.068833666929    0.035632137143
            0.065004826809    -0.036133907150    -0.019142204227    0.005675510826    0.065339187777    -0.065418424064    0.006406690432    -0.961122347242
            -0.019194420766    0.005775166113    0.068833666929    0.035632137143    0.006406690432    -0.961122347242    0.064907218044    0.027057812176
0.350     0.052414215176    -0.076386927105    -0.112433336268    -0.953117470579    0.057236488415    -0.047904936185    -0.019626989588    0.008156430338
            -0.112433336268    -0.953117470579    0.064655588979    0.025410294284    -0.019592360483    0.008026497901    0.071295537411    0.032712502638
            0.057236488415    -0.047904936185    -0.019592360483    0.008026497901    0.053016748187    -0.077312365652    -0.107784098404    -0.953659433369
            -0.019626989588    0.008156430338    0.071295537411    0.032712502638    -0.107784098404    -0.953659433369    0.065035946980    0.026708909017
0.375     0.036975229354    -0.085603454503    -0.225035106218    -0.931543689204    0.046417571178    -0.058104964038    -0.019869052777    0.010724081635
            -0.225035106218    -0.931543689204    0.064244964960    0.025872635761    -0.019862668712    0.010566122511    0.072960772810    0.030116081447
            0.046417571178    -0.058104964038    -0.019862668712    0.010566122511    0.037621037056    -0.086765164253    -0.220150996893    -0.932701667180
            -0.019869052777    0.010724081635    0.072960772810    0.030116081447    -0.220150996893    -0.932701667180    0.064883183250    0.027181016511
0.400     0.019049924937    -0.091622017732    -0.334144455680    -0.896695848898    0.032908246004    -0.066015834162    -0.019878867913    0.013521790037
            -0.334144455680    -0.896695848898    0.063855054187    0.027312092524    -0.019911335907    0.013342067793    0.074032955030    0.028059243334
            0.032908246004    -0.066015834162    -0.019911335907    0.013342067793    0.019701018541    -0.093051604362    -0.329109204115    -0.898534700008
            -0.019878867913    0.013521790037    0.074032955030    0.028059243334    -0.329109204115    -0.898534700008    0.064756059608    0.028570338395
0.425     -0.000635901914    -0.093851590713    -0.438183142780    -0.849057364748    0.017235864366    -0.071001271657    -0.019577741041    0.016581683981
            -0.438183142780    -0.849057364748    0.063829461905    0.029732048409    -0.019658183786    0.016389570271    0.074765081288    0.026686044444
            0.017235864366    -0.071001271657    -0.019658183786    0.016389570271    -0.000028031984    -0.095573598889    -0.433094847069    -0.851629910183
            -0.019577741041    0.016581683981    0.074765081288    0.026686044444    -0.433094847069    -0.851629910183    0.064982763876    0.030878955732
0.450     -0.021221074720    -0.091879284564    -0.535624508152    -0.789304749417    0.000074934220    -0.072559413307    -0.018855915206    0.019908220413
            -0.535624508152    -0.789304749417    0.064514561245    0.033041866874    -0.018990793496    0.019716604516    0.075448488993    0.026065409735
            0.000074934219    -0.072559412307    -0.018990793496    0.019716604516    -0.020713374765    -0.093907738397    -0.530589657259    -0.792651503948
            -0.018855915206    0.019908220413    0.075448488993    0.026065409735    -0.530589657259    -0.792651503948    0.065893578377    0.034018908723
0.475     -0.041749822728    -0.085494249092    -0.625008284705    -0.718318269586    -0.017782935647    -0.070346603415    -0.017582634897    0.023462001204
            -0.625008284705    -0.718318269586    0.066226382537    0.037048740793    -0.017774482081    0.023286351118    0.076381080135    0.026172926411
            -0.017782935647    -0.070346603415    -0.017774482081    0.023286351118    -0.041405740257    -0.087830712890    -0.620146278297    -0.722466384406
            -0.017582634897    0.023462001204    0.076381080135    0.026172926411    -0.620146278297    -0.722466384406    0.067789447852    0.037804619250
0.500     -0.061226487684    -0.074718065420    -0.704992127466    -0.637177586713    -0.035475795893    -0.064217556054    -0.015624442638    0.027152072492
            -0.704992127466    -0.637177586713    0.069230845450    0.041473900504    -0.015871179612    0.027008703155    0.077851676714    0.026899288714
            -0.035475795893    -0.064217556054    -0.015871179612    0.027008703155    -0.061112863572    -0.077348745031    -0.700429954162    -0.642130151369
            -0.015624442638    0.027152072492    0.077851676714    0.026899288714    -0.700429954162    -0.642130151369    0.070923543671    0.041968236713
0.525     -0.078668730344    -0.059805990301    -0.774373156949    -0.547147200970    -0.052113803010    -0.054230186661    -0.012865079182    0.030829946211
            -0.774373156949    -0.547147200970    0.073712390439    0.045960707510    -0.013159876592    0.030734836007    0.080104382105    0.028046847579
            -0.052113803010    -0.054230186661    -0.013159876592    0.030734836007    -0.078851666068    -0.062701002331    -0.770241468135    -0.552891239472
            -0.012865079182    0.030829946211    0.080104382105    0.028046847579    -0.770241468135    -0.552891239472    0.075470350063    0.046167697409
0.550     -0.093173252958    -0.041244585901    -0.832136986259    -0.449651785525    -0.066842671050    -0.040657728849    -0.009228938440    0.034297938058
            -0.832136986259    -0.449651785525    0.079762472182    0.050103316999    -0.009559560746    0.034265165668    0.083326642420    0.029352391244
            -0.066842671050    -0.040657728849    -0.009559560746    0.034265165668    -0.093713953544    -0.044357429270    -0.828566397129    -0.456149099472
            -0.009228938440    0.034297938058    0.083326642420    0.029352391244    -0.828566397129    -0.456149099472    0.081515365450    0.050013867864
0.575     -0.103965455848    -0.019724566073    -0.877472253285    -0.346255292642    -0.078885959443    -0.023967687781    -0.004699321851    0.037320413323
            -0.877472253285    -0.346255292642    0.087357422349    0.053468641591    -0.005049635187    0.037360390789    0.087619074364    0.030497977577
            -0.078885959443    -0.023967687781    -0.005049635187    0.037360390789    -0.104916179992    -0.022993614494    -0.874593985420    -0.353445738300
            -0.004699321851    0.037320413323    0.087619074364    0.030497977577    -0.874593985420    -0.353445738300    0.089033664399    0.053092394324
0.600     -0.110455533144    0.003897648960    -0.909809383193    -0.238606123426    -0.087605746333    -0.004798829780    0.000668056638    0.039647300025
            -0.909809383193    -0.238606123426    0.096363449299    0.055631729727    0.000316905233    0.039765458254    0.092996685846    0.031143906184
            -0.087605746333    -0.004798829780    0.000316905233    0.039765458254    -0.111855201555    0.000547198150    -0.907743361853    -0.246408793538
            0.000668056638    0.039647300025    0.092996685846    0.031143906184    -0.907743361853    -0.246408793538    0.097895220436    0.054996544985
0.625     -0.112267526670    0.028651109314    -0.928822384645    -0.128407270940    -0.092526133533    0.016082755494    0.006738082549    0.041036688158
            -0.928822384645    -0.128407270940    0.106531761779    0.056203381273    0.006406904505    0.041232779315    0.099371217666    0.030947459015
            -0.092526133533    0.016082755494    0.006406904505    0.041232779315    -0.114138534906    0.025304259291    -0.927675368735    -0.136717358229
            0.006738082549    0.041036688158    0.099371217666    0.030947459015    -0.927675368735    -0.136717358229    0.107859731250    0.055353562653
0.650     -0.109264068103    0.053511859280    -0.934431959090    -0.017357127022    -0.093371409099    0.037831683258    0.013302609624    0.041283968481
            -0.934431959090    -0.017357127022    0.117520820060    0.054860441438    0.013011073893    0.041551954799    0.106570412679    0.029596563384
            -0.093371409099    0.037831683258    0.013011073467    0.041551955980    -0.111610134291    0.050258868478    -0.934296860637    -0.026055660228
            0.013302609624    0.041283968481    0.106570412679    0.029596563384    -0.934296860637    -0.026055660228    0.118598217459    0.053855028882
0.675     -0.101543764365    0.077460560300    -0.926792175613    0.092880609926    -0.090059891334    0.059573339315    0.020090787536    0.040243124996
            -0.926792175613    0.092880609926    0.128907004959    0.051367747328    0.019856454589    0.040571221364    0.114333319824    0.026827099364
            -0.090059891334    0.059573339315    0.019856454589    0.040571221364    -0.104348436636    0.074393102836    -0.927741913732    0.083928957021
            0.020090787536    0.040243124996    0.114333319824    0.026827099364    -0.927741913732    0.083928957021    0.129703066362    0.050276259956
0.700     -0.089430291100    0.099544355471    -0.906275929814    0.200725869530    -0.082712057785    0.080459272470    0.026792629338    0.037847156018
            -0.906275929814    0.200725869530    0.140219862362    0.045595590533    0.026629059132    0.038218850517    0.122343685592    0.022445713042
            -0.082712057785    0.080459272470    0.026629059132    0.038218850517    -0.092657397209    0.096750268284    -0.908363801225    0.191667679432
            0.026792629338    0.037847156018    0.122343685592    0.022445713042    -0.908363801225    0.191667679432    0.140722355512    0.044494008825
0.725     -0.073440510331    0.118921183026    -0.873441952113    0.304705599047    -0.071616928956    0.099702402467    0.033081491351    0.034116202977
            -0.873441952113    0.304705599047    0.150961599604    0.037527721948    0.032996956701    0.034512012941    0.130233941165    0.016339116184
            -0.071616928956    0.099702402467    0.032996956701    0.034512012941    -0.077034813128    0.116480260729    -0.876696153592    0.295695625057
            0.033081492047    0.034116203695    0.130233941165    0.016339116184    -0.876696153592    0.295695625057    0.151177438058    0.036492595742
0.750     -0.054247174872    0.134902107095    -0.829002744617    0.403480344376    -0.057217242209    0.116622177935    0.038645455235    0.029160143241
            -0.829002744617    0.403480344376    0.160643252220    0.027260180166    0.038642348595    0.029558748928    0.137623213332    0.008482372461
            -0.057217242209    0.116622177935    0.038642348595    0.029558748928    -0.058137482054    0.132881490529    -0.833433042413    0.394672126112
            0.038645455235    0.029160143241    0.137623213332    0.008482372461    -0.833433042413    0.394672126112    0.160598224627    0.026365902414
0.775     -0.032633978021    0.146970001874    -0.773798118740    0.495844905463    -0.040064530543    0.130654978457    0.043208530087    0.023170613708
            -0.773798118740    0.495844905463    0.168802876996    0.014997916922    0.043282842061    0.023551330358    0.144121766027    -0.001062164184
            -0.040064530543    0.130654978457    0.043282842061    0.023551330358    -0.036735675539    0.145421715172    -0.779391845189    0.487394555199
            0.043208530087    0.023170613708    0.144121766027    -0.001062164184    -0.779391845189    0.487394555199    0.168540656183    0.014310556761
