# GHz S RI R 45
0.000     0.013686326337    0.001568896141    0.000000328799    0.000001228622    0.000570630584    0.001395504237    0.000000378609    0.000001310476
            0.000000328799    0.000001228622    0.014933049974    0.001816164879    0.000000285096    0.000001145831    0.000677199115    0.001658343328
            0.000570630351    0.001395504225    0.000000285096    0.000001145831    0.013661423372    0.001552736081    0.000000353254    0.000001259069
            0.000000378609    0.000001310476    0.000677199289    0.001658343257    0.000000353254    0.000001259069    0.014872242239    0.001828015728
0.025     0.017399101162    0.008733235187    0.000000905751    0.000002741141    0.001788554039    0.007766898440    0.000001006350    0.000002921041
            0.000000905749    0.000002741136    0.018189108654    0.010219066271    0.000000808586    0.000002562560    0.001648618104    0.009335305708
            0.001788931253    0.007766156346    0.000000808590    0.000002562564    0.017331303146    0.008651852981    0.000000945558    0.000002810752
            0.000001006351    0.000002921046    0.001648872258    0.009334731857    0.000000945556    0.000002810753    0.018120472266    0.010192809971
0.050     0.022529804120    0.014193370278    0.000002159558    0.000004894846    0.005295219481    0.014817269437    0.000002353348    0.000005197128
            0.000002159558    0.000004894846    0.022274699554    0.017188183547    0.000001969240    0.000004599497    0.004457910207    0.018112567504
            0.005295247697    0.014817266787    0.000001969240    0.000004599497    0.022422875797    0.014077940133    0.000002232033    0.000005017614
            0.000002353348    0.000005197128    0.004458005313    0.018112561603    0.000002232033    0.000005017614    0.022157972243    0.017140178379
0.075     0.029033330263    0.017977503585    0.000003836437    0.000006659998    0.010765028251    0.020603320599    0.000004140830    0.000007054686
            0.000003836437    0.000006659998    0.026960284880    0.022956141666    0.000003537109    0.000006276321    0.008818510071    0.025985364688
            0.010765022961    0.020603324492    0.000003537109    0.000006276321    0.028885390162    0.017832727171    0.000003948956    0.000006824821
            0.000004140830    0.000007054686    0.008818506311    0.025985367020    0.000003948956    0.000006824821    0.026780514848    0.022912434409
0.100     0.036771845136    0.019760125784    0.000005895149    0.000008006846    0.017798702318    0.024705410276    0.000006328277    0.000008466688
            0.000005895149    0.000008006846    0.032268281443    0.027478691413    0.000005469323    0.000007561756    0.014433058183    0.032692948219
            0.017798702472    0.024705411398    0.000005469323    0.000007561756    0.036579371784    0.019604042975    0.000006055124    0.000008205113
            0.000006328277    0.000008466688    0.014433033410    0.032692956970    0.000006055124    0.000008205113    0.032012016600    0.027468589375
0.125     0.045201195060    0.019238626833    0.000008252651    0.000008881238    0.025934760667    0.026788788796    0.000008828243    0.000009375822
            0.000008252651    0.000008881238    0.037866615504    0.030657227535    0.000007687274    0.000008404222    0.020985824126    0.038044843166
            0.025934760200    0.026788789249    0.000007687274    0.000008404222    0.044972838753    0.019090535937    0.000008466816    0.000009102847
            0.000008828243    0.000009375822    0.020985824126    0.038044843166    0.000008466816    0.000009102847    0.037533926124    0.030716867944
0.150     0.053875042097    0.016232586927    0.000010815103    0.000009254903    0.034659220009    0.026631635276    0.000011541908    0.000009754046
            0.000010815103    0.000009254903    0.043544990621    0.032550121761    0.000010102110    0.000008775527    0.028115380323    0.041925718662
            0.034659220009    0.026631635276    0.000010102110    0.000008775527    0.053611291632    0.016112207940    0.000011089017    0.000009489565
            0.000011541908    0.000009754046    0.028115380323    0.041925718662    0.000011089017    0.000009489565    0.043143620325    0.032712051125
0.175     0.062099563050    0.010690143184    0.000013491558    0.000009113478    0.043415740443    0.024130279687    0.000014372820    0.000009585572
            0.000013491558    0.000009113478    0.048936936801    0.033231844482    0.000012627920    0.000008661895    0.035471945768    0.044318889692
            0.043415740443    0.024130279687    0.000012627920    0.000008661895    0.061816836504    0.010618756510    0.000013828849    0.000009349364
            0.000014372820    0.000009585572    0.035471945768    0.044318889692    0.000013828849    0.000009349364    0.048489374409    0.033527871480
0.200     0.069241965639    0.002754825225    0.000016197768    0.000008460760    0.051644171226    0.019311055115    0.000017231333    0.000008874997
            0.000016197768    0.000008460760    0.053752285166    0.032897502034    0.000015185382    0.000008066332    0.042721564684    0.045290284593
            0.051644171226    0.019311055115    0.000015185382    0.000008066332    0.068965242912    0.002747075078    0.000016599987    0.000008685699
            0.000017231333    0.000008874997    0.042721564684    0.045290284593    0.000016599987    0.000008685699    0.053291862928    0.033352887071
0.225     0.074721653956    -0.007303576131    0.000018857878    0.000007307752    0.058800077437    0.012322057824    0.000020036291    0.000007634405
            0.000018857878    0.000007307752    0.057783144376    0.031794980936    0.000017702800    0.000006998715    0.049561241549    0.044975294278
            0.058800077437    0.012322057824    0.000017702800    0.000006998715    0.074480721818    -0.007240893999    0.000019324045    0.000007509263
            0.000020036291    0.000007634405    0.049561241549    0.044975294278    0.000019324045    0.000007509263    0.057351317705    0.032425050872
0.250     0.078039501954    -0.019084834396    0.000021405201    0.000005674019    0.064387534209    0.003429237444    0.000022716449    0.000005885613
            0.000021405201    0.000005674019    0.060899240489    0.030224796714    0.000020117200    0.000005476899    0.055739599113    0.043581794091
            0.064387534209    0.003429237444    0.000020117200    0.000005476899    0.077866458239    -0.018952466182    0.000021932072    0.000005840305
            0.000022716449    0.000005885613    0.055739599113    0.043581794091    0.000021932072    0.000005840305    0.060542113706    0.031033138736
0.275     0.078785778839    -0.032088451070    0.000023779693    0.000003580066    0.067974417878    -0.006997041024    0.000025207981    0.000003651626
            0.000023779693    0.000003580066    0.063057657616    0.028498851952    0.000022372034    0.000003519864    0.061069911399    0.041364219484
            0.067974417878    -0.006997041024    0.000022372034    0.000003519864    0.078713818105    -0.031895388959    0.000024361873    0.000003700208
            0.000025207981    0.000003651626    0.061069911399    0.041364219484    0.000024361873    0.000003700208    0.062822922090    0.029476061973
0.300     0.076676517404    -0.045727470518    0.000025927339    0.000001048282    0.069221245996    -0.018499750453    0.000027453198    0.000000957878
            0.000025927339    0.000001048282    0.064302991068    0.026936136516    0.000024415955    0.000001148203    0.065444192910    0.038614530105
            0.069221245996    -0.018499750453    0.000024415955    0.000001148203    0.076738201015    -0.045491979899    0.000026557420    0.000001113020
            0.000027453198    0.000000957878    0.065444192910    0.038614530105    0.000026557420    0.000001113020    0.064236294351    0.028059377998
0.325     0.071554668674    -0.059359740673    0.000027794269    -0.000001900687    0.067889379597    -0.030553052980    0.000029395639    -0.000002171673
            0.000027794269    -0.000001900687    0.064765905645    0.025823717804    0.000026198304    -0.000001619046    0.068833666929    0.035632137143
            0.067889379597    -0.030553052980    0.000026198304    -0.000001619046    0.071778923273    -0.059109079924    0.000028463494    -0.000001898653
            0.000029395639    -0.000002171673    0.068833666929    0.035632137143    0.000028463494    -0.000001898653    0.064907218044    0.027057812176
0.350     0.063413124433    -0.072318222634    0.000029326160    -0.000005245018    0.063860116944    -0.042589250788    0.000030978767    -0.000005711770
            0.000029326160    -0.000005245018    0.064655588979    0.025410294284    0.000027667376    -0.000004761817    0.071295537411    0.032712502638
            0.063860116944    -0.042589250788    0.000027667376    -0.000004761817    0.063823595644    -0.072088015948    0.000030024907    -0.000005310615
            0.000030978767    -0.000005711770    0.071295537411    0.032712502638    0.000030024907    -0.000005310615    0.065035946980    0.026708909017
0.375     0.052386088817    -0.083938698170    0.000030462869    -0.000008960738    0.057135820158    -0.054018102724    0.000032140642    -0.000009634903
            0.000030462869    -0.000008960738    0.064244964960    0.025872635761    0.000028766181    -0.000008257981    0.072960772810    0.030116081447
            0.057135820158    -0.054018102724    0.000028766181    -0.000008257981    0.052998306760    -0.083771958885    0.000031181503    -0.000009096495
            0.000032140642    -0.000009634903    0.072960772810    0.030116081447    0.000031181503    -0.000009096495    0.064883183250    0.027181016511
0.400     0.038754295552    -0.093597151121    0.000031138922    -0.000013016631    0.047847528624    -0.064261122811    0.000032814881    -0.000013906350
            0.000031138922    -0.000013016631    0.063855054187    0.027312092524    0.000029432710    -0.000012078599    0.074032955030    0.028059243334
            0.047847528624    -0.064261122811    0.000029432710    -0.000012078599    0.039574087692    -0.093541939441    0.000031868726    -0.000013222875
            0.000032814881    -0.000013906350    0.074032955030    0.028059243334    0.000031868726    -0.000013222875    0.064756059608    0.028570338395
0.425     0.022929029604    -0.100732814884    0.000031282434    -0.000017370344    0.036247493358    -0.072768681096    0.000032928918    -0.000018480547
            0.000031282434    -0.000017370344    0.063829461905    0.029732048409    0.000029598535    -0.000016184157    0.074765081288    0.026686044444
            0.036247493358    -0.072768681096    0.000029598535    -0.000016184157    0.023950739183    -0.100840383064    0.000032016219    -0.000017645718
            0.000032928918    -0.000018480547    0.074765081288    0.026686044444    0.000032016219    -0.000017645718    0.064982763876    0.030878955732
0.450     0.005438584113    -0.104882838763    0.000030818953    -0.000021963153    0.022703450140    -0.079055568968    0.000032407699    -0.000023295290
            0.000030818953    -0.000021963153    0.064514561245    0.033041866874    0.000029192742    -0.000020519624    0.075448488993    0.026065409735
            0.022703450140    -0.079055568968    0.000029192742    -0.000020519624    0.006644678950    -0.105204140352    0.000031551431    -0.000022305252
            0.000032407699    -0.000023295290    0.075448488993    0.026065409735    0.000031551431    -0.000022305252    0.065893578377    0.034018908723
0.475     -0.013094476246    -0.105699107388    0.000029674823    -0.000026715986    0.007683171907    -0.082714967760    0.000031177686    -0.000028268499
            0.000029674823    -0.000026715986    0.066226382537    0.037048740793    0.000028145286    -0.000025010534    0.076381080135    0.026172926411
            0.007683171907    -0.082714967760    0.000028145286    -0.000025010534    -0.011733603612    -0.106282757397    0.000030403049    -0.000027122431
            0.000031177686    -0.000028268499    0.076381080135    0.026172926411    0.000030403049    -0.000027122431    0.067789447852    0.037804619250
0.500     -0.031980618326    -0.102973416905    0.000027785171    -0.000031527190    -0.008265515604    -0.083449500205    0.000029173954    -0.000033295563
            0.000027785171    -0.000031527190    0.069230845450    0.041473900504    0.000026394027    -0.000029561102    0.077851676714    0.026899288714
            -0.008265515604    -0.083449500205    0.000026394027    -0.000029561102    -0.030506586714    -0.103862137241    0.000028508415    -0.000031996607
            0.000029173954    -0.000033295563    0.077851676714    0.026899288714    0.000028508415    -0.000031996607    0.070923543671    0.041968236713
0.525     -0.050492639725    -0.096644347391    0.000025100842    -0.000036272524    -0.024535699573    -0.081076591612    0.000026347592    -0.000038249236
            0.000025100842    -0.000036272524    0.073712390439    0.045960707510    0.000023892108    -0.000034054013    0.080104382105    0.028046847579
            -0.024535699573    -0.081076591612    0.000023892108    -0.000034054013    -0.048957048176    -0.097872674012    0.000025819768    -0.000036805680
            0.000026347592    -0.000038249236    0.080104382105    0.028046847579    0.000025819768    -0.000036805680    0.075470350063    0.046167697409
0.550     -0.067901935992    -0.086807693190    0.000021596967    -0.000040808966    -0.040493772669    -0.075549629922    0.000022673846    -0.000042983563
            0.000021596967    -0.000040808966    0.079762472182    0.050103316999    0.000020615115    -0.000038353943    0.083326642420    0.029352391244
            -0.040493772669    -0.075549629922    0.000020615115    -0.000038353943    -0.066365014182    -0.088398961199    0.000022312922    -0.000041409097
            0.000022673846    -0.000042983563    0.083326642420    0.029352391244    0.000022312922    -0.000041409097    0.081515365450    0.050013867864
0.575     -0.083508087621    -0.073710788877    0.000017279707    -0.000044979886    -0.055501873990    -0.066952297155    0.000018159399    -0.000047338916
            0.000017279707    -0.000044979886    0.087357422349    0.053468641591    0.000016568468    -0.000042312934    0.087619074364    0.030497977577
            -0.055501873990    -0.066952297155    0.000016568468    -0.000042312934    -0.082036162300    -0.075675637678    0.000017993611    -0.000045653841
            0.000018159399    -0.000047338916    0.087619074364    0.030497977577    0.000017993611    -0.000045653841    0.089033664399    0.053092394324
0.600     -0.096677483391    -0.057744631978    0.000012191204    -0.000048624870    -0.068956048957    -0.055503818253    0.000012846960    -0.000051151489
            0.000012191204    -0.000048624870    0.096363449299    0.055631729727    0.000011791481    -0.000045778854    0.092996685846    0.031143906184
            -0.068956048957    -0.055503818253    0.000011791481    -0.000045778854    -0.095339215894    -0.060079727760    0.000012901923    -0.000049382067
            0.000012846960    -0.000051151489    0.092996685846    0.031143906184    0.000012901923    -0.000049382067    0.097895220436    0.054996544985
0.625     -0.106867141511    -0.039426238774    0.000006411771    -0.000051588941    -0.080304731052    -0.041542515906    0.000006817759    -0.000054263186
            0.000006411771    -0.000051588941    0.106531761779    0.056203381273    0.000006359796    -0.000048605335    0.099371217666    0.030947459015
            -0.080304731052    -0.041542515906    0.000006359796    -0.000048605335    -0.105731526187    -0.042112904634    0.000007114798    -0.000052441764
            0.000006817759    -0.000054263186    0.099371217666    0.030947459015    0.000007114798    -0.000052441764    0.107859731250    0.055353562653
0.650     -0.113655685592    -0.019373709114    0.000000057764    -0.000053734714    -0.089084087465    -0.025514569786    0.000000189239    -0.000056532464
            0.000000057764    -0.000053734714    0.117520820060    0.054860441438    0.000000382825    -0.000050661882    0.106570412679    0.029596563384
            -0.089084087465    -0.025514569786    0.000000382825    -0.000050661882    -0.112787481820    -0.022379250049    0.000000744262    -0.000054696569
            0.000000189239    -0.000056532464    0.106570412679    0.029596563384    0.000000744262    -0.000054696569    0.118598217459    0.053855028882
0.675     -0.116756704432    0.001720487049    -0.000006723169    -0.000054950681    -0.094927045779    -0.007949790602    -0.000006888893    -0.000057844479
            -0.000006723169    -0.000054950681    0.128907004959    0.051367747328    -0.000005999866    -0.000051843138    0.114333319824    0.026827099364
            -0.094927045779    -0.007949790602    -0.000005999866    -0.000051843138    -0.116213850196    -0.001557757553    -0.000006067108    -0.000056035268
            -0.000006888893    -0.000057844479    0.114333319824    0.026827099364    -0.000006067108    -0.000056035268    0.129703066362    0.050276259956
0.700     -0.116034578988    0.023124085381    -0.000013760400    -0.000055160257    -0.097589963358    0.010562991954    -0.000014243513    -0.000058118753
            -0.000013760400    -0.000055160257    0.140219862362    0.045595590533    -0.000012627255    -0.000052076331    0.122343685592    0.022445713042
            -0.097589963358    0.010562991954    -0.000012627255    -0.000052076331    -0.115865352673    0.019631355742    -0.000013154096    -0.000056379689
            -0.000014243513    -0.000058118753    0.122343685592    0.022445713042    -0.000013154096    -0.000056379689    0.140722355512    0.044494008825
0.725     -0.111504791623    0.044095583169    -0.000020869768    -0.000054326365    -0.096947382004    0.029400998812    -0.000021687627    -0.000057314546
            -0.000020869768    -0.000054326365    0.150961599604    0.037527721948    -0.000019325203    -0.000051326512    0.130233941165    0.016339116184
            -0.096947382004    0.029400998812    -0.000019325203    -0.000051326512    -0.111745237893    0.040455954145    -0.000020337754    -0.000055689339
            -0.000021687627    -0.000057314546    0.130233941165    0.016339116184    -0.000020337754    -0.000055689339    0.151177438058    0.036492595742
0.750     -0.103331979389    0.063920277019    -0.000027865203    -0.000052452576    -0.093006181877    0.047939190046    -0.000029030974    -0.000055432103
            -0.000027865203    -0.000052452576    0.160643252220    0.027260180166    -0.000025918148    -0.000049596893    0.137623213332    0.008482372461
            -0.093006181877    0.047939190046    -0.000025918148    -0.000049596893    -0.104004386468    0.060207557465    -0.000027436214    -0.000053963084
            -0.000029030974    -0.000055432103    0.137623213332    0.008482372461    -0.000027436214    -0.000053963084    0.160598224627    0.026365902414
0.775     -0.091817409479    0.081935690395    -0.000034568087    -0.000049582448    -0.085889203338    0.065569587498    -0.000036090673    -0.000052512137
            -0.000034568087    -0.000049582448    0.168802876996    0.014997916922    -0.000032237367    -0.000046928818    0.144121766027    -0.001062164184
            -0.085889203338    0.065569587498    -0.000032237367    -0.000046928818    -0.092929227367    0.078227705465    -0.000034274221    -0.000051238138
            -0.000036090673    -0.000052512137    0.144121766027    -0.001062164184    -0.000034274221    -0.000051238138    0.168540656183    0.014310556761
