# GHz S RI R 45
0.000     0.090135624000    0.000000000000    -0.000032312824    0.000000000000    0.003393869800    -0.000000000000    -0.000012527515    -0.000000000000
            -0.000038915575    -0.000000000000    0.081880790000    -0.000000000000    -0.000017314180    0.000000000000    0.005856220000    -0.000000000000
            0.004457376200    0.000000000000    0.000011192739    -0.000000000000    0.086681396000    -0.000000000000    -0.000003717740    -0.000000000000
            0.000001800597    -0.000000000000    0.006698217100    0.000000000000    0.000002970935    -0.000000000000    0.084172200000    -0.000000000000
0.025     0.157949859684    -0.012926198754    0.000002409905    0.000028950506    0.095503142755    0.029000732703    0.000009961971    0.000015659912
            0.000000927019    0.000035396169    0.157382410625    -0.011760173577    0.000001920943    0.000019058701    0.095013645038    0.029445057934
            0.096236817184    0.028321580798    0.000011413001    -0.000013132907    0.157737439320    -0.012541082722    0.000009311821    0.000006389365
            0.000015961401    -0.000003102898    0.095606664909    0.028899620354    0.000012154439    -0.000000033012    0.157545520503    -0.011413650525
0.050     0.059496008518    -0.074960243173    0.000038071277    0.000002021797    0.032163610835    -0.029780326833    0.000034827285    -0.000019932414
            0.000044291980    0.000004605944    0.061177692300    -0.076639236070    0.000030689421    -0.000005863024    0.033543915270    -0.030957149092
            0.032122164583    -0.030850594644    -0.000003367804    -0.000015874596    0.059559202422    -0.075639321032    0.000021040376    -0.000019250050
            0.000012569029    -0.000023304818    0.033504909003    -0.031833974554    0.000015752678    -0.000024558875    0.061296880788    -0.077354435497
0.075     0.101872728982    0.055585011399    -0.000001162828    -0.000044467051    0.093685884005    0.094229361354    -0.000032045187    -0.000042904774
            0.000001683289    -0.000049159223    0.097569743420    0.055043696533    -0.000014108480    -0.000030363474    0.089826608259    0.093898178258
            0.093013725194    0.093592173035    -0.000024852786    -0.000007282618    0.100634655342    0.055088303843    -0.000029628541    -0.000026062843
            -0.000034122355    -0.000027817071    0.089274782956    0.093397109475    -0.000036646490    -0.000022373836    0.096619322213    0.054752490340
0.100     0.192253593014    -0.083629921008    -0.000043557252    -0.000016111937    0.198317058050    -0.067092546174    -0.000048874254    0.000006619577
            -0.000045893197    -0.000020285704    0.194326399608    -0.079383435116    -0.000027410766    -0.000005939544    0.200063791353    -0.062353690979
            0.197389686639    -0.067321703990    -0.000015348151    0.000017085254    0.191245909005    -0.083108627713    -0.000032052598    0.000009174524
            -0.000039917044    0.000018787449    0.199330219787    -0.062554037101    -0.000030679448    0.000016780615    0.193368091175    -0.078993004292
0.125     0.032295234790    -0.102565365460    -0.000040752365    0.000061693416    0.017357911694    -0.100004236620    -0.000029446967    0.000088535345
            -0.000046602483    0.000063162720    0.034958747144    -0.108146248096    -0.000032463485    0.000053855429    0.020882226351    -0.104457655166
            0.016251187197    -0.099335346844    0.000003977843    0.000039644472    0.032637023693    -0.102065813025    -0.000016648937    0.000067043913
            -0.000005354186    0.000074275410    0.019940895768    -0.103934616984    -0.000009038454    0.000068536814    0.035156935308    -0.106849605186
0.150     0.132574645878    -0.004097120680    0.000064277760    0.000034669955    0.115550390329    0.014281423279    0.000109686050    0.000022664870
            0.000065522402    0.000039710907    0.127415261447    -0.000341838362    0.000069311973    0.000018165812    0.111196245518    0.017661096843
            0.115626876425    0.015472483784    0.000048849496    -0.000013935835    0.132460035790    -0.005345444048    0.000083510491    0.000004791827
            0.000086526009    0.000000638249    0.111263720987    0.018683374565    0.000087345156    -0.000002739052    0.128456135339    -0.001151907746
0.175     0.129310412857    -0.177706807731    0.000058722944    -0.000026126078    0.119281210751    -0.169996705290    0.000052861498    -0.000069891821
            0.000062315126    -0.000024976352    0.138040996003    -0.175007479370    0.000030756780    -0.000034778503    0.128121653600    -0.166673289223
            0.119899679298    -0.169426701875    0.000007813878    -0.000025828026    0.127626993951    -0.177548665222    0.000029025351    -0.000049332496
            0.000036724134    -0.000052928946    0.128650406540    -0.166236088642    0.000022971128    -0.000054113624    0.136491110847    -0.175070548070
0.200     -0.038909832355    -0.132033751399    -0.000005190356    -0.000110549722    -0.067830402630    -0.125468023864    -0.000043548265    -0.000124825557
            -0.000001479475    -0.000113812234    -0.036805583245    -0.142184867753    -0.000012527882    -0.000079266357    -0.063994110457    -0.135702951553
            -0.067092880544    -0.125133933939    -0.000020026258    -0.000055161273    -0.038030405504    -0.130987097897    -0.000030511020    -0.000089618765
            -0.000038625465    -0.000105567598    -0.063451092855    -0.135409526040    -0.000035858959    -0.000086489880    -0.035298420954    -0.139695856471
0.225     0.038446819983    -0.068242425491    -0.000118766941    0.000011672261    0.016000151048    -0.046509882069    -0.000155736911    0.000048752517
            -0.000122484636    0.000007210362    0.037894927578    -0.065974008601    -0.000099499105    0.000024530564    0.015734581294    -0.045516453963
            0.016673533554    -0.046827445457    -0.000066174596    0.000038561678    0.038051693053    -0.069136248926    -0.000114118403    0.000042447713
            -0.000126117450    0.000049715018    0.016340792784    -0.045749604085    -0.000114607139    0.000048612580    0.039633043316    -0.067279748312
0.250     0.017302169168    -0.155747799891    -0.000028242347    0.000096738781    -0.002755427152    -0.100576412749    0.000004160489    0.000147617542
            -0.000032537688    0.000099230036    0.026616830490    -0.161472396637    0.000001974958    0.000086932324    0.004084886296    -0.106537396842
            -0.002414784615    -0.101853308615    0.000013143686    0.000053267910    0.014029677603    -0.156058765307    0.000010608211    0.000104714263
            0.000003689483    0.000113686738    0.004445680391    -0.107667506177    0.000017304489    0.000107483519    0.023463909417    -0.162541499283
0.275     -0.067505514435    -0.067513927260    0.000106527984    0.000091262243    -0.048472452693    -0.022590120312    0.000165815574    0.000072692381
            0.000107336277    0.000096116742    -0.071681219910    -0.077251447775    0.000096924117    0.000047346228    -0.053684955139    -0.030284554025
            -0.049198448248    -0.023500035770    0.000072017530    0.000034831884    -0.067253485869    -0.065967823752    0.000120930607    0.000049641232
            0.000135802415    0.000071281883    -0.054329538387    -0.031084177551    0.000125328426    0.000044385294    -0.069707065192    -0.074821628173
0.300     0.006898477110    -0.036935579121    0.000113793824    -0.000107917811    0.010572706587    -0.020700274513    0.000115058366    -0.000171059828
            0.000118955232    -0.000107767639    0.007403777428    -0.037242119341    0.000069798454    -0.000103384419    0.011346825608    -0.020559886084
            0.009694858973    -0.020858494184    0.000050116960    -0.000086742900    0.006560955568    -0.039197747492    0.000080448282    -0.000128597701
            0.000105394185    -0.000146805789    0.010637038577    -0.020691091471    0.000077634688    -0.000134716148    0.009135849084    -0.041503221761
0.325     -0.014729383780    -0.067957715088    -0.000063494324    -0.000140022411    -0.010464295964    -0.018988596209    -0.000127895375    -0.000163627907
            -0.000062520178    -0.000144556035    -0.014900473958    -0.076503441778    -0.000077670490    -0.000097403869    -0.013132428874    -0.026503929302
            -0.011322341147    -0.018724557492    -0.000063475474    -0.000071487035    -0.017972698199    -0.066948671358    -0.000097547352    -0.000118219505
            -0.000104345285    -0.000145217927    -0.013869639416    -0.026374515219    -0.000105102762    -0.000117653823    -0.018332227206    -0.076113443014
0.350     0.000519318230    -0.041521855543    -0.000174924651    0.000030202409    0.049825144020    -0.022668451367    -0.000216073909    0.000090009530
            -0.000178711010    0.000028058038    -0.003571305220    -0.040781036254    -0.000129308556    0.000061061401    0.046012072087    -0.017053818722
            0.049232866558    -0.021749046383    -0.000103893867    0.000049499221    0.001827614597    -0.039528395230    -0.000159812517    0.000074281519
            -0.000193810382    0.000068868273    0.045391462832    -0.016292587481    -0.000161101025    0.000081956691    0.000135821787    -0.039218965814
0.375     -0.007542219499    -0.097442934699    -0.000005930740    0.000162235433    -0.003590264378    -0.115816384940    0.000035787167    0.000217066198
            -0.000008967009    0.000165566253    0.000401311543    -0.100540169075    0.000032137114    0.000123508351    0.008100258044    -0.118435348973
            -0.003269808512    -0.114656394743    0.000030258230    0.000099946935    -0.007645674585    -0.098988050389    0.000035907013    0.000158147234
            0.000023708789    0.000193412932    0.008294685062    -0.117372523434    0.000042142357    0.000161673874    0.000805477096    -0.104761483520
0.400     -0.068098755221    -0.055071978223    0.000142209958    0.000084482202    -0.077481087684    -0.031697860502    0.000214993424    0.000067818397
            0.000145037819    0.000087800017    -0.069408474531    -0.065941693973    0.000124506303    0.000036014499    -0.079398420736    -0.043569237223
            -0.076361984334    -0.031134891427    0.000097033340    0.000027231279    -0.068936687701    -0.053304431656    0.000160098675    0.000045946390
            0.000185199308    0.000068039360    -0.078458144625    -0.042966166718    0.000166232658    0.000041299042    -0.069910902013    -0.064072561316
0.425     -0.023556452372    -0.060642892476    0.000128797923    -0.000145450608    -0.002302978531    -0.057756149557    0.000126977299    -0.000231853257
            0.000131679566    -0.000147449910    -0.020815040116    -0.061420825661    0.000063150780    -0.000148441349    0.002377015069    -0.056357963480
            -0.001642844218    -0.058078523404    0.000053450809    -0.000115164263    -0.023303399404    -0.060667866832    0.000084369530    -0.000180872190
            0.000122548013    -0.000194333851    0.003004494992    -0.056581905920    0.000080455944    -0.000188300010    -0.018064311507    -0.063994309586
0.450     -0.105816603049    -0.140331576162    -0.000095636467    -0.000126162700    -0.108814257080    -0.114405925859    -0.000173632762    -0.000136366609
            -0.000096290061    -0.000128595206    -0.089883009331    -0.154456236380    -0.000110198089    -0.000053663181    -0.094629975172    -0.130054568859
            -0.108533063821    -0.115222682228    -0.000083800124    -0.000047906700    -0.108869378001    -0.141618765121    -0.000132354280    -0.000083768578
            -0.000139401079    -0.000131845281    -0.094305515777    -0.130763883471    -0.000138620336    -0.000081549109    -0.093919045214    -0.158672574365
0.475     -0.177416234260    0.019425631299    -0.000164585563    -0.000013424833    -0.152657463569    0.048943303862    -0.000203435269    0.000040837356
            -0.000166995299    -0.000014276148    -0.183615213758    -0.005869721604    -0.000101953298    0.000018583444    -0.161709512736    0.026784755056
            -0.152609022287    0.048189837829    -0.000090050125    0.000007194707    -0.176540919194    0.021927788634    -0.000143927035    0.000024983465
            -0.000190522481    0.000018781883    -0.161570029143    0.026153760088    -0.000145020017    0.000029807876    -0.181787500243    -0.003557691538
0.500     -0.026677609948    0.036628564817    -0.000070077379    0.000235755513    -0.016053706677    0.055697550902    -0.000030777831    0.000311181181
            -0.000071900646    0.000238848331    -0.035204354117    0.034997726105    -0.000015882796    0.000190498082    -0.024840768912    0.054179976945
            -0.016679555922    0.054640981464    -0.000018203270    0.000160505311    -0.025964156794    0.032299881817    -0.000019893516    0.000241302987
            -0.000043624417    0.000280714275    -0.025198413196    0.053117468987    -0.000016206871    0.000246296201    -0.032517541862    0.026172407905
0.525     -0.139799823934    -0.050591155242    0.000184163506    0.000068071382    -0.096942301324    -0.000535257726    0.000271380947    0.000033189676
            0.000187228089    0.000069174650    -0.130320060350    -0.070518859932    0.000159626845    -0.000008090843    -0.095360852689    -0.016259888206
            -0.098405613811    -0.000461719441    0.000119289769    0.000001675838    -0.145174022876    -0.048419836727    0.000202161918    0.000006838885
            0.000228977745    0.000049375311    -0.096740738286    -0.016474842756    0.000208302794    0.000003069622    -0.138497718284    -0.071204348185
0.550     -0.149935281752    0.143907447359    0.000172759188    -0.000080658398    -0.076503075088    0.122790501433    0.000162842442    -0.000159485380
            0.000173722553    -0.000082302216    -0.173234722522    0.117916810893    0.000078873349    -0.000081270601    -0.096292522613    0.108977330473
            -0.077069066466    0.123859417974    0.000090983412    -0.000047437125    -0.145867728143    0.147532724202    0.000114824505    -0.000109677869
            0.000178420020    -0.000118369077    -0.097007855653    0.109906603471    0.000113257525    -0.000114870717    -0.168583729094    0.120780321902
0.575     0.031908444809    0.097301934441    -0.000059801274    -0.000294495629    0.032470052627    0.068136483540    -0.000133808449    -0.000321837705
            -0.000060269058    -0.000296471573    0.015356290545    0.106746123285    -0.000080493064    -0.000190956978    0.022301325382    0.075498908674
            0.032603499002    0.068920531675    -0.000055610631    -0.000192421229    0.031738160905    0.093033728354    -0.000100174951    -0.000246630394
            -0.000098900287    -0.000326901017    0.022332480738    0.076220950808    -0.000104752515    -0.000248902414    0.014754475089    0.097331561594
0.600     -0.066724950139    0.014575501086    -0.000279319383    0.000049618066    -0.035406387173    0.029227875914    -0.000334440765    0.000118891786
            -0.000282291844    0.000050338381    -0.061448939568    0.001782349803    -0.000191352492    0.000090238876    -0.034982880203    0.020856390171
            -0.035074623341    0.029969498209    -0.000175532791    0.000065607512    -0.068640009915    0.019026902959    -0.000251381047    0.000097995273
            -0.000322432783    0.000085982695    -0.034884411910    0.021565108657    -0.000256861297    0.000102915393    -0.067338921833    0.004977438942
0.625     -0.029683781069    0.108034689531    -0.000088611286    0.000259811219    0.003813935470    0.062532802175    -0.000035690504    0.000333838946
            -0.000087677608    0.000262342913    -0.049661869371    0.101018268253    -0.000008074996    0.000195094229    -0.007042992598    0.062508037443
            0.004872802165    0.062987353294    -0.000038652919    0.000171505083    -0.023801985371    0.106830823766    -0.000024275117    0.000255093031
            -0.000072131555    0.000311308486    -0.006179539942    0.063215438825    -0.000020052375    0.000261569381    -0.043240042662    0.098369517479
0.650     -0.005762895427    0.019344492088    0.000297723791    0.000167178753    -0.030192747948    0.002666210946    0.000383915785    0.000136194558
            0.000299782755    0.000167033645    0.001099660607    0.023822633157    0.000242510847    0.000057261613    -0.020933408747    -0.000210193238
            -0.029093731921    0.002023466627    0.000220480190    0.000085858157    -0.008357540462    0.016632506032    0.000302042931    0.000093905978
            0.000359877630    0.000169457542    -0.019727551454    -0.000557876928    0.000309166985    0.000091733245    -0.005048223976    0.016697350788
0.675     -0.063146126449    0.075045120925    0.000197130416    -0.000214136267    -0.053221447495    0.087891552193    0.000197973123    -0.000303490680
            0.000197794088    -0.000216885271    -0.068280157124    0.053287067104    0.000088966456    -0.000189036827    -0.063213086503    0.069553145571
            -0.053018746658    0.086723096064    0.000103855333    -0.000162769713    -0.059359705832    0.076560003307    0.000141575405    -0.000235708143
            0.000216227986    -0.000274725359    -0.062765352815    0.068515350809    0.000141549250    -0.000243267710    -0.067426055512    0.056009566521
0.700     -0.003480267586    0.038824110191    -0.000133806864    -0.000317238228    0.006190428848    0.039706130394    -0.000231006993    -0.000349207860
            -0.000137327093    -0.000317309089    -0.008104404830    0.041887032446    -0.000161662994    -0.000197711477    0.002757277096    0.043563696042
            0.005514439901    0.038834946361    -0.000122296276    -0.000206134523    -0.003998682423    0.030894090184    -0.000192729172    -0.000267951982
            -0.000189893876    -0.000357552488    0.002388898472    0.042611739344    -0.000200010957    -0.000269333838    -0.008311334820    0.030382623334
0.725     -0.144107737707    0.066996156710    -0.000303859868    0.000133246466    -0.108214690474    0.085363465374    -0.000341826977    0.000221578117
            -0.000303309444    0.000135309705    -0.136084187217    0.030661681759    -0.000172688387    0.000178659807    -0.108950519315    0.054839962630
            -0.109073471378    0.085188292275    -0.000185643709    0.000140819905    -0.148340691076    0.071659849095    -0.000244960510    0.000193712566
            -0.000350570857    0.000180139712    -0.109699415149    0.054406302154    -0.000247075844    0.000198815228    -0.147314477929    0.033529815905
0.750     -0.028882317336    0.230197941765    -0.000026365565    0.000221815838    0.008013889536    0.197596237540    0.000020378777    0.000275446221
            -0.000025316805    0.000222730663    -0.072084514970    0.209370711997    0.000034837176    0.000131218593    -0.029590066716    0.188722732910
            0.007345119767    0.197617193847    0.000011999030    0.000134085075    -0.020447503784    0.228822555640    0.000018784833    0.000197641565
            -0.000007816992    0.000273575674    -0.030224528173    0.188554630714    0.000020580541    0.000201142550    -0.064865759406    0.210927645095
0.775     0.066736329805    0.071887811315    0.000267398482    0.000220324599    0.070350970198    0.060627290455    0.000362859571    0.000207070719
            0.000270151697    0.000218921698    0.062807776926    0.090892707116    0.000225663872    0.000112300811    0.068467835642    0.078056599265
            0.069384104165    0.061440456482    0.000202169499    0.000128841227    0.060296164363    0.063648848846    0.000296206432    0.000157187164
