# GHz S RI R 45
0.000     0.082929630000    0.000000000000    -0.000002068993    -0.000000000000    0.005850768900    -0.000000000000    -0.000025900691    0.000000000000
            -0.000002338203    0.000000000000    0.081880790000    -0.000000000000    -0.000019014695    0.000000000000    0.005856220000    -0.000000000000
            0.006911996100    0.000000000000    0.000030674715    -0.000000000000    0.084881066000    -0.000000000000    -0.000031230657    0.000000000000
            0.000029929087    -0.000000000000    0.006698217100    0.000000000000    -0.000028974942    0.000000000000    0.084172200000    -0.000000000000
0.025     0.157949088658    -0.012927283199    -0.000028917414    -0.000000867316    0.095503110929    0.029000865041    -0.000023405524    0.000019618442
            -0.000029224106    0.000000442881    0.157382410625    -0.011760173577    -0.000013131219    0.000016501116    0.095013645038    0.029445057934
            0.096236841606    0.028321533231    -0.000013242274    -0.000026623853    0.157737991511    -0.012540824645    -0.000009410155    0.000025017426
            -0.000020073847    -0.000027055946    0.095606664909    0.028899620354    -0.000008169282    0.000023256736    0.157545520503    -0.011413650525
0.050     0.059495202156    -0.074960232063    0.000000663868    0.000017335014    0.032163873468    -0.029780155044    0.000016983272    0.000000812525
            0.000003950134    0.000017115891    0.061177692300    -0.076639236070    0.000015654091    -0.000000017990    0.033543915270    -0.030957149092
            0.032122388764    -0.030850443510    -0.000012756438    0.000009807404    0.059560259614    -0.075638800414    0.000019823621    -0.000013668378
            -0.000009792157    0.000004915774    0.033504909003    -0.031833974554    0.000019083480    -0.000015622655    0.061296880788    -0.077354435497
0.075     0.101872736752    0.055586730015    -0.000012115922    -0.000010708180    0.093686200714    0.094229074673    -0.000036983316    -0.000017252606
            -0.000013668620    -0.000014510672    0.097569743420    0.055043696533    -0.000025645552    -0.000009978395    0.089826608259    0.093898178258
            0.093014091008    0.093591851776    0.000002085972    -0.000003937922    0.100636568569    0.055085641720    -0.000043573125    -0.000014713682
            -0.000013222242    -0.000015882658    0.089274782956    0.093397109475    -0.000045137000    -0.000014746402    0.096619322213    0.054752490340
0.100     0.192252839895    -0.083630323642    0.000000904573    0.000012578077    0.198317117123    -0.067092527584    0.000004401661    0.000036159032
            -0.000001931712    0.000014954499    0.194326399608    -0.079383435116    0.000004320994    0.000031370543    0.200063791353    -0.062353690979
            0.197389736248    -0.067321682451    -0.000002516771    -0.000014378942    0.191246452506    -0.083108907550    0.000009896106    0.000038148740
            -0.000007176103    -0.000007942001    0.199330219787    -0.062554037101    0.000009565116    0.000038068111    0.193368091175    -0.078993004292
0.125     0.032286332380    -0.102563523877    0.000016767092    -0.000047948259    0.017359144744    -0.100004296627    0.000039208144    -0.000068316124
            0.000020179270    -0.000047237856    0.034958747144    -0.108146248096    0.000035890530    -0.000044772249    0.020882226351    -0.104457655166
            0.016252420248    -0.099335408567    -0.000020316834    -0.000029815089    0.032655556273    -0.102066027250    0.000036565248    -0.000068221313
            -0.000018751874    -0.000052940003    0.019940895768    -0.103934616984    0.000034860878    -0.000068407825    0.035156935308    -0.106849605186
0.150     0.132578886114    -0.004094911718    -0.000060662580    -0.000010219963    0.115550896303    0.014280101263    -0.000092264797    -0.000024878715
            -0.000062986759    -0.000013792180    0.127415261447    -0.000341838362    -0.000068056820    -0.000016078607    0.111196245518    0.017661096843
            0.115627376789    0.015471157163    -0.000044317979    0.000026799036    0.132460318449    -0.005348359031    -0.000090289997    -0.000019822040
            -0.000074757529    0.000022659312    0.111263720987    0.018683374565    -0.000091596795    -0.000016789114    0.128456135339    -0.001151907746
0.175     0.129303605253    -0.177707185384    0.000011041726    -0.000002679670    0.119282061253    -0.169996365056    0.000008872621    0.000016337833
            0.000007825259    0.000000287367    0.138040996003    -0.175007479370    0.000005098710    0.000028807481    0.128121653600    -0.166673289223
            0.119900525085    -0.169426360593    0.000022331468    0.000002807955    0.127642279187    -0.177548724331    0.000006373654    0.000030122681
            0.000029009182    0.000003486348    0.128650406540    -0.166236088642    0.000008804452    0.000032040703    0.136491110847    -0.175070548070
0.200     -0.038911830103    -0.132020475093    -0.000046967799    -0.000092993707    -0.067828213736    -0.125471355687    -0.000033173309    -0.000107560005
            -0.000043739610    -0.000090631021    -0.036805583245    -0.142184867753    -0.000002832082    -0.000067058804    -0.063994110457    -0.135702951553
            -0.067090677015    -0.125137271226    -0.000037797993    -0.000061371865    -0.038019006969    -0.131007098233    -0.000014620959    -0.000089437903
            -0.000057076932    -0.000102782099    -0.063451092855    -0.135409526040    -0.000011926442    -0.000090734949    -0.035298420954    -0.139695856471
0.225     0.038451197039    -0.068238998604    -0.000113323126    0.000048115932    0.015999882348    -0.046512009164    -0.000139119439    0.000034769815
            -0.000113408300    0.000046021009    0.037894927578    -0.065974008601    -0.000096930795    0.000019766974    0.015734581294    -0.045516453963
            0.016673256711    -0.046829572546    -0.000072279122    0.000063564122    0.038048132345    -0.069145374356    -0.000120599647    0.000021920149
            -0.000115170312    0.000072274943    0.016340792784    -0.045749604085    -0.000121317913    0.000020586237    0.039633043316    -0.067279748312
0.250     0.017299452310    -0.155739468918    0.000017834719    0.000005950900    -0.002750842475    -0.100576938397    0.000004918134    0.000022315856
            0.000017055729    0.000007693860    0.026616830490    -0.161472396637    0.000005581160    0.000033862093    0.004084886296    -0.106537396842
            -0.002410193688    -0.101853827470    0.000048859965    0.000005530465    0.014046499474    -0.156065856751    -0.000001300335    0.000032260826
            0.000049731897    -0.000004558246    0.004445680391    -0.107667506177    0.000000097231    0.000032356203    0.023463909417    -0.162541499283
0.275     -0.067497336406    -0.067502590716    -0.000125763102    -0.000053054614    -0.048470162284    -0.022596601054    -0.000122386761    -0.000047682797
            -0.000123275658    -0.000052350825    -0.071681219910    -0.077251447775    -0.000059347329    -0.000028623404    -0.053684955139    -0.030284554025
            -0.049196155729    -0.023506523317    -0.000084366577    -0.000063678193    -0.067249517798    -0.065996112207    -0.000079248004    -0.000033029182
            -0.000141876322    -0.000090528468    -0.054329538387    -0.031084177551    -0.000078531639    -0.000036500914    -0.069707065192    -0.074821628173
0.300     0.006902074119    -0.036933550032    -0.000082934364    0.000135604135    0.010573394241    -0.020700930517    -0.000086894002    0.000125140935
            -0.000081906306    0.000133684709    0.007403777428    -0.037242119341    -0.000054432295    0.000074852544    0.011346825608    -0.020559886084
            0.009695542440    -0.020859143612    -0.000070936241    0.000100306142    0.006560883736    -0.039202407276    -0.000065186776    0.000080482966
            -0.000112362343    0.000141557228    0.010637038577    -0.020691091471    -0.000069331615    0.000078359762    0.009135849084    -0.041503221761
0.325     -0.014725081382    -0.067943994068    0.000023861885    -0.000001546942    -0.010457159157    -0.018994973755    -0.000004093592    -0.000001895569
            0.000023243681    -0.000003218231    -0.014900473958    -0.076503441778    -0.000006527680    0.000005455876    -0.013132428874    -0.026503929302
            -0.011315188204    -0.018730945276    0.000026205796    0.000000372388    -0.017951330590    -0.066976854572    -0.000024275609    -0.000001059675
            0.000017613713    -0.000001153098    -0.013869639416    -0.026374515219    -0.000027338007    0.000001884490    -0.018332227206    -0.076113443014
0.350     0.000532748308    -0.041519207195    -0.000140943933    0.000040820332    0.049822822765    -0.022676109343    -0.000148648273    0.000074081067
            -0.000142377109    0.000040389166    -0.003571305220    -0.040781036254    -0.000087713513    0.000061303295    0.046012072087    -0.017053818722
            0.049230530776    -0.021756713070    -0.000110309685    0.000017828634    0.001814399701    -0.039558659181    -0.000109473446    0.000077826367
            -0.000169570892    0.000039305888    0.045391462832    -0.016292587481    -0.000108323812    0.000080931552    0.000135821787    -0.039218965814
0.375     -0.007543327292    -0.097436072733    0.000012863163    0.000140156797    -0.003584675199    -0.115817928724    0.000034541450    0.000132695040
            0.000012644553    0.000140524280    0.000401311543    -0.100540169075    0.000036024351    0.000078309675    0.008100258044    -0.118435348973
            -0.003264216311    -0.114657924641    -0.000011933310    0.000109329257    -0.007632823797    -0.098998076860    0.000039663253    0.000083122059
            -0.000010811165    0.000164090547    0.008294685062    -0.117372523434    0.000040613491    0.000083023708    0.000805477096    -0.104761483520
0.400     -0.068083483870    -0.055056129795    -0.000013849669    -0.000022789804    -0.077477245372    -0.031712375205    -0.000053560453    -0.000036807405
            -0.000014883936    -0.000023643314    -0.069408474531    -0.065941693973    -0.000050164814    -0.000027745357    -0.079398420736    -0.043569237223
            -0.076358142274    -0.031149428147    -0.000016686490    0.000013594273    -0.068932678153    -0.053355449129    -0.000078042809    -0.000034661980
            -0.000022137154    0.000008382273    -0.078458144625    -0.042966166718    -0.000078795573    -0.000032613112    -0.069910902013    -0.064072561316
0.425     -0.023544111252    -0.060644329431    -0.000096621217    0.000130983603    -0.002306646166    -0.057760235568    -0.000108802681    0.000190023870
            -0.000098515989    0.000132766832    -0.020815040116    -0.061420825661    -0.000065838721    0.000154553790    0.002377015069    -0.056357963480
            -0.001646522329    -0.058082589921    -0.000047003501    0.000116997805    -0.023322845938    -0.060683811984    -0.000083847262    0.000190498049
            -0.000080859179    0.000161858602    0.003004494992    -0.056581905920    -0.000078917710    0.000193309704    -0.018064311507    -0.063994309586
0.450     -0.105809632902    -0.140317594589    0.000075281179    0.000079116936    -0.108804430956    -0.114416347297    0.000122568448    0.000076111467
            0.000076447823    0.000081594776    -0.089883009331    -0.154456236380    0.000100195662    0.000041391289    -0.094629975172    -0.130054568859
            -0.108523215362    -0.115233098247    0.000061699361    0.000050517704    -0.108849403350    -0.141654120530    0.000119193108    0.000049715416
            0.000095262573    0.000076867253    -0.094305515777    -0.130763883471    0.000123011165    0.000044471092    -0.093919045214    -0.158672574365
0.475     -0.177388525739    0.019430994274    -0.000069771279    0.000005647983    -0.152662911967    0.048924864969    -0.000102149800    -0.000019393579
            -0.000067927391    0.000005148216    -0.183615213758    -0.005869721604    -0.000077944807    -0.000017507007    -0.161709512736    0.026784755056
            -0.152614483526    0.048171410055    -0.000051073099    0.000026137000    -0.176568223199    0.021873228807    -0.000100900943    -0.000021659417
            -0.000079147779    0.000011888925    -0.161570029143    0.026153760088    -0.000104003146    -0.000025824707    -0.181787500243    -0.003557691538
0.500     -0.026665316553    0.036624525445    -0.000027895707    0.000233052117    -0.016054636149    0.055694419980    -0.000041865333    0.000296132887
            -0.000028170041    0.000233604568    -0.035204354117    0.034997726105    -0.000025822069    0.000222027726    -0.024840768912    0.054179976945
            -0.016680459525    0.054637862745    0.000020953174    0.000182659743    -0.025973877987    0.032291460602    -0.000030442177    0.000269506709
            -0.000003480270    0.000258479271    -0.025198413196    0.053117468987    -0.000032696821    0.000271291326    -0.032517541862    0.026172407905
0.525     -0.139774776591    -0.050583580908    0.000125314313    0.000016592410    -0.096938450428    -0.000557756304    0.000177837046    0.000013023208
            0.000127780665    0.000016227988    -0.130320060350    -0.070518859932    0.000133014390    -0.000001771793    -0.095360852689    -0.016259888206
            -0.098401768380    -0.000484269014    0.000093618951    -0.000033135607    -0.145174657125    -0.048483859047    0.000166734160    0.000004397094
            0.000140572891    -0.000019332721    -0.096740738286    -0.016474842756    0.000167579783    0.000001864045    -0.138497718284    -0.071204348185
0.550     -0.149911346505    0.143893422250    -0.000095070772    0.000069458644    -0.076517818899    0.122777637958    -0.000120937698    0.000048719063
            -0.000094549992    0.000066802128    -0.173234722522    0.117916810893    -0.000085069721    0.000028237912    -0.096292522613    0.108977330473
            -0.077083813793    0.123846589115    -0.000099177920    0.000057681246    -0.145919051833    0.147500474195    -0.000095386514    0.000023386090
            -0.000142739068    0.000073127447    -0.097007855653    0.109906603471    -0.000100719366    0.000022038924    -0.168583729094    0.120780321902
0.575     0.031921311727    0.097300545088    0.000113291585    0.000274705517    0.032474158692    0.068128598916    0.000103204504    0.000319513357
            0.000111337275    0.000273722597    0.015356290545    0.106746123285    0.000063754774    0.000217811093    0.022301325382    0.075498908674
            0.032607620846    0.068912647518    0.000094853255    0.000214898375    0.031738308218    0.093013212772    0.000073570933    0.000257353161
            0.000123089077    0.000326756102    0.022332480738    0.076220950808    0.000070035672    0.000263359385    0.014754475089    0.097331561594
0.600     -0.066691385138    0.014562730103    0.000158123525    -0.000065188120    -0.035417623466    0.029200219946    0.000187268161    -0.000050728413
            0.000157805841    -0.000065422625    -0.061448939568    0.001782349803    0.000112027806    -0.000033198834    -0.034982880203    0.020856390171
            -0.035085885902    0.029941838132    0.000092276158    -0.000070073715    -0.068680944125    0.018962513336    0.000147281616    -0.000035660735
            0.000175896466    -0.000075198198    -0.034884411910    0.021565108657    0.000152047551    -0.000031700115    -0.067338921833    0.004977438942
0.625     -0.029675792141    0.108011590671    -0.000060586612    0.000159053108    0.003799609462    0.062529092850    -0.000049128216    0.000168924341
            -0.000062190023    0.000158611513    -0.049661869371    0.101018268253    -0.000031156070    0.000128401968    -0.007042992598    0.062508037443
            0.004858486645    0.062983672953    -0.000074762716    0.000153912971    -0.023846217104    0.106827742226    -0.000030109564    0.000134666344
            -0.000083908136    0.000192127322    -0.006179539942    0.063215438825    -0.000027603881    0.000133660238    -0.043240042662    0.098369517479
0.650     -0.005741622582    0.019341882488    0.000318843353    0.000150585877    -0.030189931338    0.002643926190    0.000336994803    0.000154248107
            0.000317107670    0.000152147751    0.001099660607    0.023822633157    0.000218930625    0.000087689742    -0.020933408747    -0.000210193238
            -0.029090903132    0.002001164596    0.000248491981    0.000133166818    -0.008367480413    0.016587636561    0.000256570779    0.000106700780
            0.000367752093    0.000197314538    -0.019727551454    -0.000557876928    0.000257779247    0.000106946033    -0.005048223976    0.016697350788
0.675     -0.063121994215    0.075012614358    0.000074816910    -0.000133764058    -0.053248164211    0.087871451669    0.000078881225    -0.000110472803
            0.000075332291    -0.000131537367    -0.068280157124    0.053287067104    0.000015917812    -0.000041096963    -0.063213086503    0.069553145571
            -0.053045468996    0.086703002161    0.000047381221    -0.000075162582    -0.059428324177    0.076532584063    0.000040346742    -0.000054212219
            0.000114790051    -0.000143481200    -0.062765352815    0.068515350809    0.000043605545    -0.000054344839    -0.067426055512    0.056009566521
0.700     -0.003476447216    0.038805147498    0.000089550790    0.000197123366    0.006185233497    0.039702749088    0.000158767264    0.000218230964
            0.000091590316    0.000197384903    -0.008104404830    0.041887032446    0.000139014127    0.000174657432    0.002757277096    0.043563696042
            0.005509277635    0.038831555153    0.000097638224    0.000167213577    -0.004015119448    0.030894354245    0.000170594501    0.000194183468
            0.000124521728    0.000201531251    0.002388898472    0.042611739344    0.000173729400    0.000189049370    -0.008311334820    0.030382623334
0.725     -0.144081047952    0.066969711936    0.000288778654    -0.000129714264    -0.108230925331    0.085331203411    0.000309497150    -0.000195779258
            0.000288634812    -0.000129243985    -0.136084187217    0.030661681759    0.000177189728    -0.000158632063    -0.108950519315    0.054839962630
            -0.109089729067    0.085155999074    0.000197798588    -0.000114347484    -0.148388129464    0.071612473308    0.000236939807    -0.000189156354
            0.000321221994    -0.000162513469    -0.109699415149    0.054406302154    0.000232142279    -0.000194303211    -0.147314477929    0.033529815905
0.750     -0.028880086077    0.230156678520    -0.000026060729    -0.000079073316    0.007982400072    0.197591887557    -0.000058462185    -0.000064445914
            -0.000024204429    -0.000078939337    -0.072084514970    0.209370711997    -0.000058286310    0.000008187965    -0.029590066716    0.188722732910
            0.007313636268    0.197612847755    -0.000015040667    -0.000022731614    -0.020506569255    0.228833253686    -0.000055878926    -0.000020531542
            -0.000026635251    -0.000092454207    -0.030224528173    0.188554630714    -0.000061107520    -0.000018387973    -0.064865759406    0.210927645095
0.775     0.066745692549    0.071864589643    0.000218719322    0.000148301375    0.070347790235    0.060615071991    0.000295497779    0.000171476628
            0.000220737746    0.000146404692    0.062807776926    0.090892707116    0.000231306339    0.000127859827    0.068467835642    0.078056599265
            0.069380907382    0.061428206765    0.000194215861    0.000086910028    0.060283393254    0.063633906107    0.000286846213    0.000140983026
