# GHz S RI R 45
0.000     0.089789565000    0.000000000000    -0.000001439908    0.000000000000    0.002908831000    -0.000000000000    -0.000002420318    0.000000000000
            -0.000001439741    -0.000000000000    0.081880790000    -0.000000000000    -0.000001091070    -0.000000000000    0.005856220000    -0.000000000000
            0.003824183100    -0.000000000000    -0.000001090355    -0.000000000000    0.087245153000    -0.000000000000    -0.000001951863    -0.000000000000
            -0.000002415597    0.000000000000    0.006698217100    0.000000000000    -0.000001953522    0.000000000000    0.084172200000    -0.000000000000
0.025     0.157668283032    -0.011434519251    -0.000014302859    -0.000000619237    0.095447707150    0.030356191829    -0.000023031721    -0.000001349797
            -0.000014308609    -0.000000615597    0.157382410625    -0.011760173577    -0.000008857646    0.000000103393    0.095013645038    0.029445057934
            0.095160211146    0.029569780470    -0.000008857390    0.000000087149    0.157133247149    -0.012027142772    -0.000017167853    -0.000000789079
            -0.000023031647    -0.000001364726    0.095606664909    0.028899620354    -0.000017161374    -0.000000777712    0.157545520503    -0.011413650525
0.050     0.061668242526    -0.076665749091    -0.000019430298    0.000028182813    0.034446005370    -0.031496324293    -0.000029322753    0.000044052526
            -0.000019392882    0.000028201388    0.061177692300    -0.076639236070    -0.000012624115    0.000018150598    0.033543915270    -0.030957149092
            0.033694963947    -0.030906229779    -0.000012654915    0.000018178834    0.060795350459    -0.076375591093    -0.000022558244    0.000033483754
            -0.000029348162    0.000044081024    0.033504909003    -0.031833974554    -0.000022572670    0.000033437443    0.061296880788    -0.077354435497
0.075     0.096931914122    0.056449918966    0.000044687979    0.000025207537    0.088322560148    0.094769306899    0.000065890648    0.000043116110
            0.000044677928    0.000025130374    0.097569743420    0.055043696533    0.000031080030    0.000013294233    0.089826608259    0.093898178258
            0.089106643029    0.095209037372    0.000031101438    0.000013298770    0.097146890935    0.056483305015    0.000051634195    0.000030946801
            0.000065911252    0.000043115615    0.089274782956    0.093397109475    0.000051628180    0.000031024154    0.096619322213    0.054752490340
0.100     0.196350881426    -0.076954224136    0.000030614505    -0.000021289081    0.201601905519    -0.058695272772    0.000056202385    -0.000033964729
            0.000030539264    -0.000021280267    0.194326399608    -0.079383435116    0.000014042624    -0.000013596602    0.200063791353    -0.062353690979
            0.201652331254    -0.059548654407    0.000014084696    -0.000013559788    0.195435508094    -0.077770401534    0.000039201850    -0.000025537965
            0.000056243197    -0.000033928697    0.199330219787    -0.062554037101    0.000039238375    -0.000025582824    0.193368091175    -0.078993004292
0.125     0.036482605622    -0.107876203632    0.000011009012    -0.000071367390    0.023730248707    -0.104112516271    0.000012628455    -0.000113468663
            0.000010989921    -0.000071254642    0.034958747144    -0.108146248096    0.000008809456    -0.000043900938    0.020882226351    -0.104457655166
            0.022746366574    -0.103767622732    0.000008838457    -0.000044082625    0.035490196975    -0.106670231021    0.000010909592    -0.000085576517
            0.000012640860    -0.000113637789    0.019940895768    -0.103934616984    0.000010907285    -0.000085536269    0.035156935308    -0.106849605186
0.150     0.129668028306    0.003373342105    -0.000091596332    0.000003160681    0.112702755435    0.020300964045    -0.000141940021    -0.000004140529
            -0.000091444126    0.000003157458    0.127415261447    -0.000341838362    -0.000058491354    0.000008699713    0.111196245518    0.017661096843
            0.113448415147    0.021122065639    -0.000058640251    0.000008852037    0.130875471884    0.003292067701    -0.000108117632    0.000001530881
            -0.000142074890    -0.000003992980    0.111263720987    0.018683374565    -0.000108133217    0.000001411559    0.128456135339    -0.001151907746
0.175     0.144739045298    -0.173512797996    -0.000026023634    0.000049298904    0.134156397074    -0.163902938284    -0.000051204052    0.000087422062
            -0.000026031280    0.000049177296    0.138040996003    -0.175007479370    -0.000009408421    0.000025212649    0.128121653600    -0.166673289223
            0.134738543519    -0.164673920035    -0.000009324464    0.000025229386    0.143679682132    -0.174412602338    -0.000034247757    0.000062317821
            -0.000051113335    0.000087434674    0.128650406540    -0.166236088642    -0.000034324217    0.000062418150    0.136491110847    -0.175070548070
0.200     -0.031875280113    -0.143419111501    0.000025974912    0.000099117019    -0.057693490253    -0.137218829781    0.000053652337    0.000154939884
            0.000025853627    0.000099096038    -0.036805583245    -0.142184867753    0.000010019507    0.000062174673    -0.063994110457    -0.135702951553
            -0.058491880063    -0.137510876819    0.000010056077    0.000062240518    -0.032018194128    -0.141724464667    0.000036924389    0.000117566355
            0.000053692483    0.000154995784    -0.063451092855    -0.135409526040    0.000037019241    0.000117540066    -0.035298420954    -0.139695856471
0.225     0.045851393061    -0.066566430515    0.000123809628    -0.000040385646    0.022531473784    -0.046725267067    0.000194212773    -0.000061649140
            0.000123769497    -0.000040308763    0.037894927578    -0.065974008601    0.000076986144    -0.000028452192    0.015734581294    -0.045516453963
            0.022864966538    -0.046611993605    0.000076996669    -0.000028616754    0.046453614571    -0.067124789486    0.000146449954    -0.000049411802
            0.000194198532    -0.000061814495    0.016340792784    -0.045749604085    0.000146468696    -0.000049350017    0.039633043316    -0.067279748312
0.250     0.033536965421    -0.165620829749    0.000002632880    -0.000108932927    0.008759128893    -0.110219273674    0.000006867543    -0.000179670689
            0.000002643242    -0.000108973558    0.026616830490    -0.161472396637    -0.000001021439    -0.000063487038    0.004084886296    -0.106537396842
            0.009525374091    -0.110797129360    -0.000001186246    -0.000063345150    0.031652978054    -0.166983088544    0.000002787429    -0.000132575280
            0.000006686542    -0.000179526181    0.004445680391    -0.107667506177    0.000002947549    -0.000132639794    0.023463909417    -0.162541499283
0.275     -0.065180380351    -0.079992386745    -0.000131810216    -0.000079637153    -0.048346358533    -0.031661669474    -0.000209572736    -0.000120282088
            -0.000131810237    -0.000079566996    -0.071681219910    -0.077251447775    -0.000084136258    -0.000050513421    -0.053684955139    -0.030284554025
            -0.049151249418    -0.032466652638    -0.000083976642    -0.000050553797    -0.064771103160    -0.078625873077    -0.000159878017    -0.000090774752
            -0.000209404976    -0.000120300205    -0.054329538387    -0.031084177551    -0.000160023313    -0.000090839520    -0.069707065192    -0.074821628173
0.300     0.015247343815    -0.044933385629    -0.000108825382    0.000142856216    0.018625200270    -0.027499112086    -0.000172298696    0.000217895449
            -0.000108747715    0.000142868185    0.007403777428    -0.037242119341    -0.000063413901    0.000096140460    0.011346825608    -0.020559886084
            0.017892593540    -0.026593473870    -0.000063586156    0.000096159265    0.016096144867    -0.047252146739    -0.000126452562    0.000169846026
            -0.000172448046    0.000217913622    0.010637038577    -0.020691091471    -0.000126394969    0.000169830728    0.009135849084    -0.041503221761
0.325     -0.012735910418    -0.081113861360    0.000096639573    0.000149719229    -0.013225381641    -0.030551402875    0.000146682252    0.000237492520
            0.000096763505    0.000149542991    -0.014900473958    -0.076503441778    0.000066435192    0.000091271173    -0.013132428874    -0.026503929302
            -0.012353661801    -0.030150069286    0.000066569439    0.000091352063    -0.014870292198    -0.080992870127    0.000115920005    0.000177488120
            0.000146838158    0.000237535401    -0.013869639416    -0.026374515219    0.000115674758    0.000177605975    -0.018332227206    -0.076113443014
0.350     0.007629618565    -0.043999720339    0.000200134965    -0.000069504379    0.055371948009    -0.016244605960    0.000312132468    -0.000094470873
            0.000199766462    -0.000069611070    -0.003571305220    -0.040781036254    0.000126872195    -0.000059380471    0.046012072087    -0.017053818722
            0.055228291361    -0.017138704553    0.000126877211    -0.000059397613    0.009500631586    -0.043455502744    0.000236519353    -0.000083389046
            0.000312072566    -0.000094507118    0.045391462832    -0.016292587481    0.000236910834    -0.000083256672    0.000135821787    -0.039218965814
0.375     0.008108035832    -0.112913385123    -0.000028392973    -0.000183382192    0.018355452084    -0.128427841628    -0.000023244901    -0.000295770325
            -0.000028397919    -0.000183019698    0.000401311543    -0.100540169075    -0.000037583761    -0.000108261827    0.008100258044    -0.118435348973
            0.017402061999    -0.127708223974    -0.000037433969    -0.000108458050    0.007338387321    -0.115187629279    -0.000031435951    -0.000219236362
            -0.000023097226    -0.000295909802    0.008294685062    -0.117372523434    -0.000031561798    -0.000219467672    0.000805477096    -0.104761483520
0.400     -0.063689489620    -0.072037766901    -0.000169001789    -0.000077777599    -0.074499911671    -0.050873246263    -0.000273117440    -0.000131917354
            -0.000168709214    -0.000077666610    -0.069408474531    -0.065941693973    -0.000102707744    -0.000039158461    -0.079398420736    -0.043569237223
            -0.073355514764    -0.049893729701    -0.000103238152    -0.000039205918    -0.063746903020    -0.069806824053    -0.000206364292    -0.000092804059
            -0.000273611745    -0.000131938145    -0.078458144625    -0.042966166718    -0.000206239851    -0.000092858211    -0.069910902013    -0.064072561316
0.425     -0.006278217257    -0.075890276014    -0.000127208673    0.000197141807    0.015719490075    -0.067577956699    -0.000215724088    0.000296001255
            -0.000127066818    0.000196768906    -0.020815040116    -0.061420825661    -0.000063484193    0.000137569534    0.002377015069    -0.056357963480
            0.016064474101    -0.068115141434    -0.000063231765    0.000137924781    -0.003894507680    -0.078158083225    -0.000150391852    0.000235208937
            -0.000215447011    0.000296304034    0.003004494992    -0.056581905920    -0.000150713922    0.000235271063    -0.018064311507    -0.063994309586
0.450     -0.082026789145    -0.172907808668    0.000141766935    0.000109660254    -0.085560925888    -0.146696033085    0.000210191854    0.000207953640
            0.000141320166    0.000109594287    -0.089883009331    -0.154456236380    0.000098470088    0.000040223624    -0.094629975172    -0.130054568859
            -0.086651904551    -0.146966578443    0.000098557080    0.000039932387    -0.086035476279    -0.175418726688    0.000166379964    0.000136517519
            0.000210253065    0.000207629729    -0.094305515777    -0.130763883471    0.000166698442    0.000136842432    -0.093919045214    -0.158672574365
0.475     -0.177482641983    -0.025562548945    0.000157537865    0.000001889027    -0.157597293015    0.007521777825    0.000276815177    -0.000002304536
            0.000157463412    0.000002182733    -0.183615213758    -0.005869721604    0.000082012325    0.000001565830    -0.161709512736    0.026784755056
            -0.157305340545    0.008386334808    0.000082134903    0.000001434010    -0.175705888697    -0.022401072061    0.000199415767    -0.000002913537
            0.000276917951    -0.000002415947    -0.161570029143    0.026153760088    0.000199417211    -0.000003091348    -0.181787500243    -0.003557691538
0.500     -0.034215204249    0.010357480863    0.000076965087    -0.000264726577    -0.026317925330    0.033058184302    0.000117590271    -0.000414314149
            0.000077212141    -0.000264600831    -0.035204354117    0.034997726105    0.000039410935    -0.000170833785    -0.024840768912    0.054179976945
            -0.025501424729    0.032091472411    0.000038736163    -0.000171053477    -0.031255533380    0.003250191634    0.000078141621    -0.000319079203
            0.000116919765    -0.000414530932    -0.025198413196    0.053117468987    0.000078417558    -0.000318992027    -0.032517541862    0.026172407905
0.525     -0.130799845630    -0.089267225476    -0.000220351463    -0.000056478265    -0.097597330978    -0.030564722956    -0.000348734670    -0.000117451429
            -0.000220305946    -0.000056685056    -0.130320060350    -0.070518859932    -0.000134911527    -0.000010746735    -0.095360852689    -0.016259888206
            -0.098824818066    -0.031330646582    -0.000134513427    -0.000010081346    -0.137956399613    -0.090024075485    -0.000261230170    -0.000068036745
            -0.000348371271    -0.000116715132    -0.096740738286    -0.016474842756    -0.000261489484    -0.000068482351    -0.138497718284    -0.071204348185
0.550     -0.176371846113    0.090247313654    -0.000167709156    0.000090152992    -0.098707517188    0.087810696274    -0.000281264439    0.000163096683
            -0.000167748472    0.000090193184    -0.173234722522    0.117916810893    -0.000095768020    0.000050034540    -0.096292522613    0.108977330473
            -0.099369299350    0.088933171584    -0.000095601952    0.000049620775    -0.172934884474    0.094073327774    -0.000205972718    0.000119838225
            -0.000281002426    0.000162644738    -0.097007855653    0.109906603471    -0.000206226243    0.000120168103    -0.168583729094    0.120780321902
0.575     -0.000980990424    0.085804737438    0.000055075268    0.000320045093    0.008904507319    0.057718518963    0.000094853268    0.000491991284
            0.000055091105    0.000319989927    0.015356290545    0.106746123285    0.000046577237    0.000205093150    0.022301325382    0.075498908674
            0.009854544090    0.058204895420    0.000046462385    0.000205171009    -0.000280178613    0.078799255900    0.000084692509    0.000375202326
            0.000094721157    0.000492028497    0.022332480738    0.076220950808    0.000084831109    0.000375260979    0.014754475089    0.097331561594
0.600     -0.063915653042    -0.008425675226    0.000319653433    -0.000048927182    -0.037861293694    0.014436269854    0.000498071623    -0.000055896015
            0.000319564945    -0.000049085043    -0.061448939568    0.001782349803    0.000197543594    -0.000054155857    -0.034982880203    0.020856390171
            -0.037881983168    0.013696524913    0.000197435922    -0.000054320820    -0.069109766750    -0.006308734138    0.000373272463    -0.000062151696
            0.000497918680    -0.000056130284    -0.034884411910    0.021565108657    0.000373460615    -0.000061836181    -0.067338921833    0.004977438942
0.625     -0.055263017463    0.072873238405    0.000099832010    -0.000296634556    -0.008066089535    0.040732512701    0.000164242198    -0.000465020430
            0.000099481473    -0.000296300516    -0.049661869371    0.101018268253    0.000048248369    -0.000195077327    -0.007042992598    0.062508037443
            -0.008836547429    0.041343775381    0.000048283030    -0.000194802636    -0.050551726359    0.072669186560    0.000111783773    -0.000359472378
            0.000164163856    -0.000464607907    -0.006179539942    0.063215438825    0.000112192346    -0.000360127547    -0.043240042662    0.098369517479
0.650     -0.016757275805    0.008965909524    -0.000336584383    -0.000191420827    -0.033937488791    -0.016175523849    -0.000499795898    -0.000311771048
            -0.000335988015    -0.000191199256    0.001099660607    0.023822633157    -0.000238931411    -0.000093183521    -0.020933408747    -0.000210193238
            -0.032800760802    -0.015156155688    -0.000238903518    -0.000093599292    -0.019701976636    0.004423208218    -0.000399821892    -0.000213574784
            -0.000499574777    -0.000312136719    -0.019727551454    -0.000557876928    -0.000400605130    -0.000213497973    -0.005048223976    0.016697350788
0.675     -0.070577518159    0.035748574859    -0.000228435353    0.000242905958    -0.067373520892    0.053451978315    -0.000385222447    0.000358884996
            -0.000228254860    0.000242479027    -0.068280157124    0.053287067104    -0.000116050334    0.000171370769    -0.063213086503    0.069553145571
            -0.066299146054    0.052131617632    -0.000116384625    0.000171997966    -0.069159134368    0.037510111446    -0.000271753536    0.000287767238
            -0.000385560233    0.000359384887    -0.062765352815    0.068515350809    -0.000271615953    0.000287835329    -0.067426055512    0.056009566521
0.700     -0.022969113909    0.013478480438    0.000155173455    0.000370104613    -0.009916775201    0.019790632668    0.000217140255    0.000579106322
            0.000154664475    0.000369587949    -0.008104404830    0.041887032446    0.000133179478    0.000230194683    0.002757277096    0.043563696042
            -0.011224579194    0.019053493289    0.000134093960    0.000229836557    -0.022613851777    0.005180829499    0.000197011432    0.000436321316
            0.000217974056    0.000578711785    0.002388898472    0.042611739344    0.000196852944    0.000437019777    -0.008311334820    0.030382623334
0.725     -0.152113575490    0.008802432185    0.000346586631    -0.000172134763    -0.124807952914    0.034662561766    0.000556773639    -0.000203152716
            0.000346271651    -0.000171255276    -0.136084187217    0.030661681759    0.000194908753    -0.000167042844    -0.108950519315    0.054839962630
            -0.124716191520    0.035662026828    0.000194373003    -0.000167242718    -0.159490074855    0.011256750421    0.000401876845    -0.000199991737
            0.000556181425    -0.000203286060    -0.109699415149    0.054406302154    0.000402608142    -0.000200641059    -0.147314477929    0.033529815905
0.750     -0.098676438688    0.183974261459    0.000012817303    -0.000222969415    -0.055288663043    0.169518793385    0.000063798178    -0.000386683233
            0.000013367204    -0.000222870034    -0.072084514970    0.209370711997    -0.000021992335    -0.000115106118    -0.029590066716    0.188722732910
            -0.054492608536    0.168713672012    -0.000022108606    -0.000115287045    -0.091611169544    0.185170848315    0.000026808180    -0.000276764494
            0.000063771643    -0.000386822771    -0.030224528173    0.188554630714    0.000026314412    -0.000276781059    -0.064865759406    0.210927645095
0.775     0.032005468777    0.078946041655    -0.000269182112    -0.000270589959    0.041875096924    0.070435586337    -0.000425660771    -0.000426088908
            -0.000268933993    -0.000271034948    0.062807776926    0.090892707116    -0.000187531854    -0.000158626506    0.068467835642    0.078056599265
            0.040419039271    0.069651931100    -0.000188095333    -0.000157506194    0.026703485848    0.067750305174    -0.000344194856    -0.000309719133
