# GHz S RI R 45
0.000     0.090180753000    0.000000000000    0.000000091684    0.000000000000    0.003321854000    -0.000000000000    -0.000019840944    -0.000000000000
            0.000000089462    -0.000000000000    0.081880790000    -0.000000000000    0.000000212116    0.000000000000    0.005856220000    -0.000000000000
            0.004432377300    0.000000000000    0.000000212901    0.000000000000    0.086222640000    -0.000000000000    0.000000300690    0.000000000000
            -0.000019839789    -0.000000000000    0.006698217100    0.000000000000    0.000000296354    0.000000000000    0.084172200000    -0.000000000000
0.025     0.157688284984    -0.012200588573    0.000012270171    0.000003456236    0.095188071066    0.029443781429    0.000016734048    0.000023889984
            0.000012233189    0.000003468076    0.157382410625    -0.011760173577    0.000007618500    0.000000888322    0.095013645038    0.029445057934
            0.095897675764    0.028745410220    0.000007618722    0.000000897974    0.157675460648    -0.011617785317    0.000013621177    0.000003573621
            0.000016730040    0.000023893947    0.095606664909    0.028899620354    0.000013580057    0.000003593734    0.157545520503    -0.011413650525
0.050     0.060647255989    -0.075668118442    0.000010929552    -0.000019473851    0.032982520455    -0.030227945541    0.000022747920    -0.000013700622
            0.000010996204    -0.000019415562    0.061177692300    -0.076639236070    0.000010854851    -0.000014765719    0.033543915270    -0.030957149092
            0.032951653547    -0.031282702046    0.000010881147    -0.000014766857    0.060719139014    -0.076501756549    0.000012513609    -0.000021827265
            0.000022773309    -0.000013690077    0.033504909003    -0.031833974554    0.000012596460    -0.000021765143    0.061296880788    -0.077354435497
0.075     0.099547262674    0.056096820648    -0.000019442861    -0.000035386488    0.091466224880    0.094839939531    0.000005397882    -0.000059619877
            -0.000019428953    -0.000035483298    0.097569743420    0.055043696533    -0.000026168625    -0.000015290607    0.089826608259    0.093898178258
            0.090805637942    0.094187071443    -0.000026149006    -0.000015363919    0.098284276392    0.055585822847    -0.000022692630    -0.000038558303
            0.000005395333    -0.000059668100    0.089274782956    0.093397109475    -0.000022674527    -0.000038677114    0.096619322213    0.054752490340
0.100     0.194529420795    -0.080345184419    -0.000054831785    0.000029125589    0.200242937480    -0.063356779552    -0.000090121705    0.000015014364
            -0.000054942039    0.000029106643    0.194326399608    -0.079383435116    -0.000013202605    0.000013936713    0.200063791353    -0.062353690979
            0.199321997875    -0.063604135920    -0.000013340563    0.000013937219    0.193515524645    -0.079880049380    -0.000059030446    0.000031383173
            -0.000090177660    0.000015005343    0.199330219787    -0.062554037101    -0.000059176176    0.000031356653    0.193368091175    -0.078993004292
0.125     0.034413144099    -0.105318169399    0.000016679578    0.000052749176    0.020205757944    -0.102210801669    -0.000001292066    0.000061757197
            0.000016731666    0.000052979981    0.034958747144    -0.108146248096    -0.000005290032    0.000036879531    0.020882226351    -0.104457655166
            0.019078432722    -0.101578048457    -0.000005284673    0.000037031503    0.034779007772    -0.104884102887    0.000016226691    0.000059177203
            -0.000001316320    0.000061864860    0.019940895768    -0.103934616984    0.000016285725    0.000059469866    0.035156935308    -0.106849605186
0.150     0.131449432680    -0.000357933245    0.000077879844    0.000023566245    0.114412980418    0.017445376219    0.000092042416    0.000085995589
            0.000078008072    0.000023305495    0.127415261447    -0.000341838362    0.000054497688    -0.000005175397    0.111196245518    0.017661096843
            0.114450350249    0.018645403542    0.000054739227    -0.000005170507    0.131326271172    -0.001702019759    0.000086583679    0.000025043420
            0.000092171919    0.000085973308    0.111263720987    0.018683374565    0.000086757379    0.000024743709    0.128456135339    -0.001151907746
0.175     0.137075367332    -0.176031187444    0.000024477274    -0.000096896519    0.126860645118    -0.167631594070    0.000076326795    -0.000140898085
            0.000024256486    -0.000096899148    0.138040996003    -0.175007479370    0.000003078038    -0.000023823390    0.128121653600    -0.166673289223
            0.127460384098    -0.167042086927    0.000003013108    -0.000024062857    0.135384447974    -0.176026144244    0.000028035091    -0.000103420973
            0.000076313297    -0.000140990217    0.128650406540    -0.166236088642    0.000027778885    -0.000103450687    0.136491110847    -0.175070548070
0.200     -0.035584904608    -0.137590276395    -0.000065506650    -0.000030399490    -0.063539296266    -0.131621969805    -0.000077492033    -0.000052538334
            -0.000065598719    -0.000030191864    -0.036805583245    -0.142184867753    -0.000010523052    -0.000049295286    -0.063994110457    -0.135702951553
            -0.062821676491    -0.131254965350    -0.000010708656    -0.000049249400    -0.034824373470    -0.136616279631    -0.000069477527    -0.000039506510
            -0.000077602723    -0.000052575529    -0.063451092855    -0.135409526040    -0.000069585198    -0.000039258078    -0.035298420954    -0.139695856471
0.225     0.042736863709    -0.067629080143    -0.000087331513    0.000041405252    0.019304209007    -0.046619784488    -0.000143349300    0.000017200943
            -0.000086996570    0.000041387782    0.037894927578    -0.065974008601    -0.000065002072    0.000025285564    0.015734581294    -0.045516453963
            0.019996880305    -0.046901901260    -0.000065036914    0.000025479308    0.042368764711    -0.068624425160    -0.000099945686    0.000045794520
            -0.000143353625    0.000017314363    0.016340792784    -0.045749604085    -0.000099600770    0.000045776595    0.039633043316    -0.067279748312
0.250     0.025154629315    -0.161042093786    0.000039098154    0.000099323453    0.003023183139    -0.105468830283    0.000040009273    0.000189135384
            0.000038800616    0.000098801573    0.026616830490    -0.161472396637    0.000006625423    0.000052096300    0.004084886296    -0.106537396842
            0.003431822444    -0.106727329046    0.000006865324    0.000051986148    0.021841211597    -0.161699984450    0.000039143577    0.000110215938
            0.000040096516    0.000189045556    0.004445680391    -0.107667506177    0.000038821909    0.000109665722    0.023463909417    -0.162541499283
0.275     -0.065895919124    -0.073365452803    0.000080962656    0.000014792006    -0.048553259642    -0.027189996452    0.000114977655    0.000010954587
            0.000080709853    0.000015242996    -0.071681219910    -0.077251447775    0.000066073108    0.000040539376    -0.053684955139    -0.030284554025
            -0.049223392143    -0.028139755392    0.000065912794    0.000040470476    -0.065827345032    -0.071906721639    0.000094469207    0.000022904976
            0.000114898287    0.000010977435    -0.054329538387    -0.031084177551    0.000094173978    0.000023410063    -0.069707065192    -0.074821628173
0.300     0.011617102605    -0.041835474162    0.000072780734    -0.000101898509    0.014305917884    -0.024081776532    0.000131337409    -0.000115122991
            0.000073097510    -0.000101797021    0.007403777428    -0.037242119341    0.000054329113    -0.000081058463    0.011346825608    -0.020559886084
            0.013443920937    -0.024300781417    0.000054397474    -0.000080983954    0.011370488206    -0.044291392073    0.000082593389    -0.000117461183
            0.000131405212    -0.000115087321    0.010637038577    -0.020691091471    0.000083020045    -0.000117344790    0.009135849084    -0.041503221761
0.325     -0.013972351605    -0.074654331138    -0.000081898736    -0.000089471608    -0.011549921785    -0.024422992899    -0.000116235169    -0.000159425847
            -0.000081740182    -0.000089827287    -0.014900473958    -0.076503441778    -0.000055608551    -0.000074631422    -0.013132428874    -0.026503929302
            -0.012431479806    -0.024221550156    -0.000055518858    -0.000074709722    -0.017416793252    -0.074051050587    -0.000090269624    -0.000102916725
            -0.000116157433    -0.000159521090    -0.013869639416    -0.026374515219    -0.000090153906    -0.000103385424    -0.018332227206    -0.076113443014
0.350     0.005063686632    -0.043385489411    -0.000154324939    0.000035715090    0.053068982358    -0.020492958138    -0.000210144682    0.000035524374
            -0.000154847803    0.000035737846    -0.003571305220    -0.040781036254    -0.000111308800    0.000050942678    0.046012072087    -0.017053818722
            0.052412581586    -0.019616768613    -0.000111570804    0.000050737865    0.006094965707    -0.041478542401    -0.000176722071    0.000041122108
            -0.000210349718    0.000035399434    0.045391462832    -0.016292587481    -0.000177324172    0.000041198470    0.000135821787    -0.039218965814
0.375     -0.000169071379    -0.106597725921    0.000050078569    0.000190470215    0.006176796159    -0.122766110011    0.000017168622    0.000274833427
            0.000050405721    0.000190936277    0.000401311543    -0.100540169075    0.000045043356    0.000090403803    0.008100258044    -0.118435348973
            0.006397131982    -0.121590893551    0.000044940782    0.000090903711    -0.000335661027    -0.108340790029    0.000054640520    0.000210770662
            0.000017058500    0.000275137645    0.008294685062    -0.117372523434    0.000055004920    0.000211315154    0.000805477096    -0.104761483520
0.400     -0.066063506943    -0.063617030806    0.000140563198    -0.000006778596    -0.076168355211    -0.040883519767    0.000215831229    0.000026399013
            0.000140880604    -0.000007356429    -0.069408474531    -0.065941693973    0.000076342980    0.000026149242    -0.079398420736    -0.043569237223
            -0.075103950376    -0.040213494356    0.000076902345    0.000026201693    -0.067246224955    -0.062121712288    0.000157385340    0.000001684996
            0.000216229031    0.000026505868    -0.078458144625    -0.042966166718    0.000157782545    0.000001050226    -0.069910902013    -0.064072561316
0.425     -0.014628094201    -0.069847276004    0.000095925807    -0.000172240506    0.006255656834    -0.063625139930    0.000170219920    -0.000230272737
            0.000095469523    -0.000172127359    -0.020815040116    -0.061420825661    0.000047880604    -0.000119646039    0.002377015069    -0.056357963480
            0.006948047380    -0.063892211817    0.000047811548    -0.000120272134    -0.014656116935    -0.070064457505    0.000111638062    -0.000194618898
            0.000170212865    -0.000230626034    0.003004494992    -0.056581905920    0.000111149897    -0.000194551007    -0.018064311507    -0.063994309586
0.450     -0.095128406811    -0.157566555589    -0.000212277809    -0.000077705501    -0.098839014712    -0.130697137914    -0.000323892843    -0.000210222195
            -0.000211941244    -0.000077241612    -0.089883009331    -0.154456236380    -0.000085439634    -0.000003786448    -0.094629975172    -0.130054568859
            -0.098483831833    -0.131476239077    -0.000086119760    -0.000003427643    -0.098300323669    -0.159296889353    -0.000228149909    -0.000088750199
            -0.000324223659    -0.000210159227    -0.094305515777    -0.130763883471    -0.000227824084    -0.000088261713    -0.093919045214    -0.158672574365
0.475     -0.177822419867    -0.003335505389    -0.000045619041    0.000097997621    -0.155971387403    0.028909390045    -0.000101858167    0.000202605310
            -0.000045230606    0.000097883424    -0.183615213758    -0.005869721604    -0.000048593271    -0.000020883938    -0.161709512736    0.026784755056
            -0.155832806131    0.028164416194    -0.000048359462    -0.000020444509    -0.177536881691    -0.000969717493    -0.000066343512    0.000097354286
            -0.000101957128    0.000202891356    -0.161570029143    0.026153760088    -0.000065923457    0.000097217298    -0.181787500243    -0.003557691538
0.500     -0.031088044387    0.022377957150    -0.000028516599    0.000149143724    -0.021711012707    0.044693482842    -0.000057624922    0.000213345219
            -0.000028726112    0.000148243668    -0.035204354117    0.034997726105    -0.000044714096    0.000139993214    -0.024840768912    0.054179976945
            -0.022226591150    0.043565771997    -0.000044032372    0.000139974946    -0.030303091209    0.018034188281    -0.000030476269    0.000183882739
            -0.000057109056    0.000213454706    -0.025198413196    0.053117468987    -0.000030799328    0.000183016629    -0.032517541862    0.026172407905
0.525     -0.136264892361    -0.070427027922    0.000193060391    -0.000036116760    -0.097763930708    -0.015527456337    0.000382675738    -0.000022484183
            0.000192390156    -0.000035115485    -0.130320060350    -0.070518859932    0.000095442881    -0.000002390188    -0.095360852689    -0.016259888206
            -0.099222462950    -0.015621541811    0.000094810314    -0.000003116920    -0.142158361205    -0.069102821823    0.000214304675    -0.000034122967
            0.000382437408    -0.000022899164    -0.096740738286    -0.016474842756    0.000213771415    -0.000033079010    -0.138497718284    -0.071204348185
0.550     -0.164074033719    0.116630914901    0.000011742687    -0.000056260532    -0.088832748811    0.105757991937    -0.000079126258    -0.000172787614
            0.000012686846    -0.000056304376    -0.173234722522    0.117916810893    0.000090018464    -0.000009352213    -0.096292522613    0.108977330473
            -0.089530571799    0.106748694205    0.000089948891    -0.000008701576    -0.161004733209    0.120593287626    0.000035887607    -0.000069737104
            -0.000079197813    -0.000172545550    -0.097007855653    0.109906603471    0.000036833112    -0.000069842328    -0.168583729094    0.120780321902
0.575     0.014601439627    0.091335662650    -0.000011924701    -0.000184677699    0.020607092736    0.064073304033    0.000012267301    -0.000189318994
            -0.000012087081    -0.000185162458    0.015356290545    0.106746123285    -0.000026484399    -0.000188423165    0.022301325382    0.075498908674
            0.020636819971    0.064875977545    -0.000026180252    -0.000188545091    0.014603997335    0.087069333523    -0.000033177997    -0.000220841882
            0.000012330711    -0.000189369600    0.022332480738    0.076220950808    -0.000033371936    -0.000221429688    0.014754475089    0.097331561594
0.600     -0.065877658795    0.002207049968    -0.000212971959    0.000075679839    -0.036545700796    0.020903238052    -0.000329411774    0.000112246398
            -0.000213497513    0.000075573955    -0.061448939568    0.001782349803    -0.000160590791    0.000042934327    -0.034982880203    0.020856390171
            -0.036307602861    0.021683150683    -0.000160546394    0.000042689860    -0.068896015080    0.006032200407    -0.000239408695    0.000087027257
            -0.000329387271    0.000112167794    -0.034884411910    0.021565108657    -0.000240048983    0.000087084169    -0.067338921833    0.004977438942
0.625     -0.044117912343    0.089931756627    -0.000042829657    0.000173274876    -0.004322002199    0.051816858061    0.000006323654    0.000213414653
            -0.000042588975    0.000174107450    -0.049661869371    0.101018268253    -0.000056149179    0.000158331840    -0.007042992598    0.062508037443
            -0.003336855296    0.052412125786    -0.000056710193    0.000158522980    -0.038838915858    0.089677139983    -0.000053200105    0.000212053017
            0.000006038839    0.000213546281    -0.006179539942    0.063215438825    -0.000052803257    0.000212870430    -0.043240042662    0.098369517479
0.650     -0.012098068005    0.014083822255    0.000264862962    0.000123502388    -0.032349579429    -0.005434517006    0.000310620482    0.000183640033
            0.000265422345    0.000122723205    0.001099660607    0.023822633157    0.000201924802    0.000076819400    -0.020933408747    -0.000210193238
            -0.031163307006    -0.005907449810    0.000202654047    0.000077301880    -0.014567130104    0.010935203684    0.000310703701    0.000130157452
            0.000311066194    0.000183932760    -0.019727551454    -0.000557876928    0.000311213407    0.000129333728    -0.005048223976    0.016697350788
0.675     -0.068544912661    0.054686393054    0.000096974414    -0.000211601988    -0.061447076333    0.070367591013    0.000155191274    -0.000297931461
            0.000096110567    -0.000211693012    -0.068280157124    0.053287067104    0.000091472131    -0.000121745344    -0.063213086503    0.069553145571
            -0.061069555063    0.069226397615    0.000091592203    -0.000122634376    -0.065987625399    0.056604839615    0.000115268402    -0.000236777233
            0.000155358612    -0.000298538533    -0.062765352815    0.068515350809    0.000114403820    -0.000236846574    -0.067426055512    0.056009566521
0.700     -0.014753266438    0.026487347079    -0.000128394054    -0.000236715927    -0.003498874264    0.031228937230    -0.000153553209    -0.000336305992
            -0.000128102607    -0.000235882830    -0.008104404830    0.041887032446    -0.000102421939    -0.000198814271    0.002757277096    0.043563696042
            -0.004041023169    0.030271583308    -0.000103483793    -0.000198742749    -0.014584611697    0.019036875872    -0.000157508283    -0.000279494986
            -0.000154301298    -0.000336337207    0.002388898472    0.042611739344    -0.000157176590    -0.000278717233    -0.008311334820    0.030382623334
0.725     -0.150347755756    0.037382406269    -0.000234717342    0.000224299274    -0.117573036305    0.061134950659    -0.000419776830    0.000313580698
            -0.000234220151    0.000223820789    -0.136084187217    0.030661681759    -0.000125021662    0.000133978293    -0.108950519315    0.054839962630
            -0.118387887319    0.060813231303    -0.000124488361    0.000134871553    -0.155899423129    0.041027435863    -0.000260696117    0.000252305430
            -0.000419643422    0.000314209458    -0.109699415149    0.054406302154    -0.000260283075    0.000251833990    -0.147314477929    0.033529815905
0.750     -0.066040803785    0.209295443389    0.000089756983    0.000096131664    -0.024468963358    0.186112837615    0.000223576727    0.000176926896
            0.000089601650    0.000095758990    -0.072084514970    0.209370711997    -0.000032661018    0.000064048922    -0.029590066716    0.188722732910
            -0.025150228082    0.186023877021    -0.000032207205    0.000063786509    -0.058455163134    0.209758008724    0.000082964571    0.000122844209
            0.000224028985    0.000177006875    -0.030224528173    0.188554630714    0.000082764916    0.000122520310    -0.064865759406    0.210927645095
0.775     0.049808575949    0.076352365047    0.000157024258    0.000155037775    0.057266277015    0.066825838875    0.000190032390    0.000181585945
            0.000156082711    0.000155481646    0.062807776926    0.090892707116    0.000158943135    0.000166009674    0.068467835642    0.078056599265
            0.056185835845    0.067474898836    0.000158936617    0.000164993890    0.044658733246    0.067470146282    0.000209173074    0.000177272461
