# GHz S RI R 45
0.000     0.082073613000    -0.000000000000    0.000002536227    0.000000000000    0.005833438600    -0.000000000000    0.000001469823    0.000000000000
            0.000002510843    0.000000000000    0.081880790000    -0.000000000000    -0.000000340277    -0.000000000000    0.005856220000    -0.000000000000
            0.006594831000    0.000000000000    -0.000000339210    -0.000000000000    0.083338806000    -0.000000000000    0.000000341570    -0.000000000000
            0.000001505371    -0.000000000000    0.006698217100    0.000000000000    0.000000334099    0.000000000000    0.084172200000    -0.000000000000
0.025     0.157038261742    -0.011108989673    0.000004115748    0.000002621351    0.094781990594    0.029899177180    0.000001684941    -0.000000262128
            0.000004122424    0.000002624103    0.157382410625    -0.011760173577    0.000001412581    0.000003092254    0.095013645038    0.029445057934
            0.095412544001    0.029390364854    0.000001415226    0.000003088202    0.157570718194    -0.010362333446    0.000000367987    0.000000289484
            0.000001693197    -0.000000266691    0.095606664909    0.028899620354    0.000000373576    0.000000296577    0.157545520503    -0.011413650525
0.050     0.062150091935    -0.077077258674    -0.000010389984    0.000021920729    0.034329439269    -0.031306627433    -0.000004886850    0.000009622994
            -0.000010372757    0.000021918365    0.061177692300    -0.076639236070    -0.000002899114    0.000008534319    0.033543915270    -0.030957149092
            0.034299819150    -0.032208833722    -0.000002913811    0.000008537824    0.062271583800    -0.078070831720    -0.000000999090    0.000002820885
            -0.000004899965    0.000009625903    0.033504909003    -0.031833974554    -0.000000978069    0.000002815275    0.061296880788    -0.077354435497
0.075     0.095420818577    0.055727367565    0.000020161380    0.000029700757    0.087732991515    0.094558234682    0.000011037490    0.000008725765
            0.000020170745    0.000029685937    0.097569743420    0.055043696533    0.000004743157    0.000013717492    0.089826608259    0.093898178258
            0.087181124702    0.094054516319    0.000004766401    0.000013727333    0.094401009326    0.055497277147    0.000002124827    0.000002723533
            0.000011058678    0.000008735545    0.089274782956    0.093397109475    0.000002132134    0.000002708267    0.096619322213    0.054752490340
0.100     0.196462795052    -0.075927289386    -0.000007455634    0.000017044663    0.201899432587    -0.058501745677    -0.000004996342    0.000003279436
            -0.000007446690    0.000017019072    0.194326399608    -0.079383435116    0.000001980618    0.000015335893    0.200063791353    -0.062353690979
            0.201171509299    -0.058716454639    0.000001969649    0.000015304929    0.195486941052    -0.075553910271    0.000001321468    0.000004661268
            -0.000005007632    0.000003250948    0.199330219787    -0.062554037101    0.000001332297    0.000004639112    0.193368091175    -0.078993004292
0.125     0.037324260217    -0.110339032050    0.000001745963    0.000071793691    0.023965954404    -0.106310521002    -0.000000894427    0.000028738014
            0.000001718882    0.000071748380    0.034958747144    -0.108146248096    0.000005125669    0.000026895083    0.020882226351    -0.104457655166
            0.023011502789    -0.105813933030    0.000005116688    0.000026941542    0.037508256133    -0.109009062535    0.000001902198    0.000006918750
            -0.000000899914    0.000028778698    0.019940895768    -0.103934616984    0.000001875261    0.000006860262    0.035156935308    -0.106849605186
0.150     0.126298027386    0.003328880758    0.000029896581    0.000023251531    0.110047973795    0.020733652745    0.000011449358    0.000002346296
            0.000029839809    0.000023260026    0.127415261447    -0.000341838362    0.000010648642    0.000016653202    0.111196245518    0.017661096843
            0.110081482297    0.021758180453    0.000010666680    0.000016610782    0.127334386616    0.002506312452    0.000003559156    0.000002870815
            0.000011463476    0.000002304449    0.111263720987    0.018683374565    0.000003501119    0.000002893924    0.128456135339    -0.001151907746
0.175     0.145652810566    -0.172532901638    -0.000023518191    0.000062461664    0.135680876310    -0.163737372021    -0.000014042603    0.000019831766
            -0.000023542153    0.000062494410    0.138040996003    -0.175007479370    0.000008481340    0.000030604581    0.128121653600    -0.166673289223
            0.136193328581    -0.163281162745    0.000008447082    0.000030625975    0.144058037585    -0.172636277568    0.000005476337    0.000005546698
            -0.000014077927    0.000019855298    0.128650406540    -0.166236088642    0.000005455843    0.000005570713    0.136491110847    -0.175070548070
0.200     -0.032576613904    -0.147313701941    0.000048108793    0.000089482345    -0.058901323024    -0.141578225407    0.000011487951    0.000036554819
            0.000048083980    0.000089521722    -0.036805583245    -0.142184867753    0.000026239832    0.000028921462    -0.063994110457    -0.135702951553
            -0.058375938363    -0.141261224020    0.000026293347    0.000028945204    -0.031233319661    -0.144756047734    0.000005018915    0.000006279666
            0.000011539578    0.000036575222    -0.063451092855    -0.135409526040    0.000004984198    0.000006316118    -0.035298420954    -0.139695856471
0.225     0.041934063014    -0.065158484004    -0.000003407813    0.000018838653    0.019030513145    -0.045533302231    -0.000006593785    0.000005968918
            -0.000003384843    0.000018890091    0.037894927578    -0.065974008601    0.000007229660    0.000009777765    0.015734581294    -0.045516453963
            0.019651890707    -0.045732213469    0.000007200608    0.000009721911    0.043682596529    -0.066375930551    0.000003491005    0.000000627105
            -0.000006623745    0.000005918809    0.016340792784    -0.045749604085    0.000003524629    0.000000692859    0.039633043316    -0.067279748312
0.250     0.035176427218    -0.165592450600    -0.000002481238    0.000129975289    0.010583651894    -0.110834818567    -0.000007297501    0.000049285632
            -0.000002378458    0.000130004345    0.026616830490    -0.161472396637    0.000017758150    0.000045797285    0.004084886296    -0.106537396842
            0.011006106000    -0.111947408617    0.000017756914    0.000045825402    0.031994795181    -0.166827096880    0.000003704706    0.000007290646
            -0.000007296224    0.000049318554    0.004445680391    -0.107667506177    0.000003796531    0.000007308215    0.023463909417    -0.162541499283
0.275     -0.069300557366    -0.083418372417    0.000070491153    0.000052034936    -0.053142584814    -0.035347221915    0.000020893554    0.000023463314
            0.000070567475    0.000051971883    -0.071681219910    -0.077251447775    0.000034949346    0.000010710195    -0.053684955139    -0.030284554025
            -0.053739654837    -0.036182088391    0.000034970113    0.000010681381    -0.067565656428    -0.080845488915    0.000007969771    0.000003952236
            0.000020918837    0.000023431324    -0.054329538387    -0.031084177551    0.000008054339    0.000003906530    -0.069707065192    -0.074821628173
0.300     0.012172221828    -0.041330061381    -0.000050948074    0.000083985605    0.015368070424    -0.023539070487    -0.000021638031    0.000036741727
            -0.000050931388    0.000083907166    0.007403777428    -0.037242119341    -0.000010130943    0.000029439485    0.011346825608    -0.020559886084
            0.014673058268    -0.023719297174    -0.000010200851    0.000029447345    0.014028253613    -0.045476652740    0.000000988344    0.000005293241
            -0.000021706237    0.000036750189    0.010637038577    -0.020691091471    0.000001015572    0.000005203260    0.009135849084    -0.041503221761
0.325     -0.012908321152    -0.083145025361    0.000072984219    0.000149319508    -0.013229814769    -0.032434528495    0.000026892119    0.000053854448
            0.000072965750    0.000149233545    -0.014900473958    -0.076503441778    0.000038570723    0.000047213348    -0.013132428874    -0.026503929302
            -0.013980931790    -0.032360342815    0.000038629910    0.000047264645    -0.016510909534    -0.082917679551    0.000008446486    0.000007173225
            0.000026956895    0.000053901508    -0.013869639416    -0.026374515219    0.000008414492    0.000007090724    -0.018332227206    -0.076113443014
0.350     0.000551471735    -0.042529818764    0.000010338697    0.000029843494    0.048737296432    -0.014910556148    -0.000006287617    0.000011518258
            0.000010244284    0.000029767014    -0.003571305220    -0.040781036254    0.000010467189    0.000008486109    0.046012072087    -0.017053818722
            0.048063442128    -0.014193672938    0.000010441962    0.000008415203    0.003979185071    -0.040677483900    0.000003411153    0.000003045273
            -0.000006322114    0.000011437774    0.045391462832    -0.016292587481    0.000003338674    0.000002965491    0.000135821787    -0.039218965814
0.375     0.008718449994    -0.108374788047    -0.000010377503    0.000180626758    0.018874839360    -0.124450477052    -0.000006941061    0.000069577846
            -0.000010523433    0.000180651481    0.000401311543    -0.100540169075    0.000017415598    0.000058959729    0.008100258044    -0.118435348973
            0.018978860141    -0.123383184906    0.000017405364    0.000059067310    0.009219635223    -0.112430043092    0.000009192995    0.000005772684
            -0.000006951753    0.000069694559    0.008294685062    -0.117372523434    0.000009034725    0.000005778902    0.000805477096    -0.104761483520
0.400     -0.066522875533    -0.074842573676    0.000104621025    0.000085613074    -0.077208216828    -0.053394744268    0.000026014322    0.000032382831
            0.000104539353    0.000085753042    -0.069408474531    -0.065941693973    0.000045794685    0.000015205419    -0.079398420736    -0.043569237223
            -0.076328866233    -0.052700756326    0.000045895284    0.000015114699    -0.067336371030    -0.072929396225    0.000005036519    0.000000146228
            0.000026114959    0.000032286167    -0.078458144625    -0.042966166718    0.000004938151    0.000000301608    -0.069910902013    -0.064072561316
0.425     -0.011685178215    -0.069201222236    -0.000055973998    0.000103108616    0.011344462170    -0.061204286402    -0.000031965150    0.000051532616
            -0.000055941805    0.000103198583    -0.020815040116    -0.061420825661    -0.000005527704    0.000034104113    0.002377015069    -0.056357963480
            0.011997679598    -0.061373920172    -0.000005622190    0.000034130073    -0.009024765462    -0.071446627957    0.000002796838    0.000007832587
            -0.000032074316    0.000051563920    0.003004494992    -0.056581905920    0.000002843849    0.000007905783    -0.018064311507    -0.063994309586
0.450     -0.077234981790    -0.170195031943    0.000083614720    0.000191250511    -0.082700515395    -0.145688744151    0.000013118120    0.000070414926
            0.000083727362    0.000191307080    -0.089883009331    -0.154456236380    0.000058341639    0.000038376678    -0.094629975172    -0.130054568859
            -0.082314008735    -0.146359410301    0.000058419193    0.000038359450    -0.081017231205    -0.174549207752    0.000003682400    -0.000004998900
            0.000013216323    0.000070407658    -0.094305515777    -0.130763883471    0.000003774549    -0.000004923148    -0.093919045214    -0.158672574365
0.475     -0.181934413296    -0.028777465288    0.000039799902    0.000051451025    -0.163003348971    0.005985607797    -0.000000401506    0.000053170753
            0.000039913464    0.000051471619    -0.183615213758    -0.005869721604    0.000014360122    -0.000010506696    -0.161709512736    0.026784755056
            -0.162788018214    0.005376484843    0.000014269183    -0.000010587714    -0.180615254427    -0.026241525354    -0.000001509075    0.000009716683
            -0.000000499425    0.000053076841    -0.161570029143    0.026153760088    -0.000001388569    0.000009746309    -0.181787500243    -0.003557691538
0.500     -0.038312021205    0.020582086297    -0.000036703073    0.000214091512    -0.029076181951    0.042035842859    0.000001252957    0.000092115887
            -0.000036521988    0.000214026328    -0.035204354117    0.034997726105    -0.000008809726    0.000064474250    -0.024840768912    0.054179976945
            -0.029319445483    0.040928469000    -0.000008808701    0.000064599445    -0.035124251844    0.012357192641    0.000006148016    0.000007443714
            0.000001257718    0.000092249535    -0.025198413196    0.053117468987    0.000006339293    0.000007372726    -0.032517541862    0.026172407905
0.525     -0.125124128266    -0.089683341597    0.000129459949    0.000129255111    -0.095121289039    -0.031915939288    0.000024677874    0.000052896021
            0.000129503063    0.000128998874    -0.130320060350    -0.070518859932    0.000055985116    0.000007025025    -0.095360852689    -0.016259888206
            -0.096465769793    -0.032286000293    0.000055959586    0.000006988513    -0.133300588129    -0.091105331733    -0.000005026076    -0.000001735589
            0.000024657313    0.000052851402    -0.096740738286    -0.016474842756    -0.000004973132    -0.000001959366    -0.138497718284    -0.071204348185
0.550     -0.184244679881    0.089184617102    -0.000039253888    0.000108821161    -0.106537453441    0.090157579418    0.000000530226    0.000086583387
            -0.000039436996    0.000108682771    -0.173234722522    0.117916810893    -0.000030007075    0.000004860118    -0.096292522613    0.108977330473
            -0.107364157839    0.090989655451    -0.000029980634    0.000004931366    -0.180466563744    0.092731010913    0.000005467461    0.000015197527
            0.000000544927    0.000086655677    -0.097007855653    0.109906603471    0.000005308800    0.000015014939    -0.168583729094    0.120780321902
0.575     -0.002224255886    0.097986564391    0.000068831072    0.000262773041    0.010187420764    0.068539230605    0.000052854935    0.000083633410
            0.000068685868    0.000262781576    0.015356290545    0.106746123285    0.000007458067    0.000080692657    0.022301325382    0.075498908674
            0.010119827837    0.069263776863    0.000007549645    0.000080674890    -0.002040853658    0.089080309816    0.000007663920    -0.000001074588
            0.000052957082    0.000083620877    0.022332480738    0.076220950808    0.000007495282    -0.000001061039    0.014754475089    0.097331561594
0.600     -0.060795364032    -0.008912608750    0.000072622865    0.000063917687    -0.036658607522    0.013118702026    -0.000002464861    0.000030961695
            0.000072474970    0.000063934748    -0.061448939568    0.001782349803    0.000014860521    0.000003043294    -0.034982880203    0.020856390171
            -0.036648496595    0.013839125371    0.000014812223    0.000002981890    -0.067308966759    -0.006416705570    -0.000014011601    0.000004238145
            -0.000002520533    0.000030893485    -0.034884411910    0.021565108657    -0.000014139821    0.000004254397    -0.067338921833    0.004977438942
0.625     -0.061627936889    0.081373885751    -0.000048549420    0.000242912714    -0.013529355861    0.050341651647    0.000007586005    0.000116083814
            -0.000048710123    0.000243102755    -0.049661869371    0.101018268253    -0.000029890736    0.000073835203    -0.007042992598    0.062508037443
            -0.012772269585    0.051159175961    -0.000029866420    0.000073871049    -0.055583855526    0.080121676660    0.000009174267    0.000016990739
            0.000007602884    0.000116127966    -0.006179539942    0.063215438825    0.000008984362    0.000017137149    -0.043240042662    0.098369517479
0.650     -0.007382512826    0.018306231130    0.000165653585    0.000189696583    -0.024395161725    -0.008801074808    0.000053232910    0.000044919102
            0.000165737197    0.000189977606    0.001099660607    0.023822633157    0.000049115901    0.000047365227    -0.020933408747    -0.000210193238
            -0.023150030317    -0.008963908580    0.000049136911    0.000047247931    -0.012522725887    0.010940715563    -0.000003320166    -0.000010808040
            0.000053275737    0.000044804193    -0.019727551454    -0.000557876928    -0.000003260557    -0.000010485645    -0.005048223976    0.016697350788
0.675     -0.070807739505    0.035038707398    -0.000043972144    0.000116362882    -0.068663030232    0.052498635600    -0.000032594410    0.000084757258
            -0.000043727687    0.000116458918    -0.068280157124    0.053287067104    -0.000033741030    0.000034975598    -0.063213086503    0.069553145571
            -0.068055001630    0.051527873302    -0.000033894229    0.000035039146    -0.071017762050    0.038014527114    -0.000013222107    0.000024989910
            -0.000032758139    0.000084809542    -0.062765352815    0.068515350809    -0.000012967339    0.000025093329    -0.067426055512    0.056009566521
0.700     -0.018660750279    0.027641321507    0.000079033755    0.000322439165    -0.006617009689    0.032312196394    0.000055906501    0.000115148268
            0.000079260243    0.000322362095    -0.008104404830    0.041887032446    0.000036257361    0.000098948382    0.002757277096    0.043563696042
            -0.006845308287    0.031315869651    0.000036366103    0.000098959417    -0.017560057997    0.017216534394    0.000014938273    0.000003520895
            0.000056014347    0.000115169508    0.002388898472    0.042611739344    0.000015146851    0.000003456690    -0.008311334820    0.030382623334
0.725     -0.138898142759    0.004211959508    0.000100287025    0.000098596672    -0.115510900432    0.031721001487    -0.000003019222    0.000064704403
            0.000100410719    0.000098398404    -0.136084187217    0.030661681759    0.000009625426    -0.000008263528    -0.108950519315    0.054839962630
            -0.116170799135    0.031168295649    0.000009484194    -0.000008233225    -0.150560940205    0.005361446278    -0.000027691834    0.000013671601
            -0.000003158312    0.000064712279    -0.109699415149    0.054406302154    -0.000027530460    0.000013491681    -0.147314477929    0.033529815905
0.750     -0.104549719415    0.182803780267    -0.000042178180    0.000246274706    -0.059334487293    0.171103775083    0.000042470672    0.000133007708
            -0.000042146347    0.000246110290    -0.072084514970    0.209370711997    -0.000053469185    0.000066051334    -0.029590066716    0.188722732910
            -0.059946246452    0.170823788946    -0.000053354762    0.000066192966    -0.098553552256    0.186215661299    0.000014809524    0.000019420491
            0.000042573422    0.000133163937    -0.030224528173    0.188554630714    0.000014847520    0.000019254503    -0.064865759406    0.210927645095
0.775     0.041178345379    0.092881412047    0.000174375259    0.000264404806    0.050635333820    0.081507707390    0.000075777769    0.000054094584
            0.000174273884    0.000264100998    0.062807776926    0.090892707116    0.000035036190    0.000085083521    0.068467835642    0.078056599265
            0.049458817239    0.081745498669    0.000035061828    0.000084924707    0.035807596581    0.079636101202    -0.000005292262    -0.000006828929
            0.000075796883    0.000053924025    0.067346350731    0.078476047969    -0.000005370640    -0.000007138989    0.055131008658    0.077742223817
