# GHz S RI R 45
0.000     0.082580292000    0.000000000000    0.000001445058    -0.000000000000    0.005364452200    -0.000000000000    0.000002428145    0.000000000000
            0.000001443786    0.000000000000    0.081880790000    -0.000000000000    0.000001090140    0.000000000000    0.005856220000    -0.000000000000
            0.006279246900    -0.000000000000    0.000001089242    0.000000000000    0.085445232000    -0.000000000000    0.000001950551    0.000000000000
            0.000002423089    -0.000000000000    0.006698217100    0.000000000000    0.000001952581    0.000000000000    0.084172200000    -0.000000000000
0.025     0.157667531982    -0.011435612517    0.000008446744    -0.000001219821    0.095447675884    0.030356323132    0.000012965497    -0.000001061267
            0.000008447086    -0.000001204452    0.157382410625    -0.011760173577    0.000005199600    -0.000001516879    0.095013645038    0.029445057934
            0.095160237133    0.029569733908    0.000005194314    -0.000001526028    0.157133799198    -0.012026874963    0.000009741090    -0.000001333167
            0.000012959353    -0.000001069037    0.095606664909    0.028899620354    0.000009748421    -0.000001341463    0.157545520503    -0.011413650525
0.050     0.061667436731    -0.076665755570    -0.000015049605    0.000021493711    0.034446263911    -0.031496146754    -0.000022164317    0.000033795832
            -0.000014993574    0.000021502748    0.061177692300    -0.076639236070    -0.000009947605    0.000013361250    0.033543915270    -0.030957149092
            0.033695183223    -0.030906073563    -0.000009981028    0.000013385549    0.060796393652    -0.076375049556    -0.000017002816    0.000024986752
            -0.000022189761    0.000033820390    0.033504909003    -0.031833974554    -0.000017036859    0.000024953409    0.061296880788    -0.077354435497
0.075     0.096931860130    0.056451641072    0.000047639666    0.000031368285    0.088322888050    0.094769028641    0.000070356731    0.000052680157
            0.000047626932    0.000031292677    0.097569743420    0.055043696533    0.000031849023    0.000015587378    0.089826608259    0.093898178258
            0.089107022458    0.095208723350    0.000031869711    0.000015594576    0.097148888479    0.056480704895    0.000054531601    0.000037048194
            0.000070379044    0.000052680691    0.089274782956    0.093397109475    0.000054526072    0.000037126516    0.096619322213    0.054752490340
0.100     0.196350155522    -0.076954651242    0.000011602562    -0.000018843298    0.201601961721    -0.058695258600    0.000019818750    -0.000024745252
            0.000011595925    -0.000018821504    0.194326399608    -0.079383435116    0.000003925017    -0.000014245025    0.200063791353    -0.062353690979
            0.201652387522    -0.059548640412    0.000003904407    -0.000014260721    0.195436061084    -0.077770688757    0.000013921736    -0.000021179033
            0.000019784824    -0.000024756864    0.199330219787    -0.062554037101    0.000013963103    -0.000021193290    0.193368091175    -0.078993004292
0.125     0.036473629529    -0.107874942501    -0.000009833436    0.000066574493    0.023731454494    -0.104112497842    -0.000010207581    0.000104346526
            -0.000009810609    0.000066481055    0.034958747144    -0.108146248096    -0.000008868802    0.000041175051    0.020882226351    -0.104457655166
            0.022747571626    -0.103767604271    -0.000008876193    0.000041339878    0.035508714493    -0.106669327511    -0.000009534008    0.000077428219
            -0.000010192457    0.000104501089    0.019940895768    -0.103934616984    -0.000009564264    0.000077377184    0.035156935308    -0.106849605186
0.150     0.129672143434    0.003375889190    0.000101736549    0.000004040451    0.112703366528    0.020299658608    0.000154724690    0.000015006447
            0.000101579440    0.000004042577    0.127415261447    -0.000341838362    0.000061919372    -0.000005625395    0.111196245518    0.017661096843
            0.113449014701    0.021120757523    0.000062067769    -0.000005768873    0.130875947699    0.003289057342    0.000117631366    0.000005587184
            0.000154858887    0.000014868124    0.111263720987    0.018683374565    0.000117644862    0.000005696781    0.128456135339    -0.001151907746
0.175     0.144732364346    -0.173513721937    -0.000008243828    -0.000022465932    0.134157181701    -0.163902554510    -0.000008391989    -0.000028981680
            -0.000008219550    -0.000022373757    0.138040996003    -0.175007479370    -0.000011682950    -0.000013862714    0.128121653600    -0.166673289223
            0.134739328339    -0.164673536298    -0.000011753937    -0.000013898098    0.143694780633    -0.174411539430    -0.000008860810    -0.000025291421
            -0.000008476304    -0.000029018829    0.128650406540    -0.166236088642    -0.000008814122    -0.000025329355    0.136491110847    -0.175070548070
0.200     -0.031878472532    -0.143406057829    0.000033472456    0.000102631720    -0.057690989587    -0.137221931397    0.000062632766    0.000157598845
            0.000033418553    0.000102605093    -0.036805583245    -0.142184867753    0.000014599505    0.000064757506    -0.063994110457    -0.135702951553
            -0.058489399857    -0.137513974769    0.000014627774    0.000064837241    -0.032005034956    -0.141743327182    0.000043315733    0.000118549168
            0.000062670745    0.000157685021    -0.063451092855    -0.135409526040    0.000043354584    0.000118501318    -0.035298420954    -0.139695856471
0.225     0.045855531710    -0.066562555920    0.000130324034    -0.000039817685    0.022531397410    -0.046727462099    0.000198481704    -0.000056208185
            0.000130271547    -0.000039683422    0.037894927578    -0.065974008601    0.000075009103    -0.000028349956    0.015734581294    -0.045516453963
            0.022864895592    -0.046614192577    0.000075016003    -0.000028549211    0.046450933979    -0.067134444294    0.000150313649    -0.000047731987
            0.000198466462    -0.000056397199    0.016340792784    -0.045749604085    0.000150343773    -0.000047709076    0.039633043316    -0.067279748312
0.250     0.033533416266    -0.165612916714    -0.000016471320    -0.000000638390    0.008763658060    -0.110219264752    -0.000018788376    0.000004087636
            -0.000016261448    -0.000000603368    0.026616830490    -0.161472396637    -0.000016256264    0.000005179615    0.004084886296    -0.106537396842
            0.009529906541    -0.110797121009    -0.000016440088    0.000005190560    0.031670202357    -0.166988229867    -0.000018036885    0.000000814369
            -0.000018967393    0.000004101651    0.004445680391    -0.107667506177    -0.000018072818    0.000000802609    0.023463909417    -0.162541499283
0.275     -0.065173606145    -0.079980053742    0.000145801504    0.000079208811    -0.048343230725    -0.031667832001    0.000224069625    0.000118340096
            0.000145818004    0.000079058997    -0.071681219910    -0.077251447775    0.000091549789    0.000049783174    -0.053684955139    -0.030284554025
            -0.049148129489    -0.032472810329    0.000091447897    0.000049889546    -0.064763612073    -0.078653612713    0.000172240770    0.000088677231
            0.000223983197    0.000118450879    -0.054329538387    -0.031084177551    0.000172327569    0.000088716266    -0.069707065192    -0.074821628173
0.300     0.015250852622    -0.044930956097    0.000112621512    -0.000129483083    0.018625855681    -0.027499755178    0.000170965092    -0.000187345071
            0.000112674197    -0.000129425481    0.007403777428    -0.037242119341    0.000059882152    -0.000081987009    0.011346825608    -0.020559886084
            0.017893254688    -0.026594113783    0.000059902190    -0.000081904711    0.016096226656    -0.047257048143    0.000127346922    -0.000150781672
            0.000171001635    -0.000187257998    0.010637038577    -0.020691091471    0.000127254061    -0.000150933424    0.009135849084    -0.041503221761
0.325     -0.012733569961    -0.081099749597    0.000019673700    0.000020557608    -0.013217430480    -0.030556598883    0.000033253013    0.000034063240
            0.000019808531    0.000020286917    -0.014900473958    -0.076503441778    0.000014798982    0.000021827237    -0.013132428874    -0.026503929302
            -0.012345710318    -0.030155277597    0.000014859537    0.000021960147    -0.014845245277    -0.081017494837    0.000025010943    0.000026079896
            0.000033328522    0.000034148375    -0.013869639416    -0.026374515219    0.000024817116    0.000026277136    -0.018332227206    -0.076113443014
0.350     0.007642721743    -0.043995042755    0.000209715835    -0.000078202766    0.055370813180    -0.016252699397    0.000315777391    -0.000103648042
            0.000209301158    -0.000078321813    -0.003571305220    -0.040781036254    0.000129187672    -0.000064068779    0.046012072087    -0.017053818722
            0.055227151716    -0.017146784942    0.000129281345    -0.000064058293    0.009491991613    -0.043487952232    0.000244024969    -0.000093240073
            0.000315806442    -0.000103647522    0.045391462832    -0.016292587481    0.000244403337    -0.000093137282    0.000135821787    -0.039218965814
0.375     0.008106025332    -0.112907012745    -0.000015657827    -0.000178486762    0.018360952391    -0.128428429209    -0.000006000339    -0.000263003671
            -0.000015635969    -0.000178232278    0.000401311543    -0.100540169075    -0.000031592251    -0.000100741242    0.008100258044    -0.118435348973
            0.017407575438    -0.127708814867    -0.000031503556    -0.000100712613    0.007351804444    -0.115195341110    -0.000018111830    -0.000205036563
            -0.000005885754    -0.000262911597    0.008294685062    -0.117372523434    -0.000018243880    -0.000205372522    0.000805477096    -0.104761483520
0.400     -0.063677207496    -0.072019492573    0.000051419488    0.000032934671    -0.074493438145    -0.050886767166    0.000081694587    0.000045572860
            0.000051357372    0.000032799548    -0.069408474531    -0.065941693973    0.000039551053    0.000030520869    -0.079398420736    -0.043569237223
            -0.073349058511    -0.049907259522    0.000039917601    0.000030402501    -0.063733784582    -0.069856240080    0.000066228560    0.000037118693
            0.000082063215    0.000045386018    -0.078458144625    -0.042966166718    0.000065968116    0.000037404866    -0.069910902013    -0.064072561316
0.425     -0.006265507495    -0.075889540334    0.000143167059    -0.000214606416    0.015716401723    -0.067582858758    0.000225146521    -0.000307193662
            0.000142999735    -0.000214269893    -0.020815040116    -0.061420825661    0.000071143373    -0.000146243707    0.002377015069    -0.056357963480
            0.016061405683    -0.068120027112    0.000070892816    -0.000146604375    -0.003911532733    -0.078177942912    0.000164895625    -0.000253252322
            0.000224879125    -0.000307504177    0.003004494992    -0.056581905920    0.000165246290    -0.000253267952    -0.018064311507    -0.063994309586
0.450     -0.082022692241    -0.172893094556    -0.000126999520    -0.000113099295    -0.085549487729    -0.146703896167    -0.000175432844    -0.000182788394
            -0.000126559623    -0.000113055095    -0.089883009331    -0.154456236380    -0.000089750171    -0.000038475836    -0.094629975172    -0.130054568859
            -0.086640453875    -0.146974478405    -0.000089849367    -0.000038179479    -0.086009703805    -0.175448426665    -0.000145237401    -0.000129845456
            -0.000175502494    -0.000182464436    -0.094305515777    -0.130763883471    -0.000145528234    -0.000130152958    -0.093919045214    -0.158672574365
0.475     -0.177456283915    -0.025551386509    0.000090048343    0.000023853653    -0.157598398450    0.007502367150    0.000135364578    0.000029787540
            0.000089996652    0.000023740545    -0.183615213758    -0.005869721604    0.000066205996    0.000020367210    -0.161709512736    0.026784755056
            -0.157306462590    0.008366956322    0.000066402393    0.000020261688    -0.175720848490    -0.022461015743    0.000113006937    0.000021592395
            0.000135579510    0.000029640691    -0.161570029143    0.026153760088    0.000112873865    0.000021792865    -0.181787500243    -0.003557691538
0.500     -0.034201918315    0.010355596410    0.000082000731    -0.000304357896    -0.026318653540    0.033054812876    0.000120203494    -0.000446732255
            0.000082240368    -0.000304240183    -0.035204354117    0.034997726105    0.000038931054    -0.000190495239    -0.024840768912    0.054179976945
            -0.025502122019    0.032088095395    0.000038258632    -0.000190718752    -0.031264850032    0.003239859096    0.000082400685    -0.000359508836
            0.000119525775    -0.000446946522    -0.025198413196    0.053117468987    0.000082694290    -0.000359412960    -0.032517541862    0.026172407905
0.525     -0.130777251489    -0.089254314836    -0.000171228423    -0.000046942869    -0.097588158111    -0.030585305218    -0.000253521002    -0.000085285207
            -0.000171078962    -0.000047376168    -0.130320060350    -0.070518859932    -0.000096437337    0.000003124799    -0.095360852689    -0.016259888206
            -0.098815672682    -0.031351246092    -0.000096229984    0.000003760415    -0.137942006942    -0.090085654922    -0.000193052691    -0.000049903312
            -0.000253342442    -0.000084627142    -0.096740738286    -0.016474842756    -0.000193247586    -0.000050079323    -0.138497718284    -0.071204348185
0.550     -0.176344433428    0.090238957095    0.000132368729    -0.000056868233    -0.098718878333    0.087793830660    0.000190310375    -0.000083520322
            0.000132022133    -0.000056990151    -0.173234722522    0.117916810893    0.000094039518    -0.000040727103    -0.096292522613    0.108977330473
            -0.099380644676    0.088916339051    0.000094169037    -0.000040684600    -0.172978209893    0.094028088009    0.000159002580    -0.000078322695
            0.000190487073    -0.000083499615    -0.097007855653    0.109906603471    0.000159110781    -0.000078258595    -0.168583729094    0.120780321902
0.575     -0.000968254861    0.085805663146    -0.000068749179    -0.000359249064    0.008909845920    0.057712113757    -0.000106525936    -0.000526019850
            -0.000068715414    -0.000359223748    0.015356290545    0.106746123285    -0.000052587318    -0.000216916318    0.022301325382    0.075498908674
            0.009859882275    0.058198463718    -0.000052393296    -0.000216901826    -0.000276528326    0.078780397678    -0.000098127713    -0.000414831633
            -0.000106355750    -0.000526042155    0.022332480738    0.076220950808    -0.000098324575    -0.000414799908    0.014754475089    0.097331561594
0.600     -0.063879782485    -0.008429465237    -0.000189827756    0.000006927260    -0.037864582108    0.014406520285    -0.000290110100    0.000001033186
            -0.000190150655    0.000006710319    -0.061448939568    0.001782349803    -0.000092978709    0.000023946802    -0.034982880203    0.020856390171
            -0.037885293601    0.013666806637    -0.000092691740    0.000023941943    -0.069132238966    -0.006381795254    -0.000206379829    0.000011090757
            -0.000289872347    0.000001030923    -0.034884411910    0.021565108657    -0.000206221836    0.000011295103    -0.067338921833    0.004977438942
0.625     -0.055248815374    0.072851922509    0.000065430835    -0.000217201619    -0.008079815981    0.040724611063    0.000090136166    -0.000302629129
            0.000065014108    -0.000216657463    -0.049661869371    0.101018268253    0.000040002805    -0.000159498937    -0.007042992598    0.062508037443
            -0.008850233396    0.041335868527    0.000040078647    -0.000159684138    -0.050595975312    0.072654053130    0.000069622447    -0.000267019683
            0.000090189315    -0.000302749495    -0.006179539942    0.063215438825    0.000069923624    -0.000267438761    -0.043240042662    0.098369517479
0.650     -0.016736729122    0.008968721585    -0.000371723021    -0.000224553502    -0.033928739144    -0.016195435510    -0.000532937668    -0.000342595606
            -0.000371123303    -0.000224304665    0.001099660607    0.023822633157    -0.000252072424    -0.000104690723    -0.020933408747    -0.000210193238
            -0.032792052416    -0.015176085717    -0.000251889549    -0.000105107947    -0.019699389338    0.004379122197    -0.000434019419    -0.000247360056
            -0.000532644961    -0.000342993958    -0.019727551454    -0.000557876928    -0.000434803502    -0.000247239211    -0.005048223976    0.016697350788
0.675     -0.070544458817    0.035723800645    -0.000104230691    0.000106089624    -0.067393312961    0.053424053573    -0.000187896113    0.000153492246
            -0.000104364906    0.000105951825    -0.068280157124    0.053287067104    -0.000020202793    0.000067816865    -0.063213086503    0.069553145571
            -0.066318903246    0.052103747447    -0.000020594218    0.000067325053    -0.069217696916    0.037462613791    -0.000110789813    0.000109820053
            -0.000188342959    0.000152916055    -0.062765352815    0.068515350809    -0.000110278363    0.000110398840    -0.067426055512    0.056009566521
0.700     -0.022960440993    0.013460141762    -0.000148738057    -0.000288537263    -0.009921912025    0.019786250074    -0.000210093192    -0.000401301945
            -0.000148302288    -0.000288040664    -0.008104404830    0.041887032446    -0.000123356164    -0.000198977007    0.002757277096    0.043563696042
            -0.011229696330    0.019049055810    -0.000124233825    -0.000198410745    -0.022631812806    0.005177719449    -0.000192328317    -0.000339100977
            -0.000210944335    -0.000400664271    0.002388898472    0.042611739344    -0.000192067282    -0.000340027420    -0.008311334820    0.030382623334
0.725     -0.152080080058    0.008785446970    -0.000399453667    0.000156894295    -0.124812405560    0.034626892145    -0.000614842031    0.000189108994
            -0.000399134915    0.000156013981    -0.136084187217    0.030661681759    -0.000216224040    0.000161932303    -0.108950519315    0.054839962630
            -0.124720702599    0.035626373278    -0.000215683824    0.000162109297    -0.159519146209    0.011197079985    -0.000455070144    0.000183731217
            -0.000614256802    0.000189235437    -0.109699415149    0.054406302154    -0.000455806158    0.000184372460    -0.147314477929    0.033529815905
0.750     -0.098661242123    0.183933674222    0.000037403483    0.000092105522    -0.055318639623    0.169503417434    0.000017985160    0.000170034036
            0.000037053368    0.000092122660    -0.072084514970    0.209370711997    0.000063106900    0.000024413199    -0.029590066716    0.188722732910
            -0.054522533333    0.168698297166    0.000062843294    0.000024191696    -0.091673615875    0.185161588364    0.000041473227    0.000092058805
            0.000017637257    0.000169745397    -0.030224528173    0.188554630714    0.000042060489    0.000092290883    -0.064865759406    0.210927645095
0.775     0.032020180695    0.078926268003    -0.000274141793    -0.000252272687    0.041875100030    0.070423984193    -0.000401962158    -0.000351742713
            -0.000273992122    -0.000252497025    0.062807776926    0.090892707116    -0.000198830207    -0.000161584638    0.068467835642    0.078056599265
            0.040419004965    0.069640274518    -0.000199264141    -0.000160395913    0.026695429574    0.067734186541    -0.000346700199    -0.000282438489
