# GHz S RI R 45
0.000     0.089094171000    -0.000000000000    0.912601300000    0.000000000000    0.003397045000    -0.000000000000    -0.006116894500    0.000000000000
            0.912602410000    0.000000000000    0.081880790000    -0.000000000000    -0.005922620000    0.000000000000    0.005856220000    -0.000000000000
            0.004241728600    0.000000000000    -0.005313916500    -0.000000000000    0.085973968000    -0.000000000000    0.912747050000    0.000000000000
            -0.005505868000    -0.000000000000    0.006698217100    0.000000000000    0.912746060000    0.000000000000    0.084172200000    -0.000000000000
0.025     0.157383173972    -0.011759083479    0.278781278236    -0.855004078807    0.095013677482    0.029444926218    -0.013145338345    0.010725971161
            0.278781260214    -0.855004074165    0.157382410625    -0.011760173577    -0.013145380730    0.010725696183    0.095013645038    0.029445057934
            0.095606639752    0.028899665562    -0.012875165790    0.010149692664    0.157544960221    -0.011413910946    0.277281638713    -0.855773515769
            -0.012875576881    0.010150195277    0.095606664909    0.028899620354    0.277281689686    -0.855773520277    0.157545520503    -0.011413650525
0.050     0.061178493797    -0.076639236036    -0.726300063372    -0.539526669392    0.033543655422    -0.030957324488    -0.005803220791    0.014107741793
            -0.726300063372    -0.539526669392    0.061177692300    -0.076639236070    -0.005803096073    0.014107732543    0.033543915270    -0.030957149092
            0.033504688172    -0.031834128578    -0.006312312799    0.013580642305    0.061295835460    -0.077354969090    -0.728490685141    -0.537238627474
            -0.006312433322    0.013580653553    0.033504909003    -0.031833974554    -0.728490685141    -0.537238627474    0.061296880788    -0.077354435497
0.075     0.097569777597    0.055041967060    -0.714156583840    0.523098699776    0.089826284694    0.093898460114    0.040089007093    0.025406365994
            -0.714156583840    0.523098699776    0.097569743420    0.055043696533    0.040089765508    0.025406536731    0.089826608259    0.093898178258
            0.089274406867    0.093397427462    0.039393513252    0.025798910872    0.096617354310    0.054755131311    -0.711873840115    0.527365229875
            0.039393184074    0.025798926163    0.089274782956    0.093397109475    -0.711873832080    0.527365223922    0.096619322213    0.054752490340
0.100     0.194327107710    -0.079383023880    0.236207410315    0.823835077425    0.200063736000    -0.062353700544    0.012711735603    -0.047886978397
            0.236207410315    0.823835077425    0.194326399608    -0.079383435116    0.012711010934    -0.047887564950    0.200063791353    -0.062353690979
            0.199330164438    -0.062554046483    0.012883877458    -0.047072321157    0.193367556807    -0.078992699359    0.242571634129    0.822608328916
            0.012884600253    -0.047071738672    0.199330219787    -0.062554037101    0.242571634129    0.822608328916    0.193368091175    -0.078993004292
0.125     0.034967669820    -0.108147672392    0.879997663023    0.056534623845    0.020881006895    -0.104457643996    -0.013221707540    -0.018749300448
            0.879997662924    0.056534625381    0.034958747144    -0.108146248096    -0.013207855692    -0.018750120063    0.020882226351    -0.104457655166
            0.019939676889    -0.103934606454    -0.012292514473    -0.018790019752    0.035138463608    -0.106850133557    0.880809379197    0.048347410435
            -0.012306310408    -0.018789210852    0.019940895768    -0.103934616984    0.880809389436    0.048347406371    0.035156935308    -0.106849605186
0.150     0.127411074746    -0.000344321298    0.303460542966    -0.819917984896    0.111195679757    0.017662427624    -0.057052723133    -0.003176517557
            0.303460542966    -0.819917984896    0.127415261447    -0.000341838362    -0.057057217355    -0.003182551579    0.111196245518    0.017661096843
            0.111263152163    0.018684708863    -0.056925618834    -0.004049442430    0.128455732700    -0.001148850611    0.294630958438    -0.823374303984
            -0.056921087960    -0.004043398830    0.111263720987    0.018683374565    0.294630958438    -0.823374303984    0.128456135339    -0.001151907746
0.175     0.138047647791    -0.175006728486    -0.639550499472    -0.546067906478    0.128120859732    -0.166673647205    0.011250351238    0.059648502723
            -0.639550499472    -0.546067906478    0.138040996003    -0.175007479370    0.011247550923    0.059648894463    0.128121653600    -0.166673289223
            0.128649616819    -0.166236446909    0.010567506456    0.059290075293    0.136476035626    -0.175071155066    -0.646748552809    -0.538200506906
            0.010570312413    0.059289662464    0.128650406540    -0.166236088642    -0.646748552809    -0.538200506906    0.136491110847    -0.175070548070
0.200     -0.036802807798    -0.142197981596    -0.752178739699    0.415073054773    -0.063996490799    -0.135699772555    0.029568944659    0.001403147278
            -0.752178748454    0.415073059604    -0.036805583245    -0.142184867753    0.029568381944    0.001405846791    -0.063994110457    -0.135702951553
            -0.063453489845    -0.135406337676    0.028970897791    0.001949481274    -0.035310949891    -0.139676568386    -0.746122793253    0.426415976726
            0.028971440373    0.001946778144    -0.063451092855    -0.135409526040    -0.746122793253    0.426415976726    -0.035298420954    -0.139695856471
0.225     0.037890540824    -0.065977768941    0.172055481702    0.857043621882    0.015734736556    -0.045514212203    0.038897788785    -0.014023385921
            0.172055481702    0.857043621882    0.037894927578    -0.065974008601    0.038900543486    -0.014023832808    0.015734581294    -0.045516453963
            0.016340955676    -0.045747360558    0.039325210870    -0.013274814746    0.039636246988    -0.067270060206    0.186104050261    0.853681244421
            0.039322462984    -0.013274344335    0.016340792784    -0.045749604085    0.186104065160    0.853681241173    0.039633043316    -0.067279748312
0.250     0.026619996762    -0.161480347520    0.849504191499    0.105902332167    0.004080376034    -0.106537199409    -0.012313478589    -0.052788423155
            0.849504191684    0.105902330684    0.026616830490    -0.161472396637    -0.012314606672    -0.052787886862    0.004084886296    -0.106537396842
            0.004441164568    -0.107667322230    -0.011634779619    -0.052918012458    0.023447037767    -0.162535638938    0.851010913898    0.090952542086
            -0.011633641855    -0.052918562595    0.004445680391    -0.107667506177    0.851010913740    0.090952543571    0.023463909417    -0.162541499283
0.275     -0.071688563563    -0.077263472921    0.382549715676    -0.769144194879    -0.053687796887    -0.030278215160    -0.049157583195    -0.012095404587
            0.382549715676    -0.769144194879    -0.071681219910    -0.077251447775    -0.049156906122    -0.012095774829    -0.053684955139    -0.030284554025
            -0.054332380217    -0.031077836450    -0.048978149763    -0.012786071968    -0.069713263826    -0.074793489747    0.367373235107    -0.776662253353
            -0.048978842618    -0.012785714114    -0.054329538387    -0.031084177551    0.367373235107    -0.776662253353    -0.069707065192    -0.074821628173
0.300     0.007399950810    -0.037244280731    -0.611606700081    -0.606218718936    0.011346283459    -0.020559131056    -0.041159177821    0.048140278106
            -0.611606700081    -0.606218718936    0.007403777428    -0.037242119341    -0.041158555058    0.048140434272    0.011346825608    -0.020559886084
            0.010636502435    -0.020690341637    -0.041818828480    0.047706494846    0.009136359792    -0.041498152414    -0.624369338475    -0.592537723852
            -0.041819443871    0.047706357004    0.010637038577    -0.020691091471    -0.624369338475    -0.592537723852    0.009135849084    -0.041503221761
0.325     -0.014903540447    -0.076517264487    -0.763554975003    0.384031484187    -0.013140044777    -0.026498312621    0.037579590597    0.061795108572
            -0.763554975003    0.384031484187    -0.014900473958    -0.076503441778    0.037579419373    0.061794234248    -0.013132428874    -0.026503929302
            -0.013877262280    -0.026368898266    0.036950478193    0.062337485971    -0.018355742055    -0.076087626760    -0.754187542410    0.401305168782
            0.036950665925    0.062338355823    -0.013869639416    -0.026374515219    -0.754187542410    0.401305168782    -0.018332227206    -0.076113443014
0.350     -0.003584853832    -0.040785017355    0.121887675143    0.840377357235    0.046013689616    -0.017045677419    0.082811531197    -0.016581382814
            0.121887675143    0.840377357235    -0.003571305220    -0.040781036254    0.082811292253    -0.016582922435    0.046012072087    -0.017053818722
            0.045393093814    -0.016284433154    0.083176700147    -0.015778550332    0.000146495266    -0.039186721173    0.142861775960    0.836839267552
            0.083176923263    -0.015777036071    0.045391462832    -0.016292587481    0.142861777642    0.836839277409    0.000135821787    -0.039218965814
0.375     0.000402797773    -0.100546283181    0.821166027097    0.153140206278    0.008094948630    -0.118434388905    0.003224064133    -0.093027105159
            0.821166027097    0.153140206278    0.000401311543    -0.100540169075    0.003220920661    -0.093024487417    0.008100258044    -0.118435348973
            0.008289375141    -0.117371585301    0.004153524166    -0.093199950483    0.000793092455    -0.104753037764    0.824239795510    0.131052034518
            0.004156648183    -0.093202534912    0.008294685062    -0.117372523434    0.824239806072    0.131052031772    0.000805477096    -0.104761483520
0.400     -0.069421864283    -0.065959002572    0.414850338602    -0.722462772205    -0.079403916748    -0.043555250790    -0.085059491888    -0.034349222113
            0.414850351211    -0.722462764964    -0.069408474531    -0.065941693973    -0.085056242830    -0.034348169050    -0.079398420736    -0.043569237223
            -0.078463636710    -0.042952175504    -0.085043309633    -0.035345756706    -0.069920532574    -0.064022426435    0.394282286845    -0.733381108629
            -0.085046513800    -0.035346809905    -0.078458144625    -0.042966166718    0.394282286845    -0.733381108629    -0.069910902013    -0.064072561316
0.425     -0.020828161157    -0.061420396374    -0.557705289153    -0.615793087867    0.002380666943    -0.056353066110    -0.076945766662    0.079343688008
            -0.557705295866    -0.615793095279    -0.020815040116    -0.061420825661    -0.076943004640    0.079344054132    0.002377015069    -0.056357963480
            0.003008163142    -0.056577025414    -0.077914720941    0.079164980023    -0.018045137732    -0.063975325116    -0.575818620672    -0.598187692276
            -0.077917474310    0.079164599238    0.003004494992    -0.056581905920    -0.575818620672    -0.598187692276    -0.018064311507    -0.063994309586
0.450     -0.089888061047    -0.154470188776    -0.734315037013    0.318469117676    -0.094640631546    -0.130045787904    0.077488957870    0.094199366246
            -0.734315046187    0.318469121655    -0.089883009331    -0.154456236380    0.077486982460    0.094191888260    -0.094629975172    -0.130054568859
            -0.094316195399    -0.130755120395    0.077122230667    0.095019409438    -0.093941989723    -0.158641151966    -0.722604609524    0.340925650228
            0.077124179126    0.095026907850    -0.094305515777    -0.130763883471    -0.722604609524    0.340925650228    -0.093919045214    -0.158672574365
0.475     -0.183642224528    -0.005878574090    0.034592396946    0.792359301315    -0.161706570505    0.026804102348    0.090730369806    -0.042323273789
            0.034592383552    0.792359311910    -0.183615213758    -0.005869721604    0.090724766005    -0.042318799262    -0.161709512736    0.026784755056
            -0.161567078858    0.026173105198    0.091429373640    -0.041723534197    -0.181767350001    -0.003499283154    0.060199004368    0.790230826652
            0.091434996144    -0.041727978073    -0.161570029143    0.026153760088    0.060199004368    0.790230826652    -0.181787500243    -0.003557691538
0.500     -0.035217579333    0.035001220184    0.781573270099    0.231511837685    -0.024839220985    0.054183365306    0.016981032469    -0.096993290989
            0.781573283728    0.231511826884    -0.035204354117    0.034997726105    0.016982809870    -0.096992411275    -0.024840768912    0.054179976945
            -0.025196887123    0.053120835948    0.017692931373    -0.097631356235    -0.032506027825    0.026181908681    0.788917638741    0.203501314909
            0.017691196080    -0.097632269283    -0.025198413196    0.053117468987    0.788917625506    0.203501326180    -0.032517541862    0.026172407905
0.525     -0.130343271722    -0.070529420187    0.443637715351    -0.661666923839    -0.095367896542    -0.016238600065    -0.115474728081    -0.051481840278
            0.443637715351    -0.661666923839    -0.130320060350    -0.070518859932    -0.115470557298    -0.051479014464    -0.095360852689    -0.016259888206
            -0.096747788574    -0.016453525776    -0.115937320945    -0.052099944442    -0.138506079667    -0.071142306548    0.418400531853    -0.675887247083
            -0.115941563418    -0.052102775166    -0.096740738286    -0.016474842756    0.418400538386    -0.675887231278    -0.138497718284    -0.071204348185
0.550     -0.173261125295    0.117927746948    -0.449967899727    -0.628814759103    -0.096279285077    0.108993015286    -0.064147667421    0.094586031835
            -0.449967899727    -0.628814759103    -0.173234722522    0.117916810893    -0.064147781148    0.094579731981    -0.096292522613    0.108977330473
            -0.096994569839    0.109922289584    -0.064712785047    0.094715821932    -0.168535931258    0.120821232166    -0.472497823758    -0.611663251933
            -0.064712654093    0.094722160697    -0.097007855653    0.109906603471    -0.472497723116    -0.611663342313    -0.168583729094    0.120780321902
0.575     0.015343899963    0.106747117020    -0.763598404774    0.212112807032    0.022297370641    0.075505412208    0.044534148445    0.092606420236
            -0.763598395139    0.212112804356    0.015356290545    0.106746123285    0.044532363570    0.092607811169    0.022301325382    0.075498908674
            0.022328508473    0.076227445536    0.044388063153    0.093201639865    0.014754187538    0.097349523535    -0.754579114810    0.242875223096
            0.044389871725    0.093200224680    0.022332480738    0.076220950808    -0.754579124329    0.242875226160    0.014754475089    0.097331561594
0.600     -0.061483830350    0.001789612510    -0.029559099243    0.795936923750    -0.034976561548    0.020885485896    0.123756718580    -0.004191236571
            -0.029559098872    0.795936913757    -0.061448939568    0.001782349803    0.123754099057    -0.004191178130    -0.034982880203    0.020856390171
            -0.034878073898    0.021594219913    0.124325309631    -0.003897934081    -0.067309320325    0.005047285432    0.003661008689    0.795215882783
            0.124327908341    -0.003898015992    -0.034884411910    0.021565108657    0.003661008735    0.795215892783    -0.067338921833    0.004977438942
0.625     -0.049673825110    0.101041518678    0.731779194094    0.283854606295    -0.007027843478    0.062514521404    0.033883697562    -0.123312497641
            0.731779179817    0.283854615451    -0.049661869371    0.101018268253    0.033884795219    -0.123310536714    -0.007042992598    0.062508037443
            -0.006164389130    0.063221888502    0.034315291885    -0.123713677348    -0.043193131833    0.098379858624    0.743118965181    0.252421046758
            0.034314166125    -0.123715587742    -0.006179539942    0.063215438825    0.743118988524    0.252421040220    -0.043240042662    0.098369517479
0.650     0.001080061029    0.023822371612    0.504135050858    -0.603478742464    -0.020939546566    -0.000190269466    -0.111401654390    -0.084457096928
            0.504135071923    -0.603478724866    0.001099660607    0.023822633157    -0.111400007576    -0.084454899271    -0.020933408747    -0.000210193238
            -0.019733711285    -0.000537938819    -0.111634357413    -0.085073570616    -0.005045633760    0.016739648169    0.475795538923    -0.625776791885
            -0.111635935368    -0.085075789527    -0.019727551454    -0.000557876928    0.475795517079    -0.625776808493    -0.005048223976    0.016697350788
0.675     -0.068309964164    0.053315278616    -0.404202610457    -0.660045719718    -0.063190062515    0.069578593336    -0.119361002213    0.090224017443
            -0.404202620901    -0.660045736774    -0.068280157124    0.053287067104    -0.119358392269    0.090219327650    -0.063213086503    0.069553145571
            -0.062742302084    0.068540799630    -0.120113151033    0.090348734883    -0.067362329630    0.056049882503    -0.434199075673    -0.639991425328
            -0.120115789571    0.090353378492    -0.062765352815    0.068515350809    -0.434199070059    -0.639991417052    -0.067426055512    0.056009566521
0.700     -0.008110045188    0.041907124815    -0.754172499814    0.169680328402    0.002764035476    0.043566899045    0.043985849145    0.150954850946
            -0.754172519326    0.169680332792    -0.008104404830    0.041887032446    0.043984777892    0.150953881938    0.002757277096    0.043563696042
            0.002395622574    0.042614935479    0.044020836122    0.151763003295    -0.008291440814    0.030382122055    -0.744963196297    0.206959977227
            0.044021878328    0.151764002511    0.002388898472    0.042611739344    -0.744963167392    0.206959969196    -0.008311334820    0.030382623334
0.725     -0.136114144225    0.030682086236    -0.066788880722    0.743942144702    -0.108941529608    0.054874025911    0.179011420043    -0.012932363685
            -0.066788869526    0.743942165788    -0.136084187217    0.030661681759    0.179004784338    -0.012931093201    -0.108950519315    0.054839962630
            -0.109690416041    0.054440415754    0.179777178108    -0.012857079305    -0.147278412137    0.033584175466    -0.028541744366    0.744342345611
            0.179783855549    -0.012858334914    -0.109699415149    0.054406302154    -0.028541743599    0.744342325626    -0.147314477929    0.033529815905
0.750     -0.072094202490    0.209412504791    0.644997781624    0.321575471262    -0.029558144682    0.188733697037    0.018031246383    -0.157497709592
            0.644997796186    0.321575464467    -0.072084514970    0.209370711997    0.018037315273    -0.157492243687    -0.029590066716    0.188722732910
            -0.030192605090    0.188565578451    0.018294186342    -0.158209519527    -0.064802583173    0.210928306046    0.659676560084    0.288853756198
            0.018288129070    -0.158215021590    -0.030224528173    0.188554630714    0.659676536722    0.288853759689    -0.064865759406    0.210927645095
0.775     0.062797292954    0.090914219489    0.543129825270    -0.515507623344    0.068470043372    0.078066674190    -0.115866280814    -0.088308229124
            0.543129807276    -0.515507642303    0.062807776926    0.090892707116    -0.115865698356    -0.088311269893    0.068467835642    0.078056599265
            0.067348560407    0.078486156235    -0.116656562581    -0.088667358534    0.055141487605    0.077754688206    0.514458784404    -0.545466317752
