# GHz S RI R 45
0.000     0.091506367000    -0.000000000000    0.000016961841    -0.000000000000    0.002732763500    0.000000000000    0.000015579041    0.000000000000
            0.000025155826    -0.000000000000    0.081880790000    -0.000000000000    -0.000018943181    0.000000000000    0.005856220000    -0.000000000000
            0.003167524800    0.000000000000    -0.000077552538    -0.000000000000    0.086651191000    -0.000000000000    0.000014002981    0.000000000000
            -0.000020790452    -0.000000000000    0.006698217100    0.000000000000    0.000004959132    -0.000000000000    0.084172200000    -0.000000000000
0.025     0.157037407578    -0.013957394021    -0.000044959084    -0.000013778146    0.095548528813    0.029597726443    -0.000038240908    -0.000015036763
            -0.000030486925    -0.000032234297    0.157382410625    -0.011760173577    -0.000049533189    -0.000002487879    0.095013645038    0.029445057934
            0.095645740065    0.029220823121    -0.000082833820    0.000070863486    0.156321054248    -0.012659688044    -0.000051869181    -0.000018921488
            -0.000036182890    0.000014722452    0.095606664909    0.028899620354    -0.000037878605    -0.000022625400    0.157545520503    -0.011413650525
0.050     0.058998592404    -0.074703577629    -0.000062136058    0.000075901507    0.033253030947    -0.031017261271    -0.000061459543    0.000070186972
            -0.000091397963    0.000065631361    0.061177692300    -0.076639236070    -0.000085163975    0.000118556633    0.033543915270    -0.030957149092
            0.032921696198    -0.031124157658    -0.000001021043    0.000150351413    0.058932346119    -0.074059770292    -0.000076715863    0.000097110971
            -0.000038237047    0.000077722699    0.033504909003    -0.031833974554    -0.000091476287    0.000095802100    0.061296880788    -0.077354435497
0.075     0.101166724352    0.055560745273    0.000114696943    0.000083442101    0.091437157383    0.092806545360    0.000113754647    0.000074134511
            0.000111824973    0.000098232931    0.097569743420    0.055043696533    0.000187504777    0.000099918171    0.089826608259    0.093898178258
            0.091462229831    0.092860931791    0.000211883509    0.000051833549    0.101273649335    0.056051252085    0.000142892468    0.000101195506
            0.000131206503    0.000043633196    0.089274782956    0.093397109475    0.000157809928    0.000092434787    0.096619322213    0.054752490340
0.100     0.192603099393    -0.083653386776    0.000108391802    -0.000045639484    0.197980662932    -0.065373264214    0.000087213631    -0.000050810821
            0.000107165800    -0.000026554839    0.194326399608    -0.079383435116    0.000122430053    -0.000088522550    0.200063791353    -0.062353690979
            0.197640972950    -0.065648961030    0.000116328905    -0.000145175117    0.192645970636    -0.083428320173    0.000132390628    -0.000068509546
            0.000052347267    -0.000067184515    0.199330219787    -0.062554037101    0.000099760741    -0.000068563124    0.193368091175    -0.078993004292
0.125     0.031560491740    -0.104888437505    0.000031710409    -0.000222273185    0.018583892384    -0.102442947989    0.000023727757    -0.000200438479
            0.000075824994    -0.000232645982    0.034958747144    -0.108146248096    0.000044899082    -0.000282592849    0.020882226351    -0.104457655166
            0.018021556426    -0.101764492523    -0.000059746747    -0.000282177857    0.032673090792    -0.104387996782    0.000022337879    -0.000265239830
            0.000014036424    -0.000169159325    0.019940895768    -0.103934616984    0.000049706823    -0.000233391107    0.035156935308    -0.106849605186
0.150     0.129824258952    -0.002566242706    -0.000248083137    0.000014950213    0.111967752742    0.014022225686    -0.000234871309    0.000025616729
            -0.000279489243    -0.000029838392    0.127415261447    -0.000341838362    -0.000371967789    -0.000016621446    0.111196245518    0.017661096843
            0.112750757744    0.014589101914    -0.000337863105    0.000083452542    0.130980773366    -0.004908125280    -0.000307896620    0.000007523702
            -0.000223748625    0.000039823549    0.111263720987    0.018683374565    -0.000310311741    -0.000015016193    0.128456135339    -0.001151907746
0.175     0.131502943304    -0.177538881190    -0.000110730715    0.000117535895    0.120080212827    -0.168406779396    -0.000070656624    0.000119590604
            -0.000133979251    0.000142032420    0.138040996003    -0.175007479370    -0.000134187613    0.000241960141    0.128121653600    -0.166673289223
            0.120445097769    -0.168854545352    -0.000077615941    0.000227115455    0.128949697777    -0.179136856601    -0.000117629765    0.000185274644
            -0.000040211757    0.000115383595    0.128650406540    -0.166236088642    -0.000104378067    0.000189810811    0.136491110847    -0.175070548070
0.200     -0.040751120473    -0.136760033913    0.000083432244    0.000340329788    -0.067817403155    -0.129083494963    0.000084214720    0.000276766588
            0.000087059690    0.000357077596    -0.036805583245    -0.142184867753    0.000167124766    0.000389900698    -0.063994110457    -0.135702951553
            -0.067903657584    -0.128975931974    0.000198148622    0.000355219951    -0.041476738827    -0.134919602180    0.000133000413    0.000358109673
            0.000081456361    0.000234283604    -0.063451092855    -0.135409526040    0.000117152107    0.000323641158    -0.035298420954    -0.139695856471
0.225     0.034512111595    -0.066428000362    0.000379003179    -0.000124366291    0.012709942782    -0.045437861232    0.000322457639    -0.000136305998
            0.000408000207    -0.000113737801    0.037894927578    -0.065974008601    0.000488819457    -0.000167439538    0.015734581294    -0.045516453963
            0.013065236489    -0.045678626769    0.000440539068    -0.000234448696    0.034376666362    -0.067012363394    0.000430728906    -0.000161798613
            0.000281580041    -0.000131816401    0.016340792784    -0.045749604085    0.000405907387    -0.000127620002    0.039633043316    -0.067279748312
0.250     0.019662150384    -0.156345606237    0.000031169934    -0.000334182554    -0.002306236009    -0.101662294578    -0.000012207707    -0.000287535800
            0.000041133401    -0.000370658619    0.026616830490    -0.161472396637    0.000009052311    -0.000488025462    0.004084886296    -0.106537396842
            -0.002408215451    -0.102802536872    -0.000050840138    -0.000432469770    0.016072134962    -0.156762151098    -0.000001869581    -0.000408149168
            -0.000019117787    -0.000252383670    0.004445680391    -0.107667506177    0.000017854541    -0.000395866613    0.023463909417    -0.162541499283
0.275     -0.072758544043    -0.071534327384    -0.000423013861    -0.000253262740    -0.053135051736    -0.024681492664    -0.000375566633    -0.000181910090
            -0.000450289219    -0.000261824029    -0.071681219910    -0.077251447775    -0.000581433907    -0.000264951780    -0.053684955139    -0.030284554025
            -0.054277779218    -0.024920803492    -0.000550085009    -0.000216821893    -0.072145754374    -0.067941777571    -0.000497773911    -0.000238855204
            -0.000340317964    -0.000161146918    -0.054329538387    -0.031084177551    -0.000477160393    -0.000237896949    -0.069707065192    -0.074821628173
0.300     0.002680924123    -0.032364437993    -0.000334400953    0.000446300710    0.008602371435    -0.018029956604    -0.000250048180    0.000415867713
            -0.000350921006    0.000460978883    0.007403777428    -0.037242119341    -0.000399970902    0.000587603258    0.011346825608    -0.020559886084
            0.008127069860    -0.017308521226    -0.000348514755    0.000589504674    0.005454414691    -0.034359917017    -0.000350694427    0.000524506212
            -0.000220769880    0.000380660734    0.010637038577    -0.020691091471    -0.000341492196    0.000491198896    0.009135849084    -0.041503221761
0.325     -0.014750569579    -0.068324650792    0.000309667969    0.000462907768    -0.013122473412    -0.021444809973    0.000312622108    0.000365195615
            0.000319099158    0.000488882533    -0.014900473958    -0.076503441778    0.000429470245    0.000590195319    -0.013132428874    -0.026503929302
            -0.013026000126    -0.021143930032    0.000445528401    0.000528030418    -0.016500396877    -0.069352418176    0.000386345150    0.000506727715
            0.000284075252    0.000330816206    -0.013869639416    -0.026374515219    0.000354178315    0.000496320489    -0.018332227206    -0.076113443014
0.350     -0.005312726828    -0.039672463519    0.000603948024    -0.000217139607    0.043063456793    -0.018080141332    0.000500773860    -0.000255757354
            0.000630897098    -0.000221643227    -0.003571305220    -0.040781036254    0.000774380160    -0.000303240832    0.046012072087    -0.017053818722
            0.042730318371    -0.017775692123    0.000719219689    -0.000327019954    -0.003529685324    -0.039090927375    0.000675950941    -0.000285365400
            0.000460268424    -0.000236998780    0.045391462832    -0.016292587481    0.000655845074    -0.000263156839    0.000135821787    -0.039218965814
0.375     -0.007290511586    -0.092847917695    -0.000069626845    -0.000577598437    -0.000825137201    -0.112038051558    -0.000146939195    -0.000481717111
            -0.000060430752    -0.000600955873    0.000401311543    -0.100540169075    -0.000098146567    -0.000760278684    0.008100258044    -0.118435348973
            -0.000573509148    -0.110915427291    -0.000137450889    -0.000726624929    -0.007166600641    -0.096198669949    -0.000124335683    -0.000664721267
            -0.000137439894    -0.000436715727    0.008294685062    -0.117372523434    -0.000105366815    -0.000628959328    0.000805477096    -0.104761483520
0.400     -0.070240258322    -0.055795284092    -0.000559528865    -0.000226384289    -0.081526206195    -0.034448766578    -0.000483442022    -0.000117004719
            -0.000584771236    -0.000253656422    -0.069408474531    -0.065941693973    -0.000748815223    -0.000287331075    -0.079398420736    -0.043569237223
            -0.079884768098    -0.034264486721    -0.000727545899    -0.000221401303    -0.071708912797    -0.055621991808    -0.000654437215    -0.000208226699
            -0.000438130809    -0.000117449252    -0.078458144625    -0.042966166718    -0.000611604723    -0.000229593425    -0.069910902013    -0.064072561316
0.425     -0.027076328191    -0.054068386627    -0.000381254027    0.000596125550    -0.005604263880    -0.050141198790    -0.000244325052    0.000564179579
            -0.000417765132    0.000631149851    -0.020815040116    -0.061420825661    -0.000511887480    0.000804603944    0.002377015069    -0.056357963480
            -0.005302826458    -0.050854378092    -0.000435109366    0.000773963757    -0.025847881222    -0.056056859877    -0.000392571483    0.000715347770
            -0.000235338815    0.000524916683    0.003004494992    -0.056581905920    -0.000409403318    0.000684137613    -0.018064311507    -0.063994309586
0.450     -0.101823528560    -0.139892000910    0.000415537243    0.000402031159    -0.103632294647    -0.113952758010    0.000436302911    0.000232991744
            0.000448304510    0.000432700181    -0.089883009331    -0.154456236380    0.000597229090    0.000549484060    -0.094629975172    -0.130054568859
            -0.104449598180    -0.114265332266    0.000570249517    0.000495019292    -0.106554936932    -0.140660201381    0.000536247222    0.000409955122
            0.000405822902    0.000211892446    -0.094305515777    -0.130763883471    0.000515080094    0.000403348580    -0.093919045214    -0.158672574365
0.475     -0.183109178968    0.017907872966    0.000583130526    -0.000048775445    -0.158314056408    0.046567129747    0.000406539178    -0.000104860641
            0.000615123336    -0.000064526939    -0.183615213758    -0.005869721604    0.000762380293    -0.000129168154    -0.161709512736    0.026784755056
            -0.157932107077    0.046529604443    0.000726059486    -0.000136151038    -0.181100418499    0.021786195839    0.000615314216    -0.000114003604
            0.000374658984    -0.000084909712    -0.161570029143    0.026153760088    0.000585290098    -0.000088310734    -0.181787500243    -0.003557691538
0.500     -0.028502779571    0.047287357729    0.000157050334    -0.000851757356    -0.018726928860    0.065069666348    0.000051222959    -0.000709094257
            0.000157802494    -0.000895230679    -0.035204354117    0.034997726105    0.000173691878    -0.001097108123    -0.024840768912    0.054179976945
            -0.019278645957    0.063593012231    0.000126471287    -0.001052974653    -0.026140797323    0.040755220187    0.000117078728    -0.000950983982
            0.000061699094    -0.000666972183    -0.025198413196    0.053117468987    0.000155203362    -0.000912988759    -0.032517541862    0.026172407905
0.525     -0.135117347176    -0.052699124592    -0.000725404829    -0.000179369203    -0.094494982898    -0.001328920165    -0.000613893640    -0.000008753883
            -0.000779141820    -0.000179227754    -0.130320060350    -0.070518859932    -0.000988187266    -0.000234876893    -0.095360852689    -0.016259888206
            -0.096475575953    -0.000664444476    -0.000921642584    -0.000189045747    -0.141831519317    -0.051229013969    -0.000823570015    -0.000126024804
            -0.000569813063    -0.000010377879    -0.096740738286    -0.016474842756    -0.000798651926    -0.000155624284    -0.138497718284    -0.071204348185
0.550     -0.158952549289    0.145861133254    -0.000537529290    0.000402394630    -0.083274063412    0.125990992881    -0.000341181861    0.000328898746
            -0.000537364049    0.000446767399    -0.173234722522    0.117916810893    -0.000661995668    0.000604170549    -0.096292522613    0.108977330473
            -0.083077859949    0.127695624167    -0.000634002790    0.000551535013    -0.152618181238    0.149190488513    -0.000543557029    0.000465415097
            -0.000331671319    0.000287860046    -0.097007855653    0.109906603471    -0.000548353007    0.000441975771    -0.168583729094    0.120780321902
0.575     0.034476609554    0.111565738065    0.000300291031    0.000979739188    0.034184333151    0.078670598025    0.000307155227    0.000773617109
            0.000332331462    0.000988319028    0.015356290545    0.106746123285    0.000445944387    0.001194728428    0.022301325382    0.075498908674
            0.035042614742    0.078827362144    0.000425789940    0.001168637989    0.034607817027    0.101580119232    0.000388977587    0.001053158142
            0.000272396657    0.000750919745    0.022332480738    0.076220950808    0.000355699946    0.001038148677    0.014754475089    0.097331561594
0.600     -0.061875500377    0.012407154579    0.001012707456    -0.000263803614    -0.034544478572    0.029984934415    0.000790089412    -0.000340277914
            0.001032629910    -0.000285434642    -0.061448939568    0.001782349803    0.001269952654    -0.000342964264    -0.034982880203    0.020856390171
            -0.034590097864    0.030243121948    0.001226780753    -0.000348351951    -0.068845928869    0.015628459793    0.001078652517    -0.000347876985
            0.000755522857    -0.000312143559    -0.034884411910    0.021565108657    0.001058729163    -0.000308791440    -0.067338921833    0.004977438942
0.625     -0.034427110309    0.117266113641    0.000193409380    -0.000971149133    0.003155955966    0.073492518817    0.000060742187    -0.000789063012
            0.000179248195    -0.000996378333    -0.049661869371    0.101018268253    0.000215972942    -0.001255113540    -0.007042992598    0.062508037443
            0.004014246407    0.074157440076    0.000208389988    -0.001203328724    -0.028770924404    0.116248862847    0.000169823050    -0.001078606197
            0.000081509739    -0.000746025468    -0.006179539942    0.063215438825    0.000198958037    -0.001054014786    -0.043240042662    0.098369517479
0.650     0.007020035438    0.026722322349    -0.001125940580    -0.000509498012    -0.018801305102    0.005672703616    -0.000998957021    -0.000291259841
            -0.001150421606    -0.000508466461    0.001099660607    0.023822633157    -0.001415467140    -0.000610924768    -0.020933408747    -0.000210193238
            -0.017322452099    0.004994183612    -0.001375857471    -0.000599498331    0.001131344678    0.020903592056    -0.001274239820    -0.000479685378
            -0.000954698813    -0.000305448852    -0.019727551454    -0.000557876928    -0.001239839096    -0.000497306217    -0.005048223976    0.016697350788
0.675     -0.062678285521    0.072516946640    -0.000634417613    0.000884177049    -0.055608831086    0.088290458803    -0.000381197455    0.000799933526
            -0.000650548169    0.000911016782    -0.068280157124    0.053287067104    -0.000823263574    0.001111005447    -0.063213086503    0.069553145571
            -0.055658314811    0.086431506133    -0.000791562434    0.001085268278    -0.062724198098    0.076607748645    -0.000640791103    0.000989708318
            -0.000381436809    0.000761685808    -0.062765352815    0.068515350809    -0.000650701571    0.000948619895    -0.067426055512    0.056009566521
0.700     0.003046692608    0.050263850557    0.000599232309    0.001088145433    0.015146856602    0.051033859423    0.000626365765    0.000829934029
            0.000631618702    0.001116220038    -0.008104404830    0.041887032446    0.000781610800    0.001382476910    0.002757277096    0.043563696042
            0.013509888269    0.050612798023    0.000752311183    0.001332262127    0.003147124472    0.042996751796    0.000739271771    0.001169276254
            0.000588716860    0.000814431564    0.002388898472    0.042611739344    0.000698627635    0.001172322940    -0.008311334820    0.030382623334
0.725     -0.134360447250    0.059163850155    0.001107078873    -0.000645328364    -0.101338304616    0.076749907877    0.000799170953    -0.000755174477
            0.001135821694    -0.000675208963    -0.136084187217    0.030661681759    0.001393180758    -0.000778939246    -0.108950519315    0.054839962630
            -0.101428122803    0.077460370331    0.001353766428    -0.000746727462    -0.140855665401    0.063986374104    0.001120901737    -0.000785415940
            0.000781283895    -0.000720074181    -0.109699415149    0.054406302154    0.001112446168    -0.000753270207    -0.147314477929    0.033529815905
0.750     -0.034575132348    0.231908621370    -0.000101231254    -0.000801457703    0.002512136403    0.201237870587    -0.000233635253    -0.000545064857
            -0.000117266457    -0.000837634949    -0.072084514970    0.209370711997    -0.000070270338    -0.001061346992    -0.029590066716    0.188722732910
            0.002282621781    0.200472355207    -0.000064378041    -0.001032897480    -0.025736192651    0.231469068566    -0.000101376474    -0.000830348824
            -0.000216092202    -0.000528235214    -0.030224528173    0.188554630714    -0.000075134366    -0.000806774326    -0.064865759406    0.210927645095
0.775     0.080415310059    0.082714261019    -0.000960113171    -0.000682758617    0.083142294776    0.070203605234    -0.000828020797    -0.000456018043
            -0.001013730507    -0.000671022439    0.062807776926    0.090892707116    -0.001275289330    -0.000860855938    0.068467835642    0.078056599265
            0.081152673649    0.071074138678    -0.001230003333    -0.000836378026    0.072684227682    0.071329173121    -0.001122693359    -0.000715079469
