# GHz S RI R 45
0.000     0.089298791000    -0.000000000000    -0.000002514450    -0.000000000000    0.003373315000    -0.000000000000    -0.000001470454    -0.000000000000
            -0.000002508696    -0.000000000000    0.081880790000    -0.000000000000    0.000000331667    0.000000000000    0.005856220000    -0.000000000000
            0.004138294700    0.000000000000    0.000000348182    0.000000000000    0.085131072000    -0.000000000000    -0.000000335152    0.000000000000
            -0.000001489291    0.000000000000    0.006698217100    0.000000000000    -0.000000334860    -0.000000000000    0.084172200000    -0.000000000000
0.025     0.157039064061    -0.011107709640    0.000001694807    0.000003127288    0.094782031316    0.029899028146    -0.000005308302    0.000000296525
            0.000001703102    0.000003130710    0.157382410625    -0.011760173577    0.000011391264    0.000003396808    0.095013645038    0.029445057934
            0.095412525210    0.029390391885    0.000011397676    0.000003394013    0.157570300497    -0.010363198937    -0.000001190389    0.000000240407
            -0.000005301717    0.000000288904    0.095606664909    0.028899620354    -0.000001184275    0.000000246103    0.157545520503    -0.011413650525
0.050     0.062149952494    -0.077077127038    0.000001171586    -0.000001040142    0.034329405969    -0.031306668400    -0.000006379388    0.000010360562
            0.000001183320    -0.000001050608    0.061177692300    -0.076639236070    0.000011407911    -0.000018202203    0.033543915270    -0.030957149092
            0.034299824068    -0.032208851858    0.000011393183    -0.000018208694    0.062274192819    -0.078069814894    -0.000001844629    0.000002524304
            -0.000006390879    0.000010354877    0.033504909003    -0.031833974554    -0.000001830591    0.000002510183    0.061296880788    -0.077354435497
0.075     0.095420762688    0.055727701209    0.000002544283    -0.000008411329    0.087733042125    0.094558037671    0.000013641999    0.000008154378
            0.000002531006    -0.000008434376    0.097569743420    0.055043696533    -0.000017322752    -0.000028673851    0.089826608259    0.093898178258
            0.087181126845    0.094054350710    -0.000017319266    -0.000028658305    0.094406740195    0.055492520609    0.000003658852    0.000001129214
            0.000013644735    0.000008163983    0.089274782956    0.093397109475    0.000003645922    0.000001111896    0.096619322213    0.054752490340
0.100     0.196463074046    -0.075926234595    -0.000013168730    0.000006219500    0.201899532875    -0.058501507359    0.000013290664    -0.000002997756
            -0.000013200042    0.000006229513    0.194326399608    -0.079383435116    -0.000045512292    0.000016281620    0.200063791353    -0.062353690979
            0.201171599208    -0.058716217977    -0.000045494741    0.000016285068    0.195488268340    -0.075554831099    0.000002165958    0.000000487378
            0.000013305640    -0.000002994379    0.199330219787    -0.062554037101    0.000002130748    0.000000486249    0.193368091175    -0.078993004292
0.125     0.037332920919    -0.110337727789    0.000006788384    0.000003235686    0.023966807579    -0.106310595189    0.000005519870    -0.000028466847
            0.000006794824    0.000003279062    0.034958747144    -0.108146248096    0.000003473132    0.000051655154    0.020882226351    -0.104457655166
            0.023012366662    -0.105814001002    0.000003462882    0.000051608043    0.037515867992    -0.109012619292    0.000003210798    -0.000007346630
            0.000005507840    -0.000028507720    0.019940895768    -0.103934616984    0.000003214211    -0.000007281595    0.035156935308    -0.106849605186
0.150     0.126295840757    0.003327964844    0.000011256032    0.000009355535    0.110047347812    0.020733572594    -0.000026437771    -0.000004504156
            0.000011303780    0.000009358275    0.127415261447    -0.000341838362    0.000062575423    0.000025197177    0.111196245518    0.017661096843
            0.110080838177    0.021758087077    0.000062561334    0.000025250001    0.127343606624    0.002481890698    -0.000005276024    -0.000000917809
            -0.000026447413    -0.000004451160    0.111263720987    0.018683374565    -0.000005220761    -0.000000933344    0.128456135339    -0.001151907746
0.175     0.145658284481    -0.172528816971    -0.000001208057    -0.000025314933    0.135682512022    -0.163736484116    -0.000026054834    0.000014383551
            -0.000001188322    -0.000025358791    0.138040996003    -0.175007479370    0.000041489139    -0.000067416891    0.128121653600    -0.166673289223
            0.136194960564    -0.163280257264    0.000041515730    -0.000067430622    0.144061650702    -0.172632454981    -0.000008376335    0.000000816655
            -0.000026023235    0.000014364282    0.128650406540    -0.166236088642    -0.000008359092    0.000000781958    0.136491110847    -0.175070548070
0.200     -0.032570129646    -0.147320113066    -0.000013209669    0.000012879600    -0.058898873765    -0.141577912165    0.000015183808    0.000049473417
            -0.000013250735    0.000012839313    -0.036805583245    -0.142184867753    -0.000047586731    -0.000057908776    -0.063994110457    -0.135702951553
            -0.058373475395    -0.141260921752    -0.000047580960    -0.000057925493    -0.031190297316    -0.144777251309    0.000001759520    0.000015826109
            0.000015179608    0.000049450906    -0.063451092855    -0.135409526040    0.000001715903    0.000015769196    -0.035298420954    -0.139695856471
0.225     0.041934304032    -0.065161165108    -0.000005708751    0.000006703852    0.019030613173    -0.045532572194    0.000048812411    -0.000008120170
            -0.000005767879    0.000006738249    0.037894927578    -0.065974008601    -0.000088820233    0.000022299158    0.015734581294    -0.045516453963
            0.019651960120    -0.045731479432    -0.000088855980    0.000022312650    0.043682180070    -0.066406233518    0.000012909125    -0.000000459170
            0.000048777331    -0.000008098476    0.016340792784    -0.045749604085    0.000012850343    -0.000000399489    0.039633043316    -0.067279748312
0.250     0.035179876057    -0.165593016277    0.000021686435    0.000010379751    0.010586984432    -0.110835987028    0.000018328361    -0.000052413443
            0.000021695526    0.000010444702    0.026616830490    -0.161472396637    0.000001218571    0.000100671035    0.004084886296    -0.106537396842
            0.011009467859    -0.111948555137    0.000001300659    0.000100713242    0.032045507941    -0.166829928591    0.000008347269    -0.000013429549
            0.000018411427    -0.000052367672    0.004445680391    -0.107667506177    0.000008362601    -0.000013389907    0.023463909417    -0.162541499283
0.275     -0.069297577118    -0.083423760226    -0.000005089123    -0.000014702725    -0.053143213364    -0.035349994688    -0.000062026656    -0.000034201382
            -0.000005014103    -0.000014687024    -0.071681219910    -0.077251447775    0.000091199613    0.000038559865    -0.053684955139    -0.030284554025
            -0.053740277013    -0.036184906445    0.000091180491    0.000038469924    -0.067525927770    -0.080927038942    -0.000016836773    -0.000011606999
            -0.000062037978    -0.000034294697    -0.054329538387    -0.031084177551    -0.000016779157    -0.000011569849    -0.069707065192    -0.074821628173
0.300     0.012171752985    -0.041331786085    0.000001036900    -0.000005290486    0.015370365387    -0.023537262671    -0.000046312803    0.000047775285
            0.000001079562    -0.000005365157    0.007403777428    -0.037242119341    0.000081781696    -0.000084834505    0.011346825608    -0.020559886084
            0.014675324053    -0.023717454401    0.000081722518    -0.000084799545    0.014028474398    -0.045495263242    -0.000013548953    0.000010851692
            -0.000046378111    0.000047806831    0.010637038577    -0.020691091471    -0.000013486246    0.000010765724    0.009135849084    -0.041503221761
0.325     -0.012904666307    -0.083147004398    -0.000010738583    0.000004971221    -0.013226981150    -0.032440662682    0.000031149409    0.000068511497
            -0.000010805956    0.000004898131    -0.014900473958    -0.076503441778    -0.000059775824    -0.000107748393    -0.013132428874    -0.026503929302
            -0.013978044928    -0.032366491674    -0.000059742173    -0.000107676615    -0.016417842530    -0.082977729123    0.000006068965    0.000019674011
            0.000031186731    0.000068583997    -0.013869639416    -0.026374515219    0.000005993672    0.000019610740    -0.018332227206    -0.076113443014
0.350     0.000552318576    -0.042532601010    -0.000005377937    0.000004910252    0.048733345497    -0.014909250672    0.000072499466    -0.000012036774
            -0.000005477274    0.000004965273    -0.003571305220    -0.040781036254    -0.000136525892    0.000019770351    0.046012072087    -0.017053818722
            0.048059429956    -0.014192401464    -0.000136453543    0.000019698823    0.003971194431    -0.040790252195    0.000017825746    0.000000314401
            0.000072562175    -0.000012113559    0.045391462832    -0.016292587481    0.000017734636    0.000000338685    0.000135821787    -0.039218965814
0.375     0.008724223461    -0.108374213077    0.000022064698    0.000012770692    0.018884171626    -0.124451660730    0.000028395619    -0.000074820963
            0.000022096368    0.000012887085    0.000401311543    -0.100540169075    -0.000012138178    0.000144822394    0.008100258044    -0.118435348973
            0.018988220464    -0.123384304519    -0.000012229157    0.000144784874    0.009266033382    -0.112446306486    0.000014597172    -0.000019322243
            0.000028306494    -0.000074844843    0.008294685062    -0.117372523434    0.000014594574    -0.000019170751    0.000805477096    -0.104761483520
0.400     -0.066516704312    -0.074850546763    -0.000003169128    -0.000021593097    -0.077211579486    -0.053404660050    -0.000083224513    -0.000055116401
            -0.000003037356    -0.000021591438    -0.069408474531    -0.065941693973    0.000123224922    0.000062404305    -0.079398420736    -0.043569237223
            -0.076332227151    -0.052710749866    0.000123224160    0.000062508486    -0.067253738588    -0.073088463173    -0.000022881843    -0.000019543714
            -0.000083217560    -0.000055014251    -0.078458144625    -0.042966166718    -0.000022706063    -0.000019551673    -0.069910902013    -0.064072561316
0.425     -0.011683739902    -0.069204983185    -0.000007773151    -0.000013905674    0.011346002499    -0.061196640559    -0.000072261396    0.000057118021
            -0.000007741199    -0.000014051924    -0.020815040116    -0.061420825661    0.000114093716    -0.000111288590    0.002377015069    -0.056357963480
            0.011999145684    -0.061366192273    0.000114128247    -0.000111332686    -0.009074187309    -0.071539353760    -0.000023724639    0.000010779358
            -0.000072216262    0.000057067316    0.003004494992    -0.056581905920    -0.000023714718    0.000010638510    -0.018064311507    -0.063994309586
0.450     -0.077224640198    -0.170198055461    -0.000037070126    0.000031102056    -0.082689481279    -0.145703067410    0.000021895095    0.000108772634
            -0.000037203383    0.000031040311    -0.089883009331    -0.154456236380    -0.000079775610    -0.000128375739    -0.094629975172    -0.130054568859
            -0.082302863002    -0.146373731887    -0.000079838227    -0.000128349597    -0.080912297740    -0.174630552957    0.000002853421    0.000037266295
            0.000021808131    0.000108786166    -0.094305515777    -0.130763883471    0.000002737283    0.000037178447    -0.093919045214    -0.158672574365
0.475     -0.181934329154    -0.028792586985    0.000049474510    0.000007091621    -0.163013528098    0.005979001643    0.000129987204    -0.000008817030
            0.000049371152    0.000007207744    -0.183615213758    -0.005869721604    -0.000138557638    0.000004444110    -0.161709512736    0.026784755056
            -0.162798274389    0.005369797760    -0.000138547137    0.000004463888    -0.180618974077    -0.026474548128    0.000039190223    -0.000002152589
            0.000129997073    -0.000008774116    -0.161570029143    0.026153760088    0.000039050156    -0.000002016940    -0.181787500243    -0.003557691538
0.500     -0.038316181988    0.020578410350    -0.000008809619    -0.000011510962    -0.029067989988    0.042038864989    0.000019770072    -0.000111909859
            -0.000008699758    -0.000011373746    -0.035204354117    0.034997726105    -0.000062359021    0.000164127282    -0.024840768912    0.054179976945
            -0.029311182992    0.040931600814    -0.000062257123    0.000164140143    -0.035166430044    0.012299600486    0.000007122722    -0.000029575006
            0.000019888730    -0.000111898948    -0.025198413196    0.053117468987    0.000007270728    -0.000029443820    -0.032517541862    0.026172407905
0.525     -0.125123620187    -0.089687208830    -0.000010474156    -0.000039274112    -0.095124413024    -0.031938655949    -0.000106567291    -0.000077998008
            -0.000010343380    -0.000039369255    -0.130320060350    -0.070518859932    0.000140152138    0.000089125638    -0.095360852689    -0.016259888206
            -0.096468859908    -0.032308867040    0.000140011602    0.000088999634    -0.133198107576    -0.091310215979    -0.000030707193    -0.000024974723
            -0.000106705181    -0.000078133572    -0.096740738286    -0.016474842756    -0.000030602606    -0.000025059433    -0.138497718284    -0.071204348185
0.550     -0.184248255891    0.089178767007    -0.000029536605    0.000052983299    -0.106549130672    0.090162929615    -0.000097206872    0.000101919327
            -0.000029577790    0.000052866789    -0.173234722522    0.117916810893    0.000146273800    -0.000074375988    -0.096292522613    0.108977330473
            -0.107375941495    0.090995069523    0.000146268113    -0.000074196978    -0.180589227903    0.092510436232    -0.000025269536    0.000027540775
            -0.000097224271    0.000102093117    -0.097007855653    0.109906603471    -0.000025284205    0.000027424644    -0.168583729094    0.120780321902
0.575     -0.002227680572    0.097985848427    0.000035038062    -0.000011750601    0.010199587051    0.068531946510    0.000054171682    0.000104169777
            0.000034915089    -0.000011767904    0.015356290545    0.106746123285    -0.000028854778    -0.000203339221    0.022301325382    0.075498908674
            0.010132088586    0.069256526912    -0.000028736292    -0.000203369118    -0.002019838523    0.089015817091    0.000010551325    0.000026678553
            0.000054284829    0.000104152979    0.022332480738    0.076220950808    0.000010410337    0.000026645886    0.014754475089    0.097331561594
0.600     -0.060796696791    -0.008907514731    0.000013991688    0.000002022622    -0.036676298066    0.013103359431    0.000135530574    -0.000001803304
            0.000013942668    0.000002147294    -0.061448939568    0.001782349803    -0.000201293403    -0.000018759853    -0.034982880203    0.020856390171
            -0.036666274895    0.013823702434    -0.000201280227    -0.000018884108    -0.067310241592    -0.006736834499    0.000036654336    0.000002841229
            0.000135559700    -0.000001932918    -0.034884411910    0.021565108657    0.000036617337    0.000002967133    -0.067338921833    0.004977438942
0.625     -0.061621216969    0.081374897953    -0.000021699177    -0.000025991714    -0.013526018353    0.050355565210    0.000026073351    -0.000132820667
            -0.000021611287    -0.000025916986    -0.049661869371    0.101018268253    -0.000101287147    0.000186982840    -0.007042992598    0.062508037443
            -0.012768926019    0.051173221703    -0.000101468311    0.000187027622    -0.055764019971    0.079992841039    0.000010026994    -0.000031190143
            0.000025878160    -0.000132775742    -0.006179539942    0.063215438825    0.000010078723    -0.000031116799    -0.043240042662    0.098369517479
0.650     -0.007384106170    0.018305254216    -0.000001438690    0.000006705022    -0.024389041091    -0.008828935906    -0.000107224808    -0.000082119877
            -0.000001315949    0.000006663999    0.001099660607    0.023822633157    0.000163265182    0.000153062218    -0.020933408747    -0.000210193238
            -0.023143820876    -0.008991858676    0.000163401450    0.000153187896    -0.012454430637    0.010763876088    -0.000025659291    -0.000028944907
            -0.000107070488    -0.000081993891    -0.019727551454    -0.000557876928    -0.000025493829    -0.000028949722    -0.005048223976    0.016697350788
0.675     -0.070801924142    0.035046537047    -0.000013204157    0.000024845312    -0.068691047662    0.052503607432    -0.000120268080    0.000097327133
            -0.000013217944    0.000024676311    -0.068280157124    0.053287067104    0.000196859491    -0.000089867638    -0.063213086503    0.069553145571
            -0.068083137887    0.051532876647    0.000196896120    -0.000090010405    -0.071202960247    0.037681333271    -0.000032896085    0.000025594891
            -0.000120247254    0.000097181182    -0.062765352815    0.068515350809    -0.000032918950    0.000025387287    -0.067426055512    0.056009566521
0.700     -0.018654694671    0.027637323226    0.000013189911    -0.000003853049    -0.006594091200    0.032314100105    0.000046196179    0.000134048186
            0.000012996372    -0.000003861862    -0.008104404830    0.041887032446    -0.000029786138    -0.000237809894    0.002757277096    0.043563696042
            -0.006822238810    0.031317815738    -0.000029915920    -0.000237757470    -0.017691716483    0.017160142231    0.000005265567    0.000036136163
            0.000046072495    0.000134099365    0.002388898472    0.042611739344    0.000005081411    0.000036133312    -0.008311334820    0.030382623334
0.725     -0.138900703366    0.004221864518    0.000049298682    0.000007117262    -0.115536499164    0.031686593840    0.000176273560    -0.000001937714
            0.000049262398    0.000007316196    -0.136084187217    0.030661681759    -0.000204628783    -0.000042432940    -0.108950519315    0.054839962630
            -0.116196465668    0.031133771014    -0.000204530667    -0.000042404627    -0.150585899809    0.005040336005    0.000052626125    -0.000003428617
            0.000176368249    -0.000001889459    -0.109699415149    0.054406302154    0.000052551625    -0.000003234236    -0.147314477929    0.033529815905
0.750     -0.104540608719    0.182810948920    -0.000045863579    -0.000070903497    -0.059348915252    0.171128206396    0.000014298913    -0.000162925673
            -0.000045672791    -0.000070823543    -0.072084514970    0.209370711997    -0.000156563591    0.000172020002    -0.029590066716    0.188722732910
            -0.059960683315    0.170848322453    -0.000156553145    0.000172001046    -0.098868989857    0.186002771212    -0.000003743244    -0.000035909579
            0.000014328024    -0.000162959274    -0.030224528173    0.188554630714    -0.000003530657    -0.000035798609    -0.064865759406    0.210927645095
0.775     0.041175488937    0.092886134953    -0.000016132079    0.000049129684    0.050651946674    0.081488450293    -0.000111196750    -0.000073250569
            -0.000016019226    0.000048900976    0.062807776926    0.090892707116    0.000157666273    0.000226539817    0.068467835642    0.078056599265
            0.049475486611    0.081726096611    0.000157533832    0.000226441058    0.035745923825    0.079557679750    -0.000018127213    -0.000019487892
