# GHz S RI R 45
0.000     0.082963138000    0.000000000000    -0.000000090414    -0.000000000000    0.005779104600    -0.000000000000    0.000020023888    0.000000000000
            -0.000000087903    0.000000000000    0.081880790000    -0.000000000000    -0.000000213194    -0.000000000000    0.005856220000    -0.000000000000
            0.006887438400    0.000000000000    -0.000000213582    0.000000000000    0.084432181000    -0.000000000000    -0.000000330782    -0.000000000000
            0.000020023435    0.000000000000    0.006698217100    0.000000000000    -0.000000323381    -0.000000000000    0.084172200000    -0.000000000000
0.025     0.157687474372    -0.012201861448    -0.000006517704    0.000001400514    0.095188031062    0.029443931061    0.000029355721    0.000014321935
            -0.000006533664    0.000001415363    0.157382410625    -0.011760173577    -0.000004399877    0.000001205579    0.095013645038    0.029445057934
            0.095897694875    0.028745381290    -0.000004393086    0.000001224236    0.157675884924    -0.011616926189    -0.000007142805    0.000001442362
            0.000029356137    0.000014332455    0.095606664909    0.028899620354    -0.000007159158    0.000001452143    0.157545520503    -0.011413650525
0.050     0.060647393305    -0.075668251880    0.000008022296    -0.000006343517    0.032982554856    -0.030227905045    -0.000053141283    0.000125742604
            0.000008092226    -0.000006352087    0.061177692300    -0.076639236070    0.000007646098    -0.000008680149    0.033543915270    -0.030957149092
            0.032951647769    -0.031282683440    0.000007693080    -0.000008685393    0.060716505787    -0.076502738312    0.000009081102    -0.000007980547
            -0.000053102187    0.000125748504    0.033504909003    -0.031833974554    0.000009146679    -0.000007991855    0.061296880788    -0.077354435497
0.075     0.099547313803    0.056096485485    -0.000027296923    -0.000025062411    0.091466180406    0.094840135245    0.000145757847    0.000193526569
            -0.000027414759    -0.000025137543    0.097569743420    0.055043696533    -0.000026920100    -0.000014792415    0.089826608259    0.093898178258
            0.090805642324    0.094187233905    -0.000026887447    -0.000014845681    0.098278672607    0.055590672710    -0.000030657543    -0.000028074690
            0.000145755603    0.000193476253    0.089274782956    0.093397109475    -0.000030784047    -0.000028145208    0.096619322213    0.054752490340
0.100     0.194529112420    -0.080346245387    -0.000012733831    0.000032381394    0.200242843218    -0.063357011171    0.000010729439    0.000071881472
            -0.000012706490    0.000032555419    0.194326399608    -0.079383435116    -0.000002346487    0.000021490676    0.200063791353    -0.062353690979
            0.199321903335    -0.063604366400    -0.000002344155    0.000021439167    0.193514168740    -0.079879193214    -0.000013681631    0.000033490235
            0.000010726696    0.000071890631    0.199330219787    -0.062554037101    -0.000013651114    0.000033675397    0.193368091175    -0.078993004292
0.125     0.034404415506    -0.105319074897    0.000013169845    -0.000027854362    0.020204910112    -0.102210704239    0.000041827358    0.000415975015
            0.000013232511    -0.000028042771    0.034958747144    -0.108146248096    0.000008003974    -0.000031513417    0.020882226351    -0.104457655166
            0.019077572827    -0.101577955588    0.000007964497    -0.000031614966    0.034771457162    -0.104880369477    0.000013095668    -0.000033244482
            0.000041840883    0.000415884647    0.019940895768    -0.103934616984    0.000013154999    -0.000033439763    0.035156935308    -0.106849605186
0.150     0.131451664731    -0.000357182049    -0.000077326934    -0.000009197957    0.114413602377    0.017445410367    0.000310159915    0.000157200334
            -0.000077457651    -0.000009008629    0.127415261447    -0.000341838362    -0.000056606912    0.000005776034    0.111196245518    0.017661096843
            0.114450981196    0.018645448711    -0.000056857241    0.000005771368    0.131318125831    -0.001677511237    -0.000085544442    -0.000009778078
            0.000310031123    0.000157222034    0.111263720987    0.018683374565    -0.000085655550    -0.000009556829    0.128456135339    -0.001151907746
0.175     0.137069612855    -0.176034996580    0.000021948196    0.000052169472    0.126858985673    -0.167632410971    -0.000042810619    0.000273827474
            0.000022207837    0.000052130776    0.138040996003    -0.175007479370    0.000021594710    0.000019782747    0.128121653600    -0.166673289223
            0.127458722809    -0.167042914299    0.000021629449    0.000020000504    0.135380245293    -0.176030133434    0.000022761500    0.000052895011
            -0.000042787518    0.000273895152    0.128650406540    -0.166236088642    0.000023034156    0.000052820185    0.136491110847    -0.175070548070
0.200     -0.035590945099    -0.137583518436    -0.000013059930    -0.000061258322    -0.063541766262    -0.131622098823    0.000398692438    0.000555120006
            -0.000013284815    -0.000061479925    -0.036805583245    -0.142184867753    -0.000018923858    -0.000056830216    -0.063994110457    -0.135702951553
            -0.062824156046    -0.131255086753    -0.000018870702    -0.000056842868    -0.034866280223    -0.136592617474    -0.000018156634    -0.000068831285
            0.000398642206    0.000555082248    -0.063451092855    -0.135409526040    -0.000018391582    -0.000069036511    -0.035298420954    -0.139695856471
0.225     0.042736738638    -0.067626488099    -0.000104109681    0.000033128200    0.019304050410    -0.046620554760    0.000287523208    0.000021141717
            -0.000104036708    0.000033443318    0.037894927578    -0.065974008601    -0.000071419508    0.000028145046    0.015734581294    -0.045516453963
            0.019996748151    -0.046902682696    -0.000071463833    0.000028314056    0.042370721354    -0.068595348976    -0.000113763401    0.000037804113
            0.000287498545    0.000021286662    0.016340792784    -0.045749604085    -0.000113665702    0.000038087543    0.039633043316    -0.067279748312
0.250     0.025151175887    -0.161041256684    0.000038747083    0.000042656566    0.003019919825    -0.105467393146    0.000088292467    0.000617473566
            0.000038809653    0.000042399231    0.026616830490    -0.161472396637    0.000016244306    0.000005796117    0.004084886296    -0.106537396842
            0.003428530281    -0.106725904066    0.000016603702    0.000005730036    0.021789502961    -0.161693681500    0.000039731365    0.000040481080
            0.000088476690    0.000617495979    0.004445680391    -0.107667506177    0.000039731927    0.000040234717    0.023463909417    -0.162541499283
0.275     -0.065898433624    -0.073359958731    -0.000084486276    -0.000062573052    -0.048552295713    -0.027187319451    0.000757070381    0.000342070993
            -0.000084828638    -0.000062486259    -0.071681219910    -0.077251447775    -0.000081478501    -0.000036618540    -0.053684955139    -0.030284554025
            -0.049222427451    -0.028137038219    -0.000081513083    -0.000036847155    -0.065860342729    -0.071823073457    -0.000098142387    -0.000066963082
            0.000757116412    0.000341950805    -0.054329538387    -0.031084177551    -0.000098438572    -0.000066845477    -0.069707065192    -0.074821628173
0.300     0.011617579944    -0.041833913537    -0.000103994026    0.000134868147    0.014303322037    -0.024083405650    0.000080432258    0.000132002525
            -0.000103657640    0.000135121150    0.007403777428    -0.037242119341    -0.000059995454    0.000088986746    0.011346825608    -0.020559886084
            0.013441341337    -0.024302443759    -0.000060029656    0.000089015486    0.011369414359    -0.044274622273    -0.000109574418    0.000146421433
            0.000080465951    0.000132018740    0.010637038577    -0.020691091471    -0.000109276120    0.000146628927    0.009135849084    -0.041503221761
0.325     -0.013975839770    -0.074652000558    0.000049968694    0.000016027567    -0.011552048500    -0.024416517721    0.000572738380    0.000818124744
            0.000049837404    0.000015631548    -0.014900473958    -0.076503441778    -0.000002838430    -0.000004626922    -0.013132428874    -0.026503929302
            -0.012433648803    -0.024215049027    -0.000002745114    -0.000004874444    -0.017505359260    -0.073981936893    0.000046856655    0.000011041607
            0.000572827065    0.000817905873    -0.013869639416    -0.026374515219    0.000046713183    0.000010722901    -0.018332227206    -0.076113443014
0.350     0.005063117488    -0.043382809320    -0.000172341197    0.000033877101    0.053072672821    -0.020494927155    0.000758416267    -0.000022885908
            -0.000172494572    0.000034400635    -0.003571305220    -0.040781036254    -0.000120722387    0.000063009233    0.046012072087    -0.017053818722
            0.052416330910    -0.019618721553    -0.000121163519    0.000062839360    0.006112874755    -0.041370070913    -0.000191083654    0.000043520088
            0.000758113036    -0.000022999067    0.045391462832    -0.016292587481    -0.000191155643    0.000044019636    0.000135821787    -0.039218965814
0.375     -0.000175142129    -0.106597716119    0.000041992738    0.000214498320    0.006167538346    -0.122763681809    0.000173265217    0.000527865472
            0.000042579896    0.000214166268    0.000401311543    -0.100540169075    0.000038528384    0.000108577713    0.008100258044    -0.118435348973
            0.006387836998    -0.121588508264    0.000038438936    0.000109002109    -0.000385138908    -0.108320035309    0.000047235166    0.000226002712
            0.000173234979    0.000528032791    0.008294685062    -0.117372523434    0.000047766755    0.000225629901    0.000805477096    -0.104761483520
0.400     -0.066068693811    -0.063608536945    0.000019561903    -0.000057905992    -0.076163566835    -0.040874169214    0.001130687012    0.000512649528
            0.000018948049    -0.000057995733    -0.069408474531    -0.065941693973    -0.000037032003    -0.000020757949    -0.079398420736    -0.043569237223
            -0.075099147278    -0.040204058783    -0.000037059031    -0.000020848291    -0.067310976004    -0.061953899164    0.000009381892    -0.000060746018
            0.001130516218    0.000512596378    -0.078458144625    -0.042966166718    0.000008797563    -0.000060780721    -0.069910902013    -0.064072561316
0.425     -0.014629311821    -0.069843611574    -0.000162257111    0.000192838181    0.006252660586    -0.063632620900    0.000480450284    -0.000153367399
            -0.000161738561    0.000193104743    -0.020815040116    -0.061420825661    -0.000069802386    0.000153239148    0.002377015069    -0.056357963480
            0.006945094293    -0.063899787363    -0.000069829680    0.000153818915    -0.014601468324    -0.069982306945    -0.000170834933    0.000216333718
            0.000480422699    -0.000153028860    0.003004494992    -0.056581905920    -0.000170310159    0.000216514704    -0.018064311507    -0.063994309586
0.450     -0.095138490823    -0.157562125867    0.000200834187    0.000106500549    -0.098847753633    -0.130681099842    0.000694698039    0.000711637987
            0.000200475170    0.000105957565    -0.089883009331    -0.154456236380    0.000087321538    0.000028398328    -0.094629975172    -0.130054568859
            -0.098492682399    -0.131460175142    0.000087999258    0.000028040056    -0.098399979082    -0.159199812750    0.000210756068    0.000107731412
            0.000695013106    0.000711558307    -0.094305515777    -0.130763883471    0.000210318029    0.000107263538    -0.093919045214    -0.158672574365
0.475     -0.177820603826    -0.003320848460    -0.000105039861    -0.000049490003    -0.155960216299    0.028914020496    0.001251780699    -0.000098496207
            -0.000105298564    -0.000048807084    -0.183615213758    -0.005869721604    -0.000083549789    0.000016842237    -0.161709512736    0.026784755056
            -0.155821559412    0.028169067646    -0.000083872169    0.000016600671    -0.177503070663    -0.000741637651    -0.000117491392    -0.000044852372
            0.001251651126    -0.000098499688    -0.161570029143    0.026153760088    -0.000117652603    -0.000044182074    -0.181787500243    -0.003557691538
0.500     -0.031083749359    0.022381059661    -0.000064202319    0.000314540383    -0.021720250017    0.044691995284    0.000252994665    0.000058382125
            -0.000063686774    0.000314072439    -0.035204354117    0.034997726105    -0.000020290530    0.000206521472    -0.024840768912    0.054179976945
            -0.022235919091    0.043564219434    -0.000019824700    0.000206782635    -0.030264768183    0.018083831760    -0.000059470335    0.000343043575
            0.000253487012    0.000058526124    -0.025198413196    0.053117468987    -0.000059091836    0.000342578063    -0.032517541862    0.026172407905
0.525     -0.136264934272    -0.070423222403    0.000219711863    -0.000013005049    -0.097756558312    -0.015505557912    0.001279495850    0.000492018275
            0.000219230730    -0.000012660061    -0.130320060350    -0.070518859932    0.000085198598    0.000004077056    -0.095360852689    -0.016259888206
            -0.099215067412    -0.015599509405    0.000084763584    0.000003292697    -0.142232948265    -0.068879748835    0.000225794097    -0.000017893373
            0.001279438929    0.000491482063    -0.096740738286    -0.016474842756    0.000225466626    -0.000017474092    -0.138497718284    -0.071204348185
0.550     -0.164070035481    0.116636004308    -0.000166338572    0.000081549633    -0.088822799404    0.105750194282    0.000927118865    -0.000545546227
            -0.000165919125    0.000081682729    -0.173234722522    0.117916810893    -0.000077171903    0.000090317421    -0.096292522613    0.108977330473
            -0.089520552231    0.106740796264    -0.000077401328    0.000090717415    -0.160856283923    0.120786782689    -0.000176961184    0.000095479007
            0.000926875331    -0.000545607311    -0.097007855653    0.109906603471    -0.000176549462    0.000095462925    -0.168583729094    0.120780321902
0.575     0.014604942074    0.091336034347    0.000131079861    0.000341141096    0.020596023444    0.064083511980    0.000438647718    0.000409595945
            0.000131078820    0.000340675716    0.015356290545    0.106746123285    0.000081806745    0.000214206805    0.022301325382    0.075498908674
            0.020625668401    0.064886194238    0.000081960398    0.000214144473    0.014578842724    0.087142787744    0.000150762832    0.000366632374
            0.000438614806    0.000409550970    0.022332480738    0.076220950808    0.000150659541    0.000366278548    0.014754475089    0.097331561594
0.600     -0.065877444993    0.002201598265    0.000167370235    -0.000097478668    -0.036524953555    0.020914347254    0.001610083259    -0.000129846957
            0.000167143622    -0.000097072206    -0.061448939568    0.001782349803    0.000080898349    -0.000013527486    -0.034982880203    0.020856390171
            -0.036286755812    0.021694283931    0.000080417147    -0.000013614237    -0.068842174984    0.006350777474    0.000168228452    -0.000102916587
            0.001609679094    -0.000129945879    -0.034884411910    0.021565108657    0.000168146828    -0.000102587847    -0.067338921833    0.004977438942
0.625     -0.044124692587    0.089932239609    -0.000103931921    0.000246974543    -0.004329269049    0.051804158427    0.000463106092    -0.000573485471
            -0.000103475129    0.000246823349    -0.049661869371    0.101018268253    -0.000014165297    0.000180321764    -0.007042992598    0.062508037443
            -0.003344178515    0.052399319988    -0.000014220007    0.000180861907    -0.038655526111    0.089770453703    -0.000102050735    0.000276089549
            0.000462871180    -0.000573016742    -0.006179539942    0.063215438825    -0.000101733358    0.000275863673    -0.043240042662    0.098369517479
0.650     -0.012096077561    0.014083892016    0.000402699173    0.000171957598    -0.032348954173    -0.005405029909    0.001099567581    0.000401349950
            0.000402243601    0.000171544253    0.001099660607    0.023822633157    0.000244967031    0.000090126420    -0.020933408747    -0.000210193238
            -0.031162717762    -0.005877858570    0.000245455786    0.000090264222    -0.014611713922    0.011136705800    0.000438387417    0.000172282115
            0.001099890557    0.000401627870    -0.019727551454    -0.000557876928    0.000437903985    0.000172020631    -0.005048223976    0.016697350788
0.675     -0.068552458864    0.054680020292    -0.000013276953    -0.000136533894    -0.061421520074    0.070355622554    0.001291125810    -0.000889947235
            -0.000013140335    -0.000135966479    -0.068280157124    0.053287067104    0.000009824711    -0.000019106973    -0.063213086503    0.069553145571
            -0.061043914604    0.069214351608    0.000009714152    -0.000019057012    -0.065748224276    0.056895177240    -0.000017280065    -0.000133968020
            0.001291204648    -0.000889782093    -0.062765352815    0.068515350809    -0.000017073097    -0.000133473236    -0.067426055512    0.056009566521
0.700     -0.014757340748    0.026492410372    0.000139748193    0.000346722577    -0.003522447999    0.031233836599    0.000339316649    -0.000215419577
            0.000139687303    0.000346085365    -0.008104404830    0.041887032446    0.000151452253    0.000195708392    0.002757277096    0.043563696042
            -0.004064745156    0.030276517279    0.000152347414    0.000195655013    -0.014466813560    0.019077106294    0.000172873580    0.000372459942
            0.000340012544    -0.000215457165    0.002388898472    0.042611739344    0.000172708501    0.000371930244    -0.008311334820    0.030382623334
0.725     -0.150348045594    0.037371416943    0.000335971138    -0.000226318104    -0.117538800374    0.061161328934    0.001433405379    -0.000350834662
            0.000335634007    -0.000225630706    -0.136084187217    0.030661681759    0.000164419809    -0.000129609020    -0.108950519315    0.054839962630
            -0.118353528562    0.060839683604    0.000163838373    -0.000130445914    -0.155810448759    0.041350057140    0.000350699120    -0.000252129390
            0.001433279992    -0.000351437696    -0.109699415149    0.054406302154    0.000350554299    -0.000251434279    -0.147314477929    0.033529815905
0.750     -0.066050325500    0.209290614089    -0.000115296227    0.000035329021    -0.024462737716    0.186086292633    0.000608662505    -0.001084703452
            -0.000114621193    0.000035214306    -0.072084514970    0.209370711997    -0.000005157210    0.000039082643    -0.029590066716    0.188722732910
            -0.025144050970    0.185997234404    -0.000005278529    0.000039532500    -0.058118437273    0.209901165292    -0.000113922196    0.000041887306
            0.000608613449    -0.001084582140    -0.030224528173    0.188554630714    -0.000113332302    0.000041646455    -0.064865759406    0.210927645095
0.775     0.049812062655    0.076345808639    0.000315627224    0.000238796808    0.057255452251    0.066850264942    0.000538842392    -0.000008220886
            0.000314893025    0.000238650179    0.062807776926    0.090892707116    0.000214533771    0.000127459980    0.068467835642    0.078056599265
            0.056175040744    0.067499484819    0.000214810522    0.000126639459    0.044718050845    0.067557626364    0.000359347825    0.000246774624
