# GHz S RI R 45
0.000     0.090453669000    0.000000000000    -0.000017685494    0.000000000000    0.002944992100    -0.000000000000    -0.000024771132    -0.000000000000
            -0.000011675539    -0.000000000000    0.081880790000    -0.000000000000    -0.000011600124    0.000000000000    0.005856220000    -0.000000000000
            0.003889070200    -0.000000000000    -0.000006172481    0.000000000000    0.087461802000    -0.000000000000    -0.000017211517    0.000000000000
            0.000000023543    0.000000000000    0.006698217100    0.000000000000    0.000014283816    0.000000000000    0.084172200000    -0.000000000000
0.025     0.157802473027    -0.012399430322    -0.000018869382    0.000012619006    0.095717060892    0.029900968958    -0.000028796059    0.000020480940
            -0.000014087948    0.000007319286    0.157382410625    -0.011760173577    -0.000006168593    0.000015829712    0.095013645038    0.029445057934
            0.095410123992    0.029103580885    -0.000001289845    0.000004038024    0.157458948085    -0.012788961489    -0.000019678236    0.000016334210
            -0.000017137872    -0.000006875542    0.095606664909    0.028899620354    -0.000012203154    -0.000011285825    0.157545520503    -0.011413650525
0.050     0.060707741351    -0.075965786714    -0.000017418496    0.000048319516    0.033658412519    -0.031139627034    -0.000006685156    0.000056894673
            -0.000022164063    0.000038718059    0.061177692300    -0.076639236070    -0.000012096822    0.000026588705    0.033543915270    -0.030957149092
            0.032913330610    -0.030531694239    -0.000027462793    0.000029254899    0.059829971556    -0.075812029465    -0.000010716711    0.000042993888
            -0.000035927675    0.000040951727    0.033504909003    -0.031833974554    -0.000034584648    0.000023446206    0.061296880788    -0.077354435497
0.075     0.099231530523    0.055724569489    0.000083119367    0.000001909538    0.090456287276    0.094104253159    0.000080477320    0.000018447519
            0.000072321661    0.000005765664    0.097569743420    0.055043696533    0.000068972338    -0.000013677615    0.089826608259    0.093898178258
            0.091248484299    0.094527737825    0.000075363081    -0.000009939481    0.099406182383    0.055798327230    0.000075077523    0.000000434652
            0.000064752398    0.000038561213    0.089274782956    0.093397109475    0.000048082500    0.000024034748    0.096619322213    0.054752490340
0.100     0.194186132049    -0.080414001871    -0.000002858830    -0.000031168172    0.199756797998    -0.062559069860    0.000040627436    -0.000054910381
            -0.000003812106    -0.000019475462    0.194326399608    -0.079383435116    -0.000034539850    -0.000014596790    0.200063791353    -0.062353690979
            0.199788433974    -0.063412882499    -0.000038634193    -0.000011670104    0.193261750437    -0.081204297871    -0.000002717086    -0.000029368339
            0.000048151978    -0.000027646332    0.199330219787    -0.062554037101    0.000015743435    0.000000695599    0.193368091175    -0.078993004292
0.125     0.034188468006    -0.105510161311    0.000014226811    -0.000078944897    0.020709681738    -0.102195935930    -0.000020450321    -0.000096650476
            0.000028914340    -0.000075268233    0.034958747144    -0.108146248096    0.000015335869    -0.000053861385    0.020882226351    -0.104457655166
            0.019736845318    -0.101824093321    0.000027903983    -0.000053901816    0.033247724094    -0.104292783064    0.000010142897    -0.000071294551
            0.000021524438    -0.000104285820    0.019940895768    -0.103934616984    0.000042702546    -0.000083790203    0.035156935308    -0.106849605186
0.150     0.130895795775    -0.000348612263    -0.000098288468    0.000045658939    0.113873871917    0.017124192869    -0.000118235511    0.000027721156
            -0.000094877968    0.000031943348    0.127415261447    -0.000341838362    -0.000047959380    0.000091809632    0.111196245518    0.017661096843
            0.114642970086    0.017919560117    -0.000057314157    0.000080641342    0.132104641589    -0.000508435197    -0.000081664814    0.000045678284
            -0.000133592033    -0.000009457769    0.111263720987    0.018683374565    -0.000086109852    0.000015934709    0.128456135339    -0.001151907746
0.175     0.137076926017    -0.175881913607    -0.000006584380    0.000015192370    0.126570891479    -0.166779887748    -0.000026984673    0.000083739149
            -0.000015650287    0.000009526519    0.138040996003    -0.175007479370    0.000030719475    -0.000068523519    0.128121653600    -0.166673289223
            0.127125464520    -0.167572085545    0.000029324872    -0.000060677435    0.135997386257    -0.176753101723    -0.000011882439    0.000001416369
            -0.000051685406    0.000088538486    0.128650406540    -0.166236088642    -0.000041557631    -0.000006543447    0.136491110847    -0.175070548070
0.200     -0.035769059310    -0.138150920107    0.000007802476    0.000128672954    -0.062544505078    -0.131337526122    0.000064633155    0.000117252643
            -0.000000472116    0.000134757383    -0.036805583245    -0.142184867753    -0.000036347031    0.000110427730    -0.063994110457    -0.135702951553
            -0.063355197884    -0.131594412680    -0.000038688383    0.000106856423    -0.035825859374    -0.136485613129    0.000001767131    0.000131308610
            0.000052404901    0.000140916477    -0.063451092855    -0.135409526040    -0.000013254612    0.000164190356    -0.035298420954    -0.139695856471
0.225     0.041815983054    -0.067584917854    0.000127322828    -0.000047653879    0.019198497494    -0.046885012315    0.000150429680    -0.000070249220
            0.000130130732    -0.000040309774    0.037894927578    -0.065974008601    0.000053273416    -0.000049676861    0.015734581294    -0.045516453963
            0.019534172106    -0.046787433152    0.000057493182    -0.000037592935    0.042408074943    -0.068146381030    0.000117492947    -0.000042660168
            0.000180371502    -0.000053538147    0.016340792784    -0.045749604085    0.000146727905    -0.000029857466    0.039633043316    -0.067279748312
0.250     0.025042324905    -0.161226211736    0.000024101312    -0.000109647442    0.002330561354    -0.105789331734    -0.000004414769    -0.000150557867
            0.000030677938    -0.000107890929    0.026616830490    -0.161472396637    0.000044221534    0.000018688044    0.004084886296    -0.106537396842
            0.003067671416    -0.106410100600    0.000052469457    0.000005861161    0.023158499833    -0.162529860172    0.000036070133    -0.000093696902
            0.000008520923    -0.000177080970    0.004445680391    -0.107667506177    0.000051600201    -0.000109524135    0.023463909417    -0.162541499283
0.275     -0.067106193017    -0.074040871625    -0.000173037568    -0.000098687959    -0.048599358040    -0.026914685822    -0.000189629117    -0.000089607109
            -0.000168540884    -0.000103879629    -0.071681219910    -0.077251447775    -0.000097139251    -0.000117153659    -0.053684955139    -0.030284554025
            -0.049456306509    -0.027667864699    -0.000106199572    -0.000118912978    -0.066628157571    -0.072728590545    -0.000161898680    -0.000112927885
            -0.000206306183    -0.000102337237    -0.054329538387    -0.031084177551    -0.000169166491    -0.000136517262    -0.069707065192    -0.074821628173
0.300     0.010338473656    -0.040979128409    -0.000103510252    0.000169494584    0.014409877580    -0.024704758549    -0.000135045723    0.000198354083
            -0.000105065229    0.000163162251    0.007403777428    -0.037242119341    -0.000040399289    0.000119687730    0.011346825608    -0.020559886084
            0.013742865954    -0.023750001988    -0.000044512991    0.000121106353    0.011140898252    -0.043324292518    -0.000108483544    0.000160934207
            -0.000151105207    0.000206192718    0.010637038577    -0.020691091471    -0.000135196100    0.000164652580    0.009135849084    -0.041503221761
0.325     -0.014321401219    -0.074370681117    0.000120337001    0.000173247919    -0.012889797759    -0.024684664033    0.000143402706    0.000200131531
            0.000111400768    0.000170698628    -0.014900473958    -0.076503441778    0.000047030343    0.000076206455    -0.013132428874    -0.026503929302
            -0.011992048086    -0.024353771721    0.000049022340    0.000086586274    -0.016394670382    -0.074218994348    0.000104016413    0.000171369670
            0.000146735664    0.000218420140    -0.013869639416    -0.026374515219    0.000101954178    0.000195040245    -0.018332227206    -0.076113443014
0.350     0.003594491143    -0.042819886084    0.000199143473    -0.000123366458    0.052549467922    -0.018913294246    0.000263948936    -0.000099626167
            0.000194457695    -0.000113089275    -0.003571305220    -0.040781036254    0.000107836761    -0.000087059572    0.046012072087    -0.017053818722
            0.052334560223    -0.019786652992    0.000116797397    -0.000092827427    0.005520266311    -0.042371889220    0.000198730891    -0.000104126466
            0.000280420627    -0.000099332023    0.045391462832    -0.016292587481    0.000219897707    -0.000093788428    0.000135821787    -0.039218965814
0.375     -0.000423094083    -0.104979187413    -0.000026246066    -0.000144336278    0.007348833770    -0.122436503928    -0.000026126202    -0.000262320592
            -0.000018611131    -0.000137834298    0.000401311543    -0.100540169075    -0.000042729860    -0.000019957638    0.008100258044    -0.118435348973
            0.006463634220    -0.121642263860    -0.000043853793    -0.000023358431    -0.001196519917    -0.107295828653    -0.000013060739    -0.000140210032
            -0.000019435952    -0.000275637890    0.008294685062    -0.117372523434    0.000002535203    -0.000160746099    0.000805477096    -0.104761483520
0.400     -0.066017798169    -0.063365129581    -0.000187101461    -0.000121378310    -0.076468728127    -0.041389376054    -0.000257312950    -0.000104018649
            -0.000176667297    -0.000125108529    -0.069408474531    -0.065941693973    -0.000061250153    -0.000081117918    -0.079398420736    -0.043569237223
            -0.075248433093    -0.040520410250    -0.000066523558    -0.000088759536    -0.065937534137    -0.061240326739    -0.000172722848    -0.000132278989
            -0.000271002156    -0.000117489987    -0.078458144625    -0.042966166718    -0.000190550510    -0.000148787041    -0.069910902013    -0.064072561316
0.425     -0.015779910896    -0.068652816783    -0.000107662600    0.000211012604    0.006246414311    -0.063110093364    -0.000182718565    0.000268002875
            -0.000111037220    0.000197181130    -0.020815040116    -0.061420825661    -0.000013997040    0.000094450138    0.002377015069    -0.056357963480
            0.006546729399    -0.063671165445    -0.000021772122    0.000108681501    -0.013428224576    -0.071078838179    -0.000122912335    0.000189578790
            -0.000196122412    0.000283626523    0.003004494992    -0.056581905920    -0.000138999552    0.000199140728    -0.018064311507    -0.063994309586
0.450     -0.094783960909    -0.156626952837    0.000075579547    0.000106817376    -0.097607170669    -0.130910722150    0.000201958968    0.000203818849
            0.000063409336    0.000109404232    -0.089883009331    -0.154456236380    -0.000089543245    -0.000048605004    -0.094629975172    -0.130054568859
            -0.098726427552    -0.131075499749    -0.000075555446    -0.000050563885    -0.098971354686    -0.158987801257    0.000053964424    0.000122752530
            0.000213687283    0.000212967062    -0.094305515777    -0.130763883471    0.000053630679    0.000142325906    -0.093919045214    -0.158672574365
0.475     -0.178447858990    -0.003153450711    0.000236821810    0.000060643690    -0.156195244121    0.027745270162    0.000259787462    -0.000040841064
            0.000234664550    0.000068518220    -0.183615213758    -0.005869721604    0.000153614350    0.000190900995    -0.161709512736    0.026784755056
            -0.155812771040    0.028577093028    0.000149538238    0.000189632101    -0.176386036600    -0.000160914133    0.000249214430    0.000078120946
            0.000270199049    -0.000042256813    -0.161570029143    0.026153760088    0.000274884772    0.000082943415    -0.181787500243    -0.003557691538
0.500     -0.031858835947    0.024229321605    0.000072243672    -0.000331417071    -0.022818288119    0.044858541807    0.000076262706    -0.000372565912
            0.000077355399    -0.000322860734    -0.035204354117    0.034997726105    0.000032872265    -0.000221044788    -0.024840768912    0.054179976945
            -0.022107867968    0.043805685474    0.000044334658    -0.000224705322    -0.029388560810    0.016709846832    0.000083285335    -0.000330899817
            0.000080921342    -0.000392618787    -0.025198413196    0.053117468987    0.000084518865    -0.000358429730    -0.032517541862    0.026172407905
0.525     -0.135683362882    -0.069395066893    -0.000230168220    -0.000112074071    -0.097817987435    -0.014759581111    -0.000336385088    -0.000100761869
            -0.000218521586    -0.000117946459    -0.130320060350    -0.070518859932    0.000030975168    -0.000083908960    -0.095360852689    -0.016259888206
            -0.099139946197    -0.015370761741    0.000011782723    -0.000091199820    -0.143039611570    -0.069509622647    -0.000209947824    -0.000134475241
            -0.000361494389    -0.000099805960    -0.096740738286    -0.016474842756    -0.000226198890    -0.000134946552    -0.138497718284    -0.071204348185
0.550     -0.164796338185    0.117886340874    -0.000264152519    0.000153079575    -0.088746785861    0.105777760163    -0.000236752384    0.000189967820
            -0.000267671924    0.000143885584    -0.173234722522    0.117916810893    -0.000346591984    -0.000014516449    -0.096292522613    0.108977330473
            -0.089248072129    0.106970797376    -0.000342206664    0.000003433662    -0.160745242655    0.121355678831    -0.000302774836    0.000135581524
            -0.000231833681    0.000211052884    -0.097007855653    0.109906603471    -0.000312480777    0.000142762639    -0.168583729094    0.120780321902
0.575     0.015459848090    0.094098737903    0.000136082245    0.000365681661    0.019895432893    0.064512593622    0.000120343968    0.000429572520
            0.000129639081    0.000362924814    0.015356290545    0.106746123285    0.000148770719    0.000328663710    0.022301325382    0.075498908674
            0.020888386510    0.064865141052    0.000153702990    0.000323656254    0.015453884409    0.086656944183    0.000133575336    0.000397849772
            0.000134587658    0.000428252832    0.022332480738    0.076220950808    0.000140791649    0.000416646737    0.014754475089    0.097331561594
0.600     -0.064160869323    0.002710787945    0.000360043191    -0.000056815932    -0.036299692752    0.022368573838    0.000456258084    -0.000080228540
            0.000350557631    -0.000050528801    -0.061448939568    0.001782349803    0.000174044720    -0.000018183486    -0.034982880203    0.020856390171
            -0.036420332789    0.021651454828    0.000182444460    -0.000016111561    -0.069231344932    0.005582140061    0.000365735873    -0.000043584449
            0.000462957099    -0.000092600055    -0.034884411910    0.021565108657    0.000383884342    -0.000053621328    -0.067338921833    0.004977438942
0.625     -0.043902746113    0.091266741467    0.000080431504    -0.000381129950    -0.002640366870    0.052175875665    0.000115623288    -0.000438828736
            0.000086675887    -0.000369699686    -0.049661869371    0.101018268253    0.000129331263    -0.000279751186    -0.007042992598    0.062508037443
            -0.003307279984    0.052873617696    0.000123119412    -0.000296473727    -0.038826873253    0.090294076164    0.000116517796    -0.000390579909
            0.000100287150    -0.000449522566    -0.006179539942    0.063215438825    0.000111961782    -0.000404177832    -0.043240042662    0.098369517479
0.650     -0.009614335822    0.015545002059    -0.000365339574    -0.000163792042    -0.031846609997    -0.006569956538    -0.000482862480    -0.000263789634
            -0.000354624771    -0.000165826612    0.001099660607    0.023822633157    -0.000273799421    -0.000068862673    -0.020933408747    -0.000210193238
            -0.030589608341    -0.005720666854    -0.000284647050    -0.000058260834    -0.013439317180    0.011056620165    -0.000382783372    -0.000191972091
            -0.000492409693    -0.000248696065    -0.019727551454    -0.000557876928    -0.000396902594    -0.000195055378    -0.005048223976    0.016697350788
0.675     -0.067216475579    0.053856175888    -0.000280227793    0.000264980371    -0.061764785288    0.070586076669    -0.000338162285    0.000377580433
            -0.000275230904    0.000252383348    -0.068280157124    0.053287067104    -0.000163790599    0.000129985217    -0.063213086503    0.069553145571
            -0.060893788749    0.069127532361    -0.000163312823    0.000138204168    -0.065395514416    0.055677597600    -0.000302507041    0.000260990690
            -0.000329656349    0.000388939479    -0.062765352815    0.068515350809    -0.000307549716    0.000276713993    -0.067426055512    0.056009566521
0.700     -0.014316591489    0.027569491993    0.000218848771    0.000400519283    -0.002314103660    0.031126074197    0.000247035446    0.000522652737
            0.000202517740    0.000392737518    -0.008104404830    0.041887032446    0.000160776102    0.000238106108    0.002757277096    0.043563696042
            -0.003727610419    0.030590333371    0.000179830284    0.000242690599    -0.014961170314    0.018741708778    0.000205607574    0.000437697529
            0.000265808225    0.000517244684    0.002388898472    0.042611739344    0.000217136275    0.000442799711    -0.008311334820    0.030382623334
0.725     -0.148173829427    0.037604381237    0.000354506027    -0.000139740307    -0.117987522021    0.059556937600    0.000540448529    -0.000239424943
            0.000349565121    -0.000127083419    -0.136084187217    0.030661681759    0.000099771692    -0.000035729546    -0.108950519315    0.054839962630
            -0.117725676199    0.060537120975    0.000092281593    -0.000056725732    -0.155391682908    0.041339124513    0.000384812794    -0.000131118202
            0.000532276192    -0.000259264502    -0.109699415149    0.054406302154    0.000396197632    -0.000136259645    -0.147314477929    0.033529815905
0.750     -0.065303522386    0.208846108574    0.000081425992    -0.000309871048    -0.025590987988    0.186507476602    -0.000017171862    -0.000390722139
            0.000084952011    -0.000301790814    -0.072084514970    0.209370711997    0.000207483366    -0.000178421314    -0.029590066716    0.188722732910
            -0.024944099610    0.185579441163    0.000201958843    -0.000167714404    -0.057688899966    0.208841864549    0.000101789393    -0.000329713820
            -0.000030291778    -0.000386252086    -0.030224528173    0.188554630714    0.000097706248    -0.000348756310    -0.064865759406    0.210927645095
0.775     0.051152410079    0.077734433768    -0.000374844790    -0.000287802356    0.057631924528    0.067944481031    -0.000427798251    -0.000341599285
            -0.000359076889    -0.000285635240    0.062807776926    0.090892707116    -0.000305769585    -0.000204396794    0.068467835642    0.078056599265
            0.056056802231    0.067425177454    -0.000310611999    -0.000213013567    0.043818691265    0.067008800633    -0.000395350275    -0.000315012313
