# GHz S RI R 45
0.000     0.084299220000    -0.000000000000    -0.000021216548    0.000000000000    0.005184918400    0.000000000000    -0.000041822930    0.000000000000
            0.000046968798    0.000000000000    0.081880790000    -0.000000000000    0.000073371677    -0.000000000000    0.005856220000    -0.000000000000
            0.005616253500    0.000000000000    -0.000057218365    -0.000000000000    0.084863722000    -0.000000000000    0.000013599569    0.000000000000
            -0.000031091769    0.000000000000    0.006698217100    0.000000000000    0.000070795926    -0.000000000000    0.084172200000    -0.000000000000
0.025     0.157036592150    -0.013958661615    0.000038277001    0.000023298017    0.095548492906    0.029597876154    0.000026553934    0.000033251259
            0.000069286068    -0.000028657540    0.157382410625    -0.011760173577    0.000014913653    -0.000064678368    0.095013645038    0.029445057934
            0.095645759319    0.029220794325    0.000026522012    0.000053384806    0.156321485079    -0.012658827943    0.000010395037    -0.000016728809
            0.000016192760    0.000025362735    0.095606664909    0.028899620354    0.000000041218    -0.000067960244    0.157545520503    -0.011413650525
0.050     0.058998728418    -0.074703712319    -0.000026014818    0.000064656627    0.033253064673    -0.031017222183    -0.000026619235    0.000060609382
            -0.000047693530    0.000025034768    0.061177692300    -0.076639236070    -0.000109147680    0.000116126981    0.033543915270    -0.030957149092
            0.032921688734    -0.031124140808    -0.000008800181    0.000078870343    0.058929712845    -0.074060726977    -0.000058598965    0.000090812187
            -0.000037035107    0.000074610107    0.033504909003    -0.031833974554    -0.000107328337    0.000113169398    0.061296880788    -0.077354435497
0.075     0.101166778241    0.055560418639    0.000134513478    0.000095836477    0.091437120119    0.092806750532    0.000123461165    0.000094875660
            0.000121103146    0.000075460293    0.097569743420    0.055043696533    0.000219749989    0.000148690425    0.089826608259    0.093898178258
            0.091462241639    0.092861102630    0.000137657309    0.000089933250    0.101268100358    0.056056176827    0.000169237902    0.000104380904
            0.000136547432    0.000102585129    0.089274782956    0.093397109475    0.000207338525    0.000134838791    0.096619322213    0.054752490340
0.100     0.192602765197    -0.083654432341    0.000013462796    -0.000022348659    0.197980562931    -0.065373503277    0.000037592433    -0.000022513593
            -0.000022377706    -0.000044250076    0.194326399608    -0.079383435116    0.000047507624    -0.000110707020    0.200063791353    -0.062353690979
            0.197640872619    -0.065649199639    0.000017974397    -0.000001134909    0.192644659525    -0.083427397012    0.000040077011    -0.000076280587
            0.000048462978    -0.000023478797    0.199330219787    -0.062554037101    0.000063579442    -0.000115846471    0.193368091175    -0.078993004292
0.125     0.031551794067    -0.104889195417    0.000011671560    0.000253285146    0.018583028882    -0.102442820062    0.000017863409    0.000200760325
            -0.000059603675    0.000278856110    0.034958747144    -0.108146248096    -0.000088639639    0.000250998024    0.020882226351    -0.104457655166
            0.018020679927    -0.101764363382    0.000058937248    0.000259693454    0.032665630540    -0.104384107482    -0.000023874614    0.000204199510
            0.000012521996    0.000186895433    0.019940895768    -0.103934616984    -0.000084352244    0.000182096458    0.035156935308    -0.106849605186
0.150     0.129826473230    -0.002565542064    0.000285355034    -0.000016834538    0.111968383585    0.014022258244    0.000279304623    -0.000030407702
            0.000302018417    0.000059453997    0.127415261447    -0.000341838362    0.000358042735    0.000068755322    0.111196245518    0.017661096843
            0.112751408507    0.014589137898    0.000317042291    -0.000067277096    0.130973194754    -0.004883316257    0.000302039721    -0.000009701915
            0.000280633156    -0.000023714099    0.111263720987    0.018683374565    0.000311503275    0.000053179937    0.128456135339    -0.001151907746
0.175     0.131497097953    -0.177542488929    -0.000084115517    0.000018672715    0.120078484155    -0.168407582129    -0.000054877167    -0.000040771388
            -0.000044724709    0.000037841388    0.138040996003    -0.175007479370    -0.000015863473    -0.000063004740    0.128121653600    -0.166673289223
            0.120443350255    -0.168855361938    -0.000103137574    -0.000009595980    0.128945575265    -0.179140624951    -0.000033781354    -0.000081961128
            -0.000049318545    -0.000042379219    0.128650406540    -0.166236088642    0.000013258902    -0.000095374798    0.136491110847    -0.175070548070
0.200     -0.040756957108    -0.136753108579    0.000173180602    0.000389067001    -0.067819879469    -0.129083447815    0.000126790036    0.000311078077
            0.000202422086    0.000390630127    -0.036805583245    -0.142184867753    0.000113445705    0.000338362542    -0.063994110457    -0.135702951553
            -0.067906146309    -0.128975853520    0.000188912885    0.000393144006    -0.041517850482    -0.134894558333    0.000094569146    0.000293494088
            0.000123544640    0.000294166655    -0.063451092855    -0.135409526040    0.000069809882    0.000247599373    -0.035298420954    -0.139695856471
0.225     0.034512055600    -0.066425373320    0.000338976229    -0.000138698907    0.012709817897    -0.045438582537    0.000330806044    -0.000147575745
            0.000385756286    -0.000141896586    0.037894927578    -0.065974008601    0.000352804555    -0.000084465032    0.015734581294    -0.045516453963
            0.013065130045    -0.045679388405    0.000363842435    -0.000192267844    0.034380056625    -0.066982864033    0.000340619023    -0.000128249762
            0.000312809792    -0.000136785037    0.016340792784    -0.045749604085    0.000313588072    -0.000080782258    0.039633043316    -0.067279748312
0.250     0.019658770925    -0.156344610101    -0.000078733287    0.000149065812    -0.002309551215    -0.101660688923    -0.000082446600    0.000062701005
            -0.000050614661    0.000088654381    0.026616830490    -0.161472396637    -0.000017700234    0.000101824111    0.004084886296    -0.106537396842
            -0.002411579423    -0.102800917590    -0.000129255763    0.000117358065    0.016021241675    -0.156753810398    -0.000052766154    0.000033366737
            -0.000075827422    0.000074054961    0.004445680391    -0.107667506177    -0.000002104715    0.000042869860    0.023463909417    -0.162541499283
0.275     -0.072760840139    -0.071528668338    0.000502138786    0.000271098776    -0.053133864455    -0.024678686298    0.000439473834    0.000242398234
            0.000466598192    0.000210767159    -0.071681219910    -0.077251447775    0.000494973029    0.000203636783    -0.053684955139    -0.030284554025
            -0.054276536897    -0.024917985015    0.000517114312    0.000311495803    -0.072175050944    -0.067856388295    0.000443515398    0.000206106997
            0.000444665658    0.000238079410    -0.054329538387    -0.031084177551    0.000446448593    0.000152879774    -0.069707065192    -0.074821628173
0.300     0.002681513181    -0.032362829868    0.000263787151    -0.000316401403    0.008599819556    -0.018031522916    0.000288732346    -0.000341023275
            0.000202468609    -0.000321399897    0.007403777428    -0.037242119341    0.000230015318    -0.000328528867    0.011346825608    -0.020559886084
            0.008124473443    -0.017310135586    0.000317951253    -0.000363280172    0.005455431880    -0.034342401736    0.000285259059    -0.000372926982
            0.000285987007    -0.000339047499    0.010637038577    -0.020691091471    0.000237728828    -0.000366979362    0.009135849084    -0.041503221761
0.325     -0.014753883273    -0.068322136794    0.000100255678    0.000168697942    -0.013124347957    -0.021438056033    0.000078500115    0.000090120640
            0.000063133629    0.000197072829    -0.014900473958    -0.076503441778    0.000139078170    0.000198174078    -0.013132428874    -0.026503929302
            -0.013027861294    -0.021137094526    0.000086552598    0.000141442104    -0.016584674912    -0.069279279366    0.000090719959    0.000077386082
            0.000080710075    0.000092951327    -0.013869639416    -0.026374515219    0.000103135452    0.000113813624    -0.018332227206    -0.076113443014
0.350     -0.005313186198    -0.039669741455    0.000548541759    -0.000196347671    0.043067303196    -0.018082152347    0.000553720117    -0.000227508194
            0.000528379496    -0.000158972375    -0.003571305220    -0.040781036254    0.000640298810    -0.000284687183    0.046012072087    -0.017053818722
            0.042734212704    -0.017777786366    0.000613800506    -0.000207243715    -0.003505196981    -0.038982249506    0.000594753335    -0.000294381228
            0.000559796892    -0.000225642103    0.045391462832    -0.016292587481    0.000620460539    -0.000316756046    0.000135821787    -0.039218965814
0.375     -0.007296421080    -0.092847323086    -0.000069730045    -0.000328901622    -0.000834402398    -0.112035142860    -0.000056201223    -0.000435119703
            -0.000066446361    -0.000271751344    0.000401311543    -0.100540169075    -0.000136693332    -0.000428921793    0.008100258044    -0.118435348973
            -0.000582874931    -0.110912468428    -0.000038099934    -0.000426086425    -0.007212602970    -0.096175181676    -0.000111884324    -0.000513776374
            -0.000047347282    -0.000445265501    0.008294685062    -0.117372523434    -0.000144519264    -0.000531774363    0.000805477096    -0.104761483520
0.400     -0.070244870553    -0.055786491374    0.000190745088    0.000132274451    -0.081520477608    -0.034439236403    0.000158365291    0.000063855276
            0.000249745422    0.000176904176    -0.069408474531    -0.065941693973    0.000211824964    0.000194456483    -0.079398420736    -0.043569237223
            -0.079878898298    -0.034254921018    0.000198776139    0.000084158323    -0.071762177679    -0.055450510569    0.000148989307    0.000092271675
            0.000144751468    0.000052505242    -0.078458144625    -0.042966166718    0.000132554779    0.000136436317    -0.069910902013    -0.064072561316
0.425     -0.027077460441    -0.054064354797    0.000252403630    -0.000445345616    -0.005607222640    -0.050148609955    0.000276501654    -0.000557220596
            0.000324860371    -0.000479567231    -0.020815040116    -0.061420825661    0.000384241258    -0.000600666569    0.002377015069    -0.056357963480
            -0.005305902498    -0.050861932758    0.000284168223    -0.000560302794    -0.025784964472    -0.055977002433    0.000333394828    -0.000644595060
            0.000269507948    -0.000545447664    0.003004494992    -0.056581905920    0.000384150833    -0.000637167175    -0.018064311507    -0.063994309586
0.450     -0.101832672449    -0.139886705467    -0.000280923279    -0.000073076715    -0.103640054280    -0.113935399938    -0.000351726933    -0.000191360369
            -0.000271533388    -0.000123875011    -0.089883009331    -0.154456236380    -0.000428132828    -0.000211222605    -0.094629975172    -0.130054568859
            -0.104457364716    -0.114247799333    -0.000367239501    -0.000151414166    -0.106645041711    -0.140557003870    -0.000447820565    -0.000259810166
            -0.000340797417    -0.000189138718    -0.094305515777    -0.130763883471    -0.000448417884    -0.000299221651    -0.093919045214    -0.158672574365
0.475     -0.183106254600    0.017922460666    0.000277403877    0.000110258292    -0.158301184571    0.046570668357    0.000260831168    0.000062572345
            0.000275650328    0.000070508403    -0.183615213758    -0.005869721604    0.000269689239    0.000177192394    -0.161709512736    0.026784755056
            -0.157919101003    0.046533021693    0.000296365459    0.000102331286    -0.181047392751    0.022010847674    0.000273012485    0.000107937421
            0.000252470393    0.000049302774    -0.161570029143    0.026153760088    0.000241318963    0.000116162785    -0.181787500243    -0.003557691538
0.500     -0.028498021937    0.047290086162    0.000126019345    -0.000608219200    -0.018735953113    0.065068333914    0.000109255517    -0.000746183529
            0.000096558664    -0.000663463344    -0.035204354117    0.034997726105    0.000205804525    -0.000766712724    -0.024840768912    0.054179976945
            -0.019287927179    0.063591725598    0.000108392783    -0.000760792087    -0.026093412386    0.040801524035    0.000154378965    -0.000867659421
            0.000096242274    -0.000728684495    -0.025198413196    0.053117468987    0.000185870045    -0.000844326007    -0.032517541862    0.026172407905
0.525     -0.135116643584    -0.052695617014    -0.000352173896    0.000067909163    -0.094485139751    -0.001306993194    -0.000420662843    0.000013660535
            -0.000437472474    0.000066626727    -0.130320060350    -0.070518859932    -0.000502152561    -0.000000170552    -0.095360852689    -0.016259888206
            -0.096465477240    -0.000642368737    -0.000463587704    0.000086538855    -0.141884695488    -0.051002734855    -0.000502759121    -0.000024611453
            -0.000403298517    0.000025254814    -0.096740738286    -0.016474842756    -0.000497820917    -0.000066795301    -0.138497718284    -0.071204348185
0.550     -0.158947899881    0.145865963158    0.000345715832    -0.000064985095    -0.083263985881    0.125981003810    0.000377383034    -0.000157460214
            0.000308426344    -0.000007383121    -0.173234722522    0.117916810893    0.000386011229    -0.000035943074    -0.096292522613    0.108977330473
            -0.083067857540    0.127685417572    0.000449276943    -0.000073466574    -0.152450803818    0.149369792843    0.000420716542    -0.000176266981
            0.000387577900    -0.000171199314    -0.097007855653    0.109906603471    0.000381530046    -0.000180414836    -0.168583729094    0.120780321902
0.575     0.034480091039    0.111565593675    -0.000213597394    -0.000770035614    0.034174162211    0.078681020824    -0.000274177044    -0.000902859123
            -0.000209665305    -0.000715036603    0.015356290545    0.106746123285    -0.000206659072    -0.000903523001    0.022301325382    0.075498908674
            0.035032369299    0.078837990349    -0.000248283275    -0.000950454820    0.034595878665    0.101651243839    -0.000305953833    -0.001029460222
            -0.000283840376    -0.000908872798    0.022332480738    0.076220950808    -0.000308740375    -0.000994934956    0.014754475089    0.097331561594
0.600     -0.061875700087    0.012401488076    -0.000524148925    0.000209686955    -0.034521871474    0.029994239191    -0.000502907092    0.000143380322
            -0.000496207214    0.000254583361    -0.061448939568    0.001782349803    -0.000553254504    0.000173669632    -0.034982880203    0.020856390171
            -0.034567274476    0.030252272158    -0.000572272786    0.000225904357    -0.068761181951    0.015937897677    -0.000535300952    0.000134934557
            -0.000506027348    0.000151989067    -0.034884411910    0.021565108657    -0.000519452011    0.000130180704    -0.067338921833    0.004977438942
0.625     -0.034433719416    0.117267195569    0.000151555453    -0.000337446267    0.003147879807    0.073479358808    0.000134883033    -0.000544240724
            0.000210785069    -0.000313741052    -0.049661869371    0.101018268253    0.000172342653    -0.000482966298    -0.007042992598    0.062508037443
            0.004005888863    0.074144264166    0.000230679133    -0.000482856488    -0.028573086186    0.116323072193    0.000143321748    -0.000670406021
            0.000151120260    -0.000542165166    -0.006179539942    0.063215438825    0.000135075653    -0.000671598126    -0.043240042662    0.098369517479
0.650     0.007022393491    0.026722277648    -0.001001685820    -0.000378617816    -0.018798148545    0.005701804272    -0.001093969309    -0.000448726837
            -0.000934302612    -0.000410030987    0.001099660607    0.023822633157    -0.001137156572    -0.000454677319    -0.020933408747    -0.000210193238
            -0.017319102030    0.005023457475    -0.001150035547    -0.000521637876    0.001111024521    0.021100677580    -0.001233035723    -0.000486170626
            -0.001095754352    -0.000477770937    -0.019727551454    -0.000557876928    -0.001231212849    -0.000471750430    -0.005048223976    0.016697350788
0.675     -0.062686602615    0.072511347358    -0.000310045110    0.000593532069    -0.055583415471    0.088274840084    -0.000253807222    0.000429318814
            -0.000287721693    0.000519257940    -0.068280157124    0.053287067104    -0.000265464299    0.000548079894    -0.063213086503    0.069553145571
            -0.055632934470    0.086415616226    -0.000330927621    0.000572348727    -0.062453791069    0.076868586216    -0.000202399195    0.000432033025
            -0.000288644362    0.000439466515    -0.062765352815    0.068515350809    -0.000183930312    0.000439348442    -0.067426055512    0.056009566521
0.700     0.003042922601    0.050269483806    -0.000299162141    -0.000430858507    0.015123790571    0.051039700582    -0.000458013479    -0.000630323273
            -0.000340903631    -0.000490059536    -0.008104404830    0.041887032446    -0.000444960096    -0.000664701062    0.002757277096    0.043563696042
            0.013486666671    0.050618954552    -0.000405494706    -0.000606431425    0.003277592403    0.043017666897    -0.000542942012    -0.000802602544
            -0.000439375383    -0.000599449811    0.002388898472    0.042611739344    -0.000524290337    -0.000823186877    -0.008311334820    0.030382623334
0.725     -0.134361721760    0.059152120871    -0.000976752598    0.000705974118    -0.101300290117    0.076772098617    -0.000977883005    0.000686290824
            -0.001024490271    0.000697427866    -0.136084187217    0.030661681759    -0.001156074490    0.000832476662    -0.108950519315    0.054839962630
            -0.101389822122    0.077482403243    -0.001126628542    0.000773569125    -0.140729015117    0.064288129553    -0.001084785425    0.000776210053
            -0.000962448829    0.000658265738    -0.109699415149    0.054406302154    -0.001100733833    0.000757478919    -0.147314477929    0.033529815905
0.750     -0.034585232253    0.231905265117    0.000186883336    0.000528898539    0.002514361354    0.201208180484    0.000184006203    0.000286916279
            0.000138507529    0.000528040661    -0.072084514970    0.209370711997    0.000304109814    0.000501527531    -0.029590066716    0.188722732910
            0.002284567621    0.200442591111    0.000241443456    0.000498352292    -0.025384130285    0.231567738224    0.000294860296    0.000241756512
            0.000154229207    0.000285060423    -0.030224528173    0.188554630714    0.000283887976    0.000249490142    -0.064865759406    0.210927645095
0.775     0.080416978105    0.082707952957    -0.000629830066    -0.000401414319    0.083133182338    0.070228187992    -0.000808694374    -0.000499523391
            -0.000694257272    -0.000351831437    0.062807776926    0.090892707116    -0.000813727844    -0.000577761683    0.068467835642    0.078056599265
            0.081143797918    0.071099067299    -0.000790823129    -0.000507635302    0.072759803442    0.071396517205    -0.000938122894    -0.000647981130
