# GHz S RI R 45
0.000     0.083265896000    0.000000000000    0.000004416677    -0.000000000000    0.005399746900    -0.000000000000    -0.000019104629    -0.000000000000
            0.000019080593    0.000000000000    0.081880790000    -0.000000000000    -0.000002050371    0.000000000000    0.005856220000    -0.000000000000
            0.006343293600    -0.000000000000    0.000044492072    0.000000000000    0.085635103000    -0.000000000000    -0.000025504043    -0.000000000000
            0.000051607597    0.000000000000    0.006698217100    0.000000000000    -0.000039241349    -0.000000000000    0.084172200000    -0.000000000000
0.025     0.157801883164    -0.012400299012    -0.000016483693    -0.000007691355    0.095717030253    0.029901100574    -0.000002708372    0.000015446961
            -0.000006554069    -0.000018580363    0.157382410625    -0.011760173577    0.000049706506    0.000033132049    0.095013645038    0.029445057934
            0.095410150709    0.029103534430    0.000034284202    -0.000008731946    0.157459092065    -0.012788671102    -0.000003738904    0.000019727176
            0.000014041663    -0.000042437847    0.095606664909    0.028899620354    0.000008379284    0.000032435196    0.157545520503    -0.011413650525
0.050     0.060706437646    -0.075966270432    -0.000035405937    0.000066660858    0.033658605506    -0.031139511206    -0.000016260033    0.000050235231
            -0.000037839945    0.000053875367    0.061177692300    -0.076639236070    -0.000060335804    0.000144452688    0.033543915270    -0.030957149092
            0.032913483567    -0.030531599930    -0.000093592332    0.000175169897    0.059829594061    -0.075812359225    -0.000014519158    0.000044999489
            -0.000046703714    0.000036260444    0.033504909003    -0.031833974554    -0.000002035178    0.000026857670    0.061296880788    -0.077354435497
0.075     0.099228810174    0.055727085396    0.000084179194    0.000047896516    0.090456560236    0.094104129486    0.000068071730    0.000052728548
            0.000080204401    0.000045099141    0.097569743420    0.055043696533    0.000201708519    0.000230371968    0.089826608259    0.093898178258
            0.091248801224    0.094527570884    0.000243247054    0.000247144073    0.099405163609    0.055798855106    0.000058009328    0.000042375882
            0.000084299875    0.000053094063    0.089274782956    0.093397109475    0.000042300333    0.000031282290    0.096619322213    0.054752490340
0.100     0.194184848024    -0.080414462737    0.000023671265    -0.000012223277    0.199756778301    -0.062559266595    0.000029184814    0.000002616016
            0.000020697079    -0.000021769919    0.194326399608    -0.079383435116    0.000023473089    0.000059867676    0.200063791353    -0.062353690979
            0.199788414548    -0.063413075922    0.000029829350    0.000017706873    0.193261789377    -0.081204076119    0.000028980556    0.000017118451
            0.000015690163    -0.000050273006    0.199330219787    -0.062554037101    0.000017874844    0.000023122276    0.193368091175    -0.078993004292
0.125     0.034168197933    -0.105508854340    0.000002757608    0.000080691522    0.020710124123    -0.102195938110    0.000024289334    0.000091521424
            -0.000019206977    0.000079019107    0.034958747144    -0.108146248096    0.000048163883    0.000514702627    0.020882226351    -0.104457655166
            0.019737285410    -0.101824099691    0.000005660530    0.000517067647    0.033255986701    -0.104287251718    0.000030439838    0.000067272086
            -0.000055942101    0.000103894540    0.019940895768    -0.103934616984    0.000032160174    0.000080068702    0.035156935308    -0.106849605186
0.150     0.130894189770    -0.000335602886    0.000111852890    -0.000010482287    0.113874690791    0.017122916683    0.000139080919    -0.000011173918
            0.000105989393    0.000006706040    0.127415261447    -0.000341838362    0.000456003085    0.000137139510    0.111196245518    0.017661096843
            0.114643797661    0.017918280240    0.000472461670    0.000171484387    0.132105723322    -0.000500124012    0.000086950274    -0.000029847265
            0.000149378927    0.000059047656    0.111263720987    0.018683374565    0.000098009269    -0.000037082483    0.128456135339    -0.001151907746
0.175     0.137062924344    -0.175886765247    0.000012660768    -0.000016839678    0.126570356555    -0.166780168169    0.000002135728    -0.000023596805
            0.000018646033    -0.000009809961    0.138040996003    -0.175007479370    -0.000074556968    0.000249863960    0.128121653600    -0.166673289223
            0.127124921507    -0.167572371971    -0.000051430681    0.000223454620    0.136005772392    -0.176752390073    0.000004148622    0.000018064864
            0.000035038346    -0.000031574342    0.128650406540    -0.166236088642    -0.000013631958    0.000010769975    0.136491110847    -0.175070548070
0.200     -0.035798614297    -0.138127159544    0.000018741415    0.000086756810    -0.062544128534    -0.131339688035    0.000061174487    0.000122536740
            0.000020013750    0.000091796720    -0.036805583245    -0.142184867753    0.000466859932    0.000719322914    -0.063994110457    -0.135702951553
            -0.063354844599    -0.131596558310    0.000428053245    0.000701362164    -0.035826517406    -0.136485791920    0.000057083427    0.000092604840
            0.000041636880    0.000128116378    -0.063451092855    -0.135409526040    0.000057527711    0.000121328850    -0.035298420954    -0.139695856471
0.225     0.041817140030    -0.067564726437    0.000089351894    -0.000020596298    0.019198132451    -0.046887226785    0.000154867984    -0.000066748261
            0.000097201007    -0.000014203348    0.037894927578    -0.065974008601    0.000482644056    -0.000069480854    0.015734581294    -0.045516453963
            0.019533817802    -0.046789669270    0.000473996922    -0.000018504101    0.042410270969    -0.068144699890    0.000080360831    -0.000052965313
            0.000186135922    -0.000025899060    0.016340792784    -0.045749604085    0.000114239861    -0.000064000442    0.039633043316    -0.067279748312
0.250     0.025009821475    -0.161222159429    0.000014885578    0.000048048484    0.002331351390    -0.105788634162    -0.000028634433    0.000018933972
            0.000027690140    0.000046839583    0.026616830490    -0.161472396637    0.000035686653    0.000622148000    0.004084886296    -0.106537396842
            0.003068451983    -0.106409387807    0.000084314058    0.000619733429    0.023156140067    -0.162526075190    -0.000007047418    0.000079278121
            0.000027232146    -0.000010797353    0.004445680391    -0.107667506177    -0.000023352815    0.000052405145    0.023463909417    -0.162541499283
0.275     -0.067130264407    -0.073987590742    0.000151240168    0.000060069838    -0.048596837554    -0.026917579287    0.000208922221    0.000115555436
            0.000158611783    0.000048115413    -0.071681219910    -0.077251447775    0.000990348332    0.000474906659    -0.053684955139    -0.030284554025
            -0.049453767084    -0.027670773289    0.000976398026    0.000435092259    -0.066623341195    -0.072720428219    0.000200116489    0.000082184291
            0.000196175183    0.000059468144    -0.054329538387    -0.031084177551    0.000184042470    0.000102001438    -0.069707065192    -0.074821628173
0.300     0.010339295255    -0.040966763595    0.000072210328    -0.000059060154    0.014408117442    -0.024706692702    0.000150750009    -0.000163143940
            0.000067332327    -0.000071098533    0.007403777428    -0.037242119341    0.000252098089    -0.000087022714    0.011346825608    -0.020559886084
            0.013741085275    -0.023751939190    0.000226016211    -0.000055912824    0.011142522370    -0.043322849525    0.000089001220    -0.000107622233
            0.000115413991    -0.000161495562    0.010637038577    -0.020691091471    0.000112484019    -0.000105203609    0.009135849084    -0.041503221761
0.325     -0.014378764839    -0.074331191711    0.000119426578    0.000060862286    -0.012886105981    -0.024684114248    0.000043206907    0.000042876208
            0.000111218663    0.000057983169    -0.014900473958    -0.076503441778    0.000584193209    0.000846764237    -0.013132428874    -0.026503929302
            -0.011988334275    -0.024353200381    0.000631647833    0.000859266775    -0.016394321449    -0.074207698689    0.000085967798    0.000065184884
            0.000050392611    0.000048041132    -0.013869639416    -0.026374515219    0.000077357589    0.000039440185    -0.018332227206    -0.076113443014
0.350     0.003600745310    -0.042749480450    0.000191227341    -0.000142599823    0.052550839830    -0.018920935659    0.000299861418    -0.000100409196
            0.000186323836    -0.000142644647    -0.003571305220    -0.040781036254    0.001071447280    -0.000140854340    0.046012072087    -0.017053818722
            0.052335924561    -0.019794334149    0.001073337146    -0.000199009390    0.005530782724    -0.042366684551    0.000224724471    -0.000116346331
            0.000281185447    -0.000127124692    0.045391462832    -0.016292587481    0.000197973425    -0.000102714913    0.000135821787    -0.039218965814
0.375     -0.000455089257    -0.104967393478    -0.000014092758    -0.000097046316    0.007345164788    -0.122435582042    0.000010591733    -0.000257241349
            -0.000021792113    -0.000098485843    0.000401311543    -0.100540169075    0.000144218991    0.000257304202    0.008100258044    -0.118435348973
            0.006459942271    -0.121641298346    0.000088483369    0.000263866742    -0.001198639816    -0.107291114699    0.000014242148    -0.000143755845
            -0.000037644081    -0.000231439473    0.008294685062    -0.117372523434    0.000028711596    -0.000118984181    0.000805477096    -0.104761483520
0.400     -0.066068398307    -0.063259130436    0.000115808967    -0.000002266295    -0.076461404683    -0.041392452327    0.000061443862    0.000021475194
            0.000106130410    0.000007437554    -0.069408474531    -0.065941693973    0.001207641530    0.000548787849    -0.079398420736    -0.043569237223
            -0.075241048219    -0.040523497811    0.001223309151    0.000592770654    -0.065928763396    -0.061221936880    0.000074802402    -0.000024987004
            0.000081994303    0.000077752002    -0.078458144625    -0.042966166718    0.000095532568    -0.000040220291    -0.069910902013    -0.064072561316
0.425     -0.015747020475    -0.068593178479    0.000063859091    -0.000212673886    0.006240898866    -0.063119950208    0.000193693920    -0.000283005296
            0.000070540806    -0.000197487238    -0.020815040116    -0.061420825661    0.000660958008    -0.000485200426    0.002377015069    -0.056357963480
            0.006541140275    -0.063681060668    0.000686437986    -0.000517593758    -0.013416917724    -0.071076384713    0.000062532931    -0.000176252008
            0.000235019157    -0.000296084015    0.003004494992    -0.056581905920    0.000043134028    -0.000188262873    -0.018064311507    -0.063994309586
0.450     -0.094853350307    -0.156569565590    -0.000069419113    -0.000080044039    -0.097607054352    -0.130904272626    -0.000176005263    -0.000201765304
            -0.000058745160    -0.000082247163    -0.089883009331    -0.154456236380    0.000500092172    0.000576118024    -0.094629975172    -0.130054568859
            -0.098726304272    -0.131068957349    0.000454126399    0.000570757893    -0.098972057890    -0.158972109072    -0.000030616711    -0.000094216966
            -0.000189832761    -0.000214822735    -0.094305515777    -0.130763883471    -0.000032498804    -0.000071947005    -0.093919045214    -0.158672574365
0.475     -0.178436268623    -0.002997266545    0.000038866413    0.000017367060    -0.156188787869    0.027734843745    0.000077371877    0.000042860497
            0.000039700062    0.000016458398    -0.183615213758    -0.005869721604    0.001404950872    -0.000086966289    -0.161709512736    0.026784755056
            -0.155806292134    0.028566629193    0.001405780510    -0.000031442649    -0.176362753580    -0.000141069845    0.000025096048    -0.000020740270
            0.000089664436    0.000068217653    -0.161570029143    0.026153760088    0.000053739196    -0.000026184320    -0.181787500243    -0.003557691538
0.500     -0.031826368732    0.024265453647    0.000067727482    -0.000201496412    -0.022827549587    0.044854739540    0.000094070988    -0.000382554613
            0.000074430788    -0.000198015758    -0.035204354117    0.034997726105    0.000319260793    -0.000414763288    -0.024840768912    0.054179976945
            -0.022117221096    0.043801921697    0.000381213828    -0.000420262677    -0.029378783185    0.016712695384    0.000038847052    -0.000184120496
            0.000133297761    -0.000411330631    -0.025198413196    0.053117468987    0.000023495849    -0.000216655858    -0.032517541862    0.026172407905
0.525     -0.135742733384    -0.069257212459    -0.000090823099    -0.000080382941    -0.097807150119    -0.014756444398    -0.000251586583    -0.000071601432
            -0.000080450778    -0.000090853823    -0.130320060350    -0.070518859932    0.001029300472    0.000480160874    -0.095360852689    -0.016259888206
            -0.099128995038    -0.015367575624    0.001012593354    0.000432172055    -0.143025919536    -0.069481832865    -0.000047533964    -0.000066530677
            -0.000279021669    -0.000111426079    -0.096740738286    -0.016474842756    -0.000071341117    -0.000044882768    -0.138497718284    -0.071204348185
0.550     -0.164705556676    0.118028595230    0.000055403147    -0.000005473135    -0.088748354887    0.105759460510    0.000169740568    -0.000041750397
            0.000048700025    -0.000017308604    -0.173234722522    0.117916810893    0.001151160413    -0.000664388046    -0.096292522613    0.108977330473
            -0.089249724038    0.106952435828    0.001124008763    -0.000640579729    -0.160710521937    0.121363377532    0.000075092223    -0.000061734342
            0.000137379609    -0.000025746976    -0.097007855653    0.109906603471    0.000096986162    -0.000047417757    -0.168583729094    0.120780321902
0.575     0.015451534484    0.094141433329    0.000010817846    -0.000255159534    0.019888099485    0.064516526965    -0.000103589511    -0.000467184525
            0.000001000804    -0.000255373319    0.015356290545    0.106746123285    0.000267864184    -0.000141036846    0.022301325382    0.075498908674
            0.020881089045    0.064869168287    0.000309275915    -0.000127167637    0.015458275366    0.086667589599    -0.000049433810    -0.000283671632
            -0.000091058875    -0.000450717774    0.022332480738    0.076220950808    -0.000046558004    -0.000309406809    0.014754475089    0.097331561594
0.600     -0.064147143342    0.002920073631    -0.000146484295    -0.000097851496    -0.036285877564    0.022357509259    -0.000270461385    0.000021852646
            -0.000148761205    -0.000095675888    -0.061448939568    0.001782349803    0.001343213882    -0.000056286755    -0.034982880203    0.020856390171
            -0.036406471622    0.021640282108    0.001342844238    -0.000116054753    -0.069194441565    0.005615801929    -0.000139981719    -0.000058568224
            -0.000272530299    0.000003769712    -0.034884411910    0.021565108657    -0.000163699459    -0.000047373158    -0.067338921833    0.004977438942
0.625     -0.043779345980    0.091345616095    -0.000042542993    -0.000138443591    -0.002658304703    0.052159329567    0.000085082280    -0.000272406050
            -0.000047207202    -0.000138437196    -0.049661869371    0.101018268253    0.000569023967    -0.000942685439    -0.007042992598    0.062508037443
            -0.003325342773    0.052857150512    0.000504595278    -0.000937168827    -0.038793989633    0.090289807941    -0.000012280870    -0.000191859835
            0.000055303701    -0.000259117787    -0.006179539942    0.063215438825    0.000004608458    -0.000170634879    -0.043240042662    0.098369517479
0.650     -0.009652302479    0.015667031543    -0.000253544670    -0.000147158276    -0.031842801209    -0.006557177792    -0.000521881003    -0.000300308242
            -0.000260660371    -0.000141822173    0.001099660607    0.023822633157    0.000477462666    0.000104705306    -0.020933408747    -0.000210193238
            -0.030585637785    -0.005707897455    0.000488908744    0.000163547714    -0.013425189559    0.011091249968    -0.000334792965    -0.000180754872
            -0.000502893939    -0.000262167304    -0.019727551454    -0.000557876928    -0.000316916229    -0.000199584851    -0.005048223976    0.016697350788
0.675     -0.067078071076    0.054072661856    -0.000161946997    0.000037510167    -0.061757531245    0.070556413968    -0.000174274034    0.000195145709
            -0.000160780398    0.000049739744    -0.068280157124    0.053287067104    0.001175750435    -0.000705121640    -0.063213086503    0.069553145571
            -0.060886664045    0.069097753322    0.001214830380    -0.000729147953    -0.065329649744    0.055702245306    -0.000184600098    0.000096086901
            -0.000139480430    0.000174683593    -0.062765352815    0.068515350809    -0.000201678523    0.000083436302    -0.067426055512    0.056009566521
0.700     -0.014224572010    0.027602828479    -0.000186893281    -0.000133975898    -0.002342938344    0.031127892233    -0.000191725946    -0.000366875921
            -0.000172360357    -0.000130182072    -0.008104404830    0.041887032446    0.000070780754    -0.000661874437    0.002757277096    0.043563696042
            -0.003756430576    0.030592374190    0.000027691065    -0.000678689486    -0.014932927473    0.018740175526    -0.000158205777    -0.000149468436
            -0.000214374989    -0.000387998957    0.002388898472    0.042611739344    -0.000163668629    -0.000132795823    -0.008311334820    0.030382623334
0.725     -0.148141297381    0.037822704128    -0.000319135096    0.000139582336    -0.117960771401    0.059559400755    -0.000613509734    0.000232460454
            -0.000318131201    0.000131354095    -0.136084187217    0.030661681759    0.000870069416    -0.000035250669    -0.108950519315    0.054839962630
            -0.117698835165    0.060539371679    0.000875187570    0.000022897442    -0.155342203225    0.041387223070    -0.000354678125    0.000120386921
            -0.000615981013    0.000257211258    -0.109699415149    0.054406302154    -0.000339793031    0.000117403330    -0.147314477929    0.033529815905
0.750     -0.065073398908    0.208979427868    0.000000354784    0.000183968678    -0.025608269101    0.186471653628    0.000071927055    0.000223022078
            0.000000571848    0.000186447193    -0.072084514970    0.209370711997    0.000690255796    -0.000985695202    -0.029590066716    0.188722732910
            -0.024961570587    0.185543683788    0.000751546772    -0.000994458860    -0.057602561464    0.208838309133    -0.000023912846    0.000211587194
            0.000098424773    0.000213906391    -0.030224528173    0.188554630714    -0.000032133868    0.000193997643    -0.064865759406    0.210927645095
0.775     0.051202609018    0.077782299601    -0.000190452238    -0.000177850818    0.057617150669    0.067962628816    -0.000371770300    -0.000321036358
            -0.000178627546    -0.000179208432    0.062807776926    0.090892707116    0.000054878533    -0.000351118155    0.068467835642    0.078056599265
            0.056042224600    0.067443480919    0.000043705473    -0.000413414706    0.043846069025    0.067019202136    -0.000188223482    -0.000165620826
