!$
! Info: Touchstone file created by Circ.  Input file=Intel_C2M_200G_8p5in_202208016_staggered.circ
!$
# Hz S RI R 50
0	0.02563626	4.419647e-24	8.528455e-05	1.25648e-22	0.0001278597	3.168288e-22	8.521983e-05	1.25442e-22
	8.528455e-05	1.25648e-22	0.02564919	4.588218e-24	8.526804e-05	1.255645e-22	0.0001274803	3.145148e-22
	0.0001279165	3.169539e-22	8.526803e-05	1.255661e-22	0.02563117	4.211606e-24	8.523315e-05	1.25362e-22
	8.521982e-05	1.254435e-22	0.0001275371	3.146401e-22	8.523315e-05	1.25362e-22	0.02564717	4.341948e-24
1e+07	0.03201106	0.003794717	7.514561e-05	1.229807e-06	0.001863439	0.00691406	3.321706e-06	1.337528e-05
	7.514561e-05	1.229807e-06	0.03113976	0.004078053	8.202331e-05	2.683496e-05	0.002234614	0.007066072
	0.001863439	0.00691406	8.202331e-05	2.683496e-05	0.03225875	0.003455758	3.25665e-05	1.198664e-05
	3.321706e-06	1.337528e-05	0.002234614	0.007066072	3.25665e-05	1.198664e-05	0.03122979	0.003441917
2e+07	0.03744291	0.001937501	5.393166e-05	3.661584e-05	0.00479927	0.01278442	3.384249e-05	3.5843e-05
	5.393166e-05	3.661584e-05	0.03707321	0.002684675	7.330829e-05	-2.485506e-06	0.005207548	0.01290666
	0.004799277	0.01278441	7.330829e-05	-2.485506e-06	0.0372401	0.001350325	2.043892e-05	2.00016e-05
	3.384249e-05	3.5843e-05	0.005207556	0.01290664	2.043892e-05	2.00016e-05	0.03644024	0.001687678
3e+07	0.04080274	-0.002518049	4.467555e-05	4.983031e-05	0.009139212	0.01774102	5.699769e-05	3.54825e-05
	4.467555e-05	4.983031e-05	0.04081649	-0.00169306	6.899853e-05	-8.160978e-06	0.009573234	0.01785463
	0.009139195	0.01774106	6.899852e-05	-8.160973e-06	0.04026591	-0.00305958	1.383198e-05	2.868091e-05
	5.69977e-05	3.54825e-05	0.009573217	0.01785467	1.383198e-05	2.868091e-05	0.0396465	-0.002623333
4e+07	0.04228779	-0.007948027	3.756249e-05	5.513959e-05	0.01464727	0.02133785	7.517629e-05	2.771597e-05
	3.756249e-05	5.513959e-05	0.04261318	-0.007165876	6.775232e-05	-6.975235e-06	0.01509443	0.02143785
	0.01464728	0.02133787	6.775233e-05	-6.975236e-06	0.04150602	-0.008348362	2.285773e-05	2.835846e-05
	7.517629e-05	2.771597e-05	0.01509444	0.02143788	2.285773e-05	2.835846e-05	0.04103959	-0.007881263
5e+07	0.04217137	-0.01359978	4.678e-05	4.917188e-05	0.02093879	0.02337244	8.877738e-05	1.530119e-05
	4.678e-05	4.917188e-05	0.04274982	-0.01293273	6.848716e-05	-1.189354e-05	0.02138505	0.0234542
	0.0209388	0.02337245	6.848716e-05	-1.189354e-05	0.04121768	-0.01380549	3.311587e-05	2.246052e-05
	8.877738e-05	1.530119e-05	0.02138506	0.02345421	3.311587e-05	2.246052e-05	0.04088208	-0.01334588
6e+07	0.04067556	-0.01902988	6.118813e-05	3.481192e-05	0.02760875	0.02369876	9.766752e-05	-2.333038e-07
	6.118813e-05	3.481192e-05	0.04145318	-0.01852869	6.700881e-05	-1.80517e-05	0.02803878	0.02376022
	0.02760876	0.02369874	6.700881e-05	-1.80517e-05	0.03961717	-0.01901065	4.039024e-05	1.429731e-05
	9.766751e-05	-2.333037e-07	0.02803879	0.0237602	4.039024e-05	1.429731e-05	0.03939239	-0.01858457
7e+07	0.03804049	-0.02389884	7.012924e-05	1.802411e-05	0.034224	0.02227164	0.0001021205	-1.754048e-05
	7.012924e-05	1.802411e-05	0.03896442	-0.0236019	6.349731e-05	-2.427093e-05	0.03462171	0.02231408
	0.03422399	0.02227164	6.349731e-05	-2.427093e-05	0.03694041	-0.02364087	4.471217e-05	4.847493e-06
	0.0001021205	-1.754048e-05	0.0346217	0.02231407	4.471217e-05	4.847492e-06	0.03680751	-0.02326768
8e+07	0.0345519	-0.02796701	7.376403e-05	9.239353e-08	0.0403538	0.0191502	0.0001021559	-3.572758e-05
	7.376403e-05	9.239373e-08	0.03556767	-0.02790494	5.814987e-05	-2.974742e-05	0.04070269	0.01917861
	0.0403538	0.0191502	5.814987e-05	-2.974742e-05	0.03347021	-0.02746829	4.613536e-05	-5.197489e-06
	0.0001021559	-3.572758e-05	0.04070269	0.01917862	4.613536e-05	-5.197488e-06	0.03341028	-0.02716349
9e+07	0.03052106	-0.03109843	7.210063e-05	-1.808225e-05	0.04559443	0.01449314	9.764641e-05	-5.420723e-05
	7.210063e-05	-1.808225e-05	0.03156804	-0.03129847	5.131858e-05	-3.378563e-05	0.04587847	0.01451647
	0.04559443	0.01449314	5.131857e-05	-3.378563e-05	0.02951714	-0.03036417	4.466473e-05	-1.533151e-05
	9.764641e-05	-5.420723e-05	0.04587848	0.01451647	4.466473e-05	-1.533151e-05	0.02951004	-0.0301416
1e+08	0.02629539	-0.03323487	6.328247e-05	-3.689654e-05	0.04959446	0.0085477	8.678281e-05	-7.358003e-05
	6.328247e-05	-3.689654e-05	0.02728134	-0.03374287	4.328496e-05	-3.539652e-05	0.04979635	0.008578158
	0.04959446	0.008547699	4.328496e-05	-3.539652e-05	0.02545302	-0.03225989	3.936889e-05	-2.560458e-05
	8.678282e-05	-7.358003e-05	0.04979635	0.008578157	3.936889e-05	-2.560458e-05	0.02546981	-0.03213992
1.1e+08	0.02208282	-0.03467729	4.840481e-05	-4.415512e-05	0.05204853	0.001608324	6.907404e-05	-8.246203e-05
	4.840481e-05	-4.415512e-05	0.0228613	-0.03535868	3.732055e-05	-3.432794e-05	0.05215946	0.001677087
	0.05204853	0.001608322	3.732055e-05	-3.432794e-05	0.02150504	-0.03368246	3.075031e-05	-2.962607e-05
	6.907404e-05	-8.246203e-05	0.05215946	0.001677086	3.075031e-05	-2.962607e-05	0.0214939	-0.03362994
1.2e+08	0.01794456	-0.03529178	3.753314e-05	-4.765712e-05	0.05273181	-0.005865119	5.745967e-05	-8.562326e-05
	3.753314e-05	-4.765712e-05	0.01855047	-0.03607324	3.248779e-05	-3.345308e-05	0.05275691	-0.005741266
	0.0527318	-0.005865119	3.24878e-05	-3.345308e-05	0.01751977	-0.03430212	2.418397e-05	-3.170642e-05
	5.745967e-05	-8.562326e-05	0.05275691	-0.005741267	2.418397e-05	-3.170642e-05	0.01748817	-0.03429627
1.3e+08	0.01412882	-0.03519483	2.8211e-05	-5.027925e-05	0.0515623	-0.01345196	5.301794e-05	-8.43748e-05
	2.8211e-05	-5.027925e-05	0.01457266	-0.03603904	2.827553e-05	-3.253909e-05	0.05150473	-0.01325743
	0.05156229	-0.01345196	2.827553e-05	-3.253909e-05	0.01382608	-0.03421353	1.819799e-05	-3.31098e-05
	5.301794e-05	-8.43748e-05	0.05150472	-0.01325743	1.819799e-05	-3.31098e-05	0.01377462	-0.03424567
1.4e+08	0.01077415	-0.03455585	1.979949e-05	-5.225256e-05	0.04854732	-0.02071516	4.793447e-05	-8.381209e-05
	1.979949e-05	-5.225256e-05	0.01106354	-0.03543393	2.450692e-05	-3.165854e-05	0.04841196	-0.02043439
	0.04854731	-0.02071516	2.450692e-05	-3.165854e-05	0.0105774	-0.03359699	1.271795e-05	-3.36998e-05
	4.793447e-05	-8.381209e-05	0.04841196	-0.02043439	1.271795e-05	-3.36998e-05	0.01050551	-0.03366125
1.5e+08	0.007953595	-0.03356069	1.178861e-05	-5.313698e-05	0.04379146	-0.02722643	4.215435e-05	-8.367682e-05
	1.178861e-05	-5.313698e-05	0.008096089	-0.03444814	2.089641e-05	-3.094841e-05	0.0435858	-0.02684412
	0.04379145	-0.02722643	2.089641e-05	-3.094841e-05	0.007843462	-0.03264083	9.714102e-06	-3.307762e-05
	4.215435e-05	-8.367682e-05	0.0435858	-0.02684412	9.714102e-06	-3.307762e-05	0.007750143	-0.03273264
1.6e+08	0.005680113	-0.03239532	4.093195e-06	-5.310394e-05	0.03749432	-0.03258887	3.575845e-05	-8.360269e-05
	4.093195e-06	-5.310394e-05	0.005684097	-0.03327062	1.736872e-05	-3.03149e-05	0.03722884	-0.03209058
	0.03749432	-0.03258887	1.736872e-05	-3.03149e-05	0.005632354	-0.03152705	7.220499e-06	-3.228619e-05
	3.575845e-05	-8.360269e-05	0.03722884	-0.03209058	7.220499e-06	-3.228619e-05	0.005516216	-0.03164255
1.7e+08	0.00391173	-0.03123154	-1.659368e-06	-5.205912e-05	0.02994181	-0.03645786	2.865442e-05	-8.335983e-05
	-1.659368e-06	-5.205912e-05	0.003786781	-0.03207553	1.346184e-05	-3.007446e-05	0.02963012	-0.03583074
	0.0299418	-0.03645786	1.346184e-05	-3.007446e-05	0.003899723	-0.03041966	4.453123e-06	-3.159602e-05
	2.865442e-05	-8.335983e-05	0.02963012	-0.03583074	4.453123e-06	-3.159602e-05	0.003759002	-0.03055524
1.8e+08	0.002558953	-0.0302124	-6.069502e-06	-5.048471e-05	0.02149318	-0.03855941	2.088289e-05	-8.26538e-05
	-6.069502e-06	-5.048471e-05	0.002315907	-0.03100801	9.025641e-06	-2.977886e-05	0.02115198	-0.03779292
	0.02149318	-0.03855941	9.025641e-06	-2.977886e-05	0.002556835	-0.02945357	1.328261e-06	-3.08807e-05
	2.088289e-05	-8.26538e-05	0.02115198	-0.03779292	1.328261e-06	-3.08807e-05	0.002389468	-0.02960548
1.9e+08	0.001495327	-0.02944133	-1.090644e-05	-4.855059e-05	0.01256422	-0.03870556	1.266649e-05	-8.12341e-05
	-1.090644e-05	-4.855059e-05	0.0011463	-0.03017341	4.337612e-06	-2.900683e-05	0.01221288	-0.03779245
	0.01256422	-0.03870556	4.337612e-06	-2.900683e-05	0.001480767	-0.0287247	-2.049511e-06	-2.987574e-05
	1.266649e-05	-8.12341e-05	0.01221288	-0.03779245	-2.049511e-06	-2.987574e-05	0.001284476	-0.02888869
2e+08	0.0005709786	-0.02897259	-1.609843e-05	-4.607953e-05	0.003606744	-0.03680533	4.12799e-06	-7.891536e-05
	-1.609843e-05	-4.607953e-05	0.0001293715	-0.02962792	-5.461884e-07	-2.7666e-05	0.003266838	-0.03574227
	0.003606744	-0.03680533	-5.461884e-07	-2.7666e-05	0.0005269738	-0.02828248	-5.62635e-06	-2.848774e-05
	4.12799e-06	-7.891536e-05	0.003266838	-0.03574227	-5.62635e-06	-2.848774e-05	0.0002995228	-0.02845342
2.1e+08	-0.0003711093	-0.02880726	-2.154001e-05	-4.289783e-05	-0.004913185	-0.03287098	-4.568677e-06	-7.553369e-05
	-2.154001e-05	-4.289783e-05	-0.0008907329	-0.02937449	-5.54834e-06	-2.566456e-05	-0.005218906	-0.03165937
	-0.004913185	-0.03287098	-5.54834e-06	-2.566456e-05	-0.0004555521	-0.02812411	-9.331789e-06	-2.663219e-05
	-4.568677e-06	-7.553369e-05	-0.005218906	-0.03165937	-9.331789e-06	-2.663219e-05	-0.0007159863	-0.02829585
2.2e+08	-0.001479995	-0.02889266	-2.707847e-05	-3.88547e-05	-0.01253894	-0.02701974	-1.321848e-05	-7.095858e-05
	-2.707847e-05	-3.88547e-05	-0.00206188	-0.02936241	-1.056257e-05	-2.29248e-05	-0.01278746	-0.02566609
	-0.01253894	-0.02701974	-1.056257e-05	-2.29248e-05	-0.001608952	-0.02819577	-1.307792e-05	-2.423637e-05
	-1.321848e-05	-7.095858e-05	-0.01278746	-0.02566609	-1.307792e-05	-2.423637e-05	-0.001903301	-0.02836096
2.3e+08	-0.002879938	-0.02912736	-3.252004e-05	-3.383156e-05	-0.01884683	-0.01947006	-2.158184e-05	-6.510142e-05
	-3.252004e-05	-3.383156e-05	-0.003507216	-0.02949231	-1.546115e-05	-1.938538e-05	-0.01901615	-0.01798627
	-0.01884683	-0.01947006	-1.546115e-05	-1.938538e-05	-0.003051615	-0.02839669	-1.675898e-05	-2.12432e-05
	-2.158184e-05	-6.510142e-05	-0.01901615	-0.01798627	-1.675898e-05	-2.12432e-05	-0.003379374	-0.02854688
2.4e+08	-0.004656601	-0.02936993	-3.763532e-05	-2.775344e-05	-0.02346781	-0.01053252	-2.938975e-05	-5.792769e-05
	-3.763532e-05	-2.775344e-05	-0.005311329	-0.02962502	-2.009424e-05	-1.501053e-05	-0.02353822	-0.008935742
	-0.02346781	-0.01053252	-2.009424e-05	-1.501053e-05	-0.004863476	-0.02858692	-2.025488e-05	-1.76147e-05
	-2.938975e-05	-5.792769e-05	-0.02353822	-0.008935742	-2.025488e-05	-1.76147e-05	-0.005222104	-0.02871282
2.5e+08	-0.006845677	-0.02945142	-4.216939e-05	-2.059882e-05	-0.02610764	-0.0005959538	-3.635807e-05	-4.946228e-05
	-4.216939e-05	-2.059882e-05	-0.007508958	-0.02959415	-2.42973e-05	-9.792464e-06	-0.0260631	0.001091868
	-0.02610764	-0.0005959538	-2.42973e-05	-9.792464e-06	-0.00707578	-0.02860101	-2.343156e-05	-1.333671e-05
	-3.635807e-05	-4.946228e-05	-0.0260631	0.001091869	-2.343156e-05	-1.333671e-05	-0.00746023	-0.02869307
2.6e+08	-0.009425952	-0.02919146	-4.585346e-05	-1.240652e-05	-0.02656353	0.009890629	-4.219992e-05	-3.979457e-05
	-4.585346e-05	-1.240652e-05	-0.01007817	-0.02922223	-2.789558e-05	-3.757105e-06	-0.02639284	0.01164353
	-0.02656353	0.009890629	-2.789558e-05	-3.757105e-06	-0.009663553	-0.02826214	-2.614646e-05	-8.420916e-06
	-4.219992e-05	-3.979457e-05	-0.02639284	0.01164353	-2.614646e-05	-8.420916e-06	-0.0100659	-0.02831121
2.7e+08	-0.01231659	-0.02841531	-4.841996e-05	-3.278466e-06	-0.0247351	0.02043976	-4.664077e-05	-2.907819e-05
	-4.841996e-05	-3.278466e-06	-0.01293775	-0.02833772	-3.071055e-05	3.034479e-06	-0.02443298	0.02222883
	-0.0247351	0.02043976	-3.071055e-05	3.034479e-06	-0.01254339	-0.02740019	-2.825236e-05	-2.907569e-06
	-4.664077e-05	-2.907819e-05	-0.02443298	0.02222883	-2.825236e-05	-2.907569e-06	-0.01295271	-0.02739845
2.8e+08	-0.01537894	-0.02697176	-4.961573e-05	6.617438e-06	-0.02063189	0.03054925	-4.943173e-05	-1.753018e-05
	-4.961573e-05	6.617438e-06	-0.01594922	-0.02679296	-3.256662e-05	1.048394e-05	-0.02019966	0.03234417
	-0.02063189	0.03054925	-3.256662e-05	1.048394e-05	-0.0155755	-0.02586914	-2.96021e-05	3.12957e-06
	-4.943173e-05	-1.753018e-05	-0.02019966	0.03234417	-2.96021e-05	3.12957e-06	-0.01597804	-0.025811
2.9e+08	-0.01842492	-0.02475002	-4.921746e-05	1.705344e-05	-0.01437414	0.03972717	-5.036391e-05	-5.424509e-06
	-4.921746e-05	1.705344e-05	-0.01892531	-0.02448097	-3.329816e-05	1.845229e-05	-0.01382014	0.04149763
	-0.01437414	0.03972717	-3.329816e-05	1.845229e-05	-0.01857129	-0.02356283	-3.005576e-05	9.584222e-06
	-5.036391e-05	-5.424509e-06	-0.01382014	0.04149763	-3.005576e-05	9.584222e-06	-0.01895095	-0.02344599
3e+08	-0.02122853	-0.02169392	-4.704394e-05	2.774954e-05	-0.006187706	0.04751585	-4.927896e-05	6.917688e-06
	-4.704394e-05	2.774954e-05	-0.02164162	-0.02134942	-3.275868e-05	2.676116e-05	-0.00552729	0.04923329
	-0.006187706	0.04751585	-3.275868e-05	2.676116e-05	-0.02130583	-0.02042997	-2.948742e-05	1.631625e-05
	-4.927896e-05	6.917688e-06	-0.00552729	0.04923329	-2.948742e-05	1.631625e-05	-0.02164492	-0.02025616
3.1e+08	-0.02354204	-0.01781244	-4.296864e-05	3.837587e-05	0.003605375	0.05351501	-4.607938e-05	1.913729e-05
	-4.296864e-05	3.837587e-05	-0.02385296	-0.01741104	-3.082722e-05	3.519762e-05	0.004350299	0.05515423
	0.003605375	0.05351501	-3.082722e-05	3.519762e-05	-0.02353283	-0.016484	-2.779347e-05	2.315207e-05
	-4.607938e-05	1.913729e-05	0.004350299	0.05515423	-2.779347e-05	2.315207e-05	-0.02381311	-0.01625963
3.2e+08	-0.0251139	-0.01318568	-3.692599e-05	4.857175e-05	0.01460207	0.05740114	-4.073519e-05	3.084838e-05
	-3.692599e-05	4.857175e-05	-0.02531113	-0.01274928	-2.742061e-05	4.351112e-05	0.01540381	0.05894176
	0.01460207	0.05740114	-2.742061e-05	4.351112e-05	-0.02500415	-0.0118097	-2.489887e-05	2.989039e-05
	-4.073519e-05	3.084838e-05	0.01540381	0.05894176	-2.489887e-05	2.989039e-05	-0.02520808	-0.0115462
3.3e+08	-0.02570922	-0.007965825	-2.892123e-05	5.795082e-05	0.02633688	0.05894288	-3.328793e-05	4.165286e-05
	-2.892123e-05	5.795082e-05	-0.02578549	-0.00751914	-2.249815e-05	5.142604e-05	0.0271631	0.06037064
	0.02633688	0.05894288	-2.249815e-05	5.142604e-05	-0.02548823	-0.00656252	-2.076714e-05	3.630348e-05
	-3.328793e-05	4.165286e-05	0.0271631	0.06037064	-2.076714e-05	3.630348e-05	-0.02560035	-0.006276308
3.4e+08	-0.02512897	-0.002372965	-1.903332e-05	6.611635e-05	0.03830344	0.05801299	-2.38568e-05	5.114965e-05
	-1.903332e-05	6.611635e-05	-0.02508196	-0.001942612	-1.607211e-05	5.864417e-05	0.03911849	0.05932074
	0.03830344	0.05801299	-1.607211e-05	5.864417e-05	-0.02479107	-0.0009650053	-1.540416e-05	4.21472e-05
	-2.38568e-05	5.114965e-05	0.03911849	0.05932074	-1.540416e-05	4.21472e-05	-0.02479927	-0.00067714
3.5e+08	-0.02322844	0.0033152	-7.422752e-06	7.267309e-05	0.04997727	0.05459357	-1.263274e-05	5.895298e-05
	-7.422752e-06	7.267309e-05	-0.02306129	0.003701641	-8.215929e-06	6.485627e-05	0.05074378	0.05578194
	0.04997727	0.05459357	-8.215929e-06	6.485627e-05	-0.0227724	0.004703465	-8.865736e-06	4.716762e-05
	-1.263274e-05	5.895298e-05	0.05074378	0.05578194	-8.865736e-06	4.716762e-05	-0.02266929	0.004968021
3.6e+08	-0.01993202	0.008777154	5.675422e-06	7.724189e-05	0.0608395	0.04877802	1.136704e-07	6.469971e-05
	5.675422e-06	7.724189e-05	-0.01965365	0.009092297	9.374769e-07	6.975559e-05	0.06152011	0.04985576
	0.0608395	0.04877802	9.374769e-07	6.975559e-05	-0.01936261	0.01012086	-1.261563e-06	5.111109e-05
	1.136704e-07	6.469971e-05	0.06152011	0.04985576	-1.261563e-06	5.111109e-05	-0.01914648	0.01033428
3.7e+08	-0.01524537	0.01366574	1.993818e-05	7.947513e-05	0.07040039	0.04076667	1.403847e-05	6.806685e-05
	1.993818e-05	7.947513e-05	-0.01487055	0.01388358	1.118272e-05	7.304822e-05	0.07095942	0.04175065
	0.07040039	0.04076667	1.118272e-05	7.304822e-05	-0.01457274	0.01494088	7.247985e-06	5.373611e-05
	1.403847e-05	6.806685e-05	0.07095942	0.04175065	7.247985e-06	5.373611e-05	-0.01424852	0.01507374
3.8e+08	-0.00926126	0.01762842	3.497023e-05	7.906918e-05	0.07822002	0.03085834	2.872818e-05	6.87854e-05
	3.497023e-05	7.906918e-05	-0.008810374	0.01772549	2.225365e-05	7.446977e-05	0.07862516	0.03177313
	0.07822002	0.03085834	2.225365e-05	7.446977e-05	-0.008500614	0.01881274	1.644357e-05	5.482382e-05
	2.872818e-05	6.87854e-05	0.07862516	0.03177313	1.644357e-05	5.482382e-05	-0.008080409	0.01883556
3.9e+08	-0.002162086	0.02032844	5.029769e-05	7.578539e-05	0.08392835	0.01943854	4.371e-05	6.665258e-05
	5.029769e-05	7.578539e-05	-0.001660802	0.02028502	3.382078e-05	7.379818e-05	0.08415231	0.02031581
	0.08392835	0.01943854	3.382078e-05	7.379818e-05	-0.001334101	0.02140348	2.606029e-05	5.418847e-05
	4.371e-05	6.665258e-05	0.08415231	0.02031581	2.606029e-05	5.418847e-05	-0.0008374186	0.02128835
4e+08	0.005784159	0.0214684	6.537831e-05	6.946652e-05	0.08724099	0.006962431	5.84508e-05	6.155117e-05
	6.537831e-05	6.946652e-05	0.006305549	0.02126961	4.549684e-05	7.08685e-05	0.08726295	0.007839815
	0.08724099	0.006962431	4.549684e-05	7.08685e-05	0.006655468	0.02241968	3.57814e-05	5.169182e-05
	5.84508e-05	6.155117e-05	0.08726295	0.007839815	3.57814e-05	5.169182e-05	0.00720178	0.022142
4.1e+08	0.01423306	0.02081116	7.961909e-05	6.005236e-05	0.08797185	-0.006063269	7.238298e-05	5.345613e-05
	7.961909e-05	6.005236e-05	0.01474033	0.02044798	5.68533e-05	6.558813e-05	0.0877788	-0.005143393
	0.08797185	-0.006063269	5.68533e-05	6.558813e-05	0.01512043	0.02162891	4.525708e-05	4.724877e-05
	7.238298e-05	5.345613e-05	0.0877788	-0.005143393	4.525708e-05	4.724877e-05	0.01568267	0.02116923
4.2e+08	0.0227768	0.01819724	9.238492e-05	4.760116e-05	0.08604255	-0.01910173	8.491038e-05	4.245731e-05
	9.238492e-05	4.760116e-05	0.02323299	0.01766743	6.74258e-05	5.794118e-05	0.08563028	-0.01809388
	0.08604255	-0.01910173	6.74258e-05	5.794118e-05	0.02365077	0.01887748	5.410388e-05	4.084093e-05
	8.491038e-05	4.245731e-05	0.08563028	-0.01809388	5.410388e-05	4.084093e-05	0.02418923	0.01822323
4.3e+08	0.03096394	0.01356222	0.000103026	3.230272e-05	0.08148579	-0.03160856	9.543498e-05	2.8762e-05
	0.000103026	3.230272e-05	0.03133041	0.01287115	7.672363e-05	4.800135e-05	0.0808597	-0.030466
	0.08148579	-0.03160856	7.672363e-05	4.800135e-05	0.03179431	0.01410702	6.192192e-05	3.252402e-05
	9.543498e-05	2.8762e-05	0.0808597	-0.030466	6.192192e-05	3.252402e-05	0.03226457	0.01325427
4.4e+08	0.03832076	0.006947197	0.0001109062	1.449087e-05	0.07444572	-0.04305432	0.0001033823	1.270061e-05
	0.0001109062	1.449087e-05	0.03855858	0.006108509	8.425878e-05	3.594461e-05	0.073621	-0.04173102
	0.07444572	-0.04305432	8.425878e-05	3.594461e-05	0.03907725	0.007364805	6.830538e-05	2.243441e-05
	0.0001033823	1.270061e-05	0.073621	-0.04173102	6.830538e-05	2.243441e-05	0.03943196	0.006319658
4.5e+08	0.04437492	-0.001494391	0.0001154319	-5.357791e-06	0.06517287	-0.0529476	0.0001082243	-5.2626e-06
	0.0001154319	-5.357791e-06	0.04444661	-0.002458251	8.955989e-05	2.205124e-05	0.0641746	-0.05140041
	0.06517287	-0.0529476	8.955989e-05	2.205124e-05	0.0450291	-0.001189624	7.286022e-05	1.078931e-05
	0.0001082243	-5.2626e-06	0.0641746	-0.05140041	7.286022e-05	1.078931e-05	0.04522017	-0.002409731
4.6e+08	0.04868342	-0.01149626	0.0001160891	-2.662078e-05	0.05401458	-0.06085602	0.0001095123	-2.454262e-05
	0.0001160891	-2.662078e-05	0.0485548	-0.01255387	9.219196e-05	6.699935e-06	0.05287703	-0.05904677
	0.05401458	-0.06085602	9.219196e-05	6.699935e-06	0.04921019	-0.01128445	7.521931e-05	-2.102206e-06
	0.0001095123	-2.454262e-05	0.05287703	-0.05904677	7.521931e-05	-2.102206e-06	0.04919143	-0.01265003
4.7e+08	0.05086066	-0.02268444	0.00011248	-4.854606e-05	0.04140096	-0.0664257	0.0001069085	-4.444937e-05
	0.00011248	-4.854606e-05	0.05050308	-0.02379563	9.177868e-05	-9.621185e-06	0.04016664	-0.06432319
	0.04140096	-0.0664257	9.177868e-05	-9.621185e-06	0.05123784	-0.02254064	7.506055e-05	-1.584462e-05
	0.0001069085	-4.444937e-05	0.04016664	-0.06432319	7.506055e-05	-1.584462e-05	0.05096799	-0.02401003
4.8e+08	0.05060154	-0.0345908	0.000104358	-7.026774e-05	0.02782784	-0.06939643	0.0001002121	-6.419466e-05
	0.000104358	-7.026774e-05	0.04999406	-0.03570738	8.802935e-05	-2.633421e-05	0.02654594	-0.06697821
