!$
! Info: Touchstone file created by Circ.  Input file=Intel_C2M_200G_8p5in_202208016_staggered.circ
!$
# Hz S RI R 50
0	0.02564919	4.588218e-24	0.9741521	-7.829837e-24	0.0001274803	3.145148e-22	-0.0002575495	3.154072e-20
	0.9741521	-7.826718e-24	0.02620103	8.278604e-24	-0.0002576053	3.154755e-20	0.0003497029	9.189328e-22
	0.0001275371	3.146401e-22	-0.0002577407	3.156413e-20	0.02564717	4.341948e-24	0.9741524	-7.986147e-24
	-0.0002576849	3.15573e-20	0.0003497691	9.195817e-22	0.9741524	-7.989281e-24	0.02620245	8.473011e-24
1e+07	0.03113976	0.004078053	0.9610137	-0.1258946	0.002234614	0.007066072	-0.00132743	-0.0006210828
	0.9610137	-0.1258946	0.0313691	0.004077416	-0.001329079	-0.0006213117	0.002041096	0.007125037
	0.002234614	0.007066072	-0.001329079	-0.0006213117	0.03122979	0.003441917	0.9609479	-0.1252395
	-0.00132743	-0.0006210828	0.002041096	0.007125037	0.9609479	-0.1252395	0.03141508	0.003427783
2e+07	0.03707321	0.002684675	0.9320094	-0.2441106	0.005207548	0.01290666	-0.001660127	-0.0005566525
	0.9320094	-0.2441106	0.03804059	0.002488088	-0.001664056	-0.0005526644	0.00443291	0.01325615
	0.005207556	0.01290664	-0.001664064	-0.0005527736	0.03644024	0.001687678	0.9327288	-0.2431282
	-0.001660133	-0.0005567556	0.004432999	0.01325604	0.9327288	-0.2431282	0.03725929	0.001574683
3e+07	0.04081649	-0.00169306	0.8906594	-0.3552641	0.009573234	0.01785463	-0.001889205	-0.000438743
	0.8906594	-0.3552641	0.04229656	-0.002622136	-0.001892193	-0.0004282874	0.008038694	0.01863855
	0.009573217	0.01785467	-0.001892235	-0.0004282803	0.0396465	-0.002623333	0.8919615	-0.3544109
	-0.001889218	-0.0004387461	0.00803867	0.01863852	0.8919615	-0.3544109	0.04093388	-0.003314341
4e+07	0.04261318	-0.007165876	0.8371566	-0.4594903	0.01509443	0.02143785	-0.002022182	-0.0002931645
	0.8371566	-0.4594903	0.04475066	-0.00895546	-0.002019894	-0.0002763387	0.0125791	0.02308298
	0.01509444	0.02143788	-0.002019898	-0.0002763338	0.04103959	-0.007881263	0.8388958	-0.4589463
	-0.002022181	-0.0002931511	0.0125791	0.02308298	0.8388958	-0.4589463	0.04299393	-0.009235368
5e+07	0.04274982	-0.01293273	0.7722109	-0.5557743	0.02138505	0.0234542	-0.002076957	-0.0001614391
	0.7722109	-0.5557743	0.04551229	-0.01589594	-0.002065479	-0.0001408068	0.01783619	0.02639651
	0.02138506	0.02345421	-0.002065476	-0.000140808	0.04088208	-0.01334588	0.7742536	-0.5556512
	-0.002076955	-0.0001614407	0.01783619	0.02639652	0.7742536	-0.5556512	0.04354467	-0.01566282
6e+07	0.04145318	-0.01852869	0.6967801	-0.643009	0.02803878	0.02376022	-0.002082761	-7.898856e-05
	0.6967801	-0.643009	0.04466703	-0.02291477	-0.002059548	-5.895394e-05	0.02352626	0.02846992
	0.02803879	0.0237602	-0.002059546	-5.895547e-05	0.03939239	-0.01858457	0.6989929	-0.6433791
	-0.002082759	-7.898949e-05	0.02352626	0.02846992	0.6989929	-0.6433791	0.04266654	-0.02212861
7e+07	0.03896442	-0.0236019	0.6119885	-0.7201481	0.03462171	0.02231408	-0.002080259	-6.395597e-05
	0.6119885	-0.7201481	0.04238554	-0.02959106	-0.002044821	-5.023951e-05	0.02935308	0.02926594
	0.0346217	0.02231407	-0.002044791	-5.030192e-05	0.03680751	-0.02326768	0.6142348	-0.7210539
	-0.002080257	-6.395853e-05	0.02935308	0.02926594	0.6142348	-0.7210539	0.04052055	-0.02826066
8e+07	0.03556767	-0.02790494	0.5190909	-0.7862598	0.04070269	0.01917861	-0.002112179	-0.0001147396
	0.5190909	-0.7862598	0.03888749	-0.03560356	-0.002066758	-0.0001132786	0.03502286	0.02881751
	0.04070269	0.01917862	-0.002066758	-0.0001132761	0.03341028	-0.02716349	0.5212305	-0.78772
	-0.00211218	-0.000114737	0.03502286	0.02881751	0.5212305	-0.78772	0.03731344	-0.03377862
9e+07	0.03156804	-0.03129847	0.4194445	-0.8405554	0.04587847	0.01451647	-0.002216599	-0.0002114829
	0.4194445	-0.8405554	0.03442464	-0.04070928	-0.002166209	-0.0002274838	0.04026239	0.02722518
	0.04587848	0.01451647	-0.002166204	-0.0002274758	0.02951004	-0.0301416	0.4213225	-0.8425645
	-0.002216597	-0.0002114737	0.04026239	0.02722518	0.4213225	-0.8425645	0.03328555	-0.03847339
1e+08	0.02728134	-0.03374287	0.3144573	-0.8824134	0.04979635	0.008578158	-0.002422274	-0.0003182794
	0.3144573	-0.8824134	0.02928679	-0.04472079	-0.002375671	-0.0003557164	0.04483669	0.02464704
	0.04979635	0.008578157	-0.002375671	-0.0003557173	0.02546981	-0.03213992	0.3158504	-0.884961
	-0.002422274	-0.0003182803	0.04483669	0.02464704	0.3158504	-0.884961	0.02876156	-0.04219028
1.1e+08	0.0228613	-0.03535868	0.2056661	-0.9112111	0.05215946	0.001677087	-0.002727821	-0.0003889144
	0.2056661	-0.9112111	0.02382584	-0.04763295	-0.002693523	-0.0004406815	0.04853568	0.02128684
	0.05215946	0.001677086	-0.002693523	-0.0004406829	0.0214939	-0.03362994	0.2064149	-0.9139273
	-0.002727821	-0.0003889157	0.04853568	0.02128684	0.2064149	-0.9139273	0.02391434	-0.04517882
1.2e+08	0.01855047	-0.03607324	0.09473081	-0.9267774	0.05275691	-0.005741266	-0.003137812	-0.0003980541
	0.09473081	-0.9267774	0.01820556	-0.04939577	-0.003118973	-0.0004597366	0.05123181	0.01741148
	0.05275691	-0.005741267	-0.003118974	-0.0004597379	0.01748817	-0.03429627	0.09494091	-0.9295305
	-0.003137813	-0.0003980553	0.05123181	0.01741149	0.09494091	-0.9295305	0.01874822	-0.04711953
1.3e+08	0.01457266	-0.03603904	-0.01682534	-0.9290379	0.05150473	-0.01325743	-0.00363908	-0.0002967354
	-0.01682534	-0.9290379	0.01272722	-0.05001786	-0.003638133	-0.0003631256	0.05286498	0.01328799
	0.05150472	-0.01325743	-0.003638134	-0.0003631266	0.01377462	-0.03424567	-0.01710627	-0.9317421
	-0.003639081	-0.0002967363	0.05286498	0.01328799	-0.01710627	-0.9317421	0.01362158	-0.04797964
1.4e+08	0.01106354	-0.03543393	-0.1274616	-0.9180764	0.04841196	-0.02043439	-0.004199845	-4.620965e-05
	-0.1274616	-0.9180764	0.007652137	-0.04959161	-0.004216982	-0.0001113906	0.05343829	0.009187664
	0.04841196	-0.02043439	-0.004216983	-0.0001113912	0.01050551	-0.03366125	-0.1281901	-0.9206575
	-0.004199846	-4.621025e-05	0.05343829	0.009187664	-0.1281901	-0.9206575	0.008807664	-0.04782405
1.5e+08	0.008096089	-0.03444814	-0.2356603	-0.8941434	0.0435858	-0.02684412	-0.004775565	0.0003801317
	-0.2356603	-0.8941434	0.003201325	-0.04826625	-0.00480923	0.0003210725	0.05301928	0.005369105
	0.0435858	-0.02684412	-0.004809231	0.0003210721	0.007750143	-0.03273264	-0.2367913	-0.89654
	-0.004775566	0.0003801314	0.05301928	0.005369106	-0.2367913	-0.89654	0.004537201	-0.04678119
1.6e+08	0.005684097	-0.03327062	-0.3399415	-0.8576527	0.03722884	-0.03209058	-0.005314257	0.0009933794
	-0.3399415	-0.8576527	-0.0004525832	-0.04623348	-0.005361632	0.0009444176	0.05173432	0.002064327
	0.03722884	-0.03209058	-0.005361633	0.0009444175	0.005516216	-0.03164255	-0.3414292	-0.8598126
	-0.005314258	0.0009933793	0.05173432	0.002064328	-0.3414292	-0.8598126	0.000992703	-0.04502636
1.7e+08	0.003786781	-0.03207553	-0.4388858	-0.8091814	0.02963012	-0.03583074	-0.005762137	0.001787975
	-0.4388858	-0.8091814	-0.003191131	-0.04371398	-0.005819601	0.00175196	0.04975996	-0.0005350307
	0.02963012	-0.03583074	-0.005819601	0.00175196	0.003759002	-0.03055524	-0.4406799	-0.8110606
	-0.005762138	0.001787975	0.04975996	-0.0005350304	-0.4406799	-0.8110606	-0.001696193	-0.04276773
1.8e+08	0.002315907	-0.03100801	-0.531147	-0.749461	0.02115198	-0.03779292	-0.006069087	0.002742498
	-0.531147	-0.749461	-0.004952389	-0.04094293	-0.00613276	0.002720943	0.0473122	-0.002287265
	0.02115198	-0.03779292	-0.00613276	0.002720943	0.002389468	-0.02960548	-0.5331941	-0.7510232
	-0.006069087	0.002742498	0.0473122	-0.002287264	-0.5331941	-0.7510232	-0.003456601	-0.04023165
1.9e+08	0.0011463	-0.03017341	-0.6154668	-0.6793709	0.01221288	-0.03779245	-0.006193033	0.003822245
	-0.6154668	-0.6793709	-0.005731637	-0.03815726	-0.006259093	0.00381555	0.04463321	-0.003107761
	0.01221288	-0.03779245	-0.006259093	0.003815551	0.001284476	-0.02888869	-0.6177116	-0.680591
	-0.006193033	0.003822245	0.04463321	-0.003107761	-0.6177116	-0.680591	-0.004271902	-0.03764917
2e+08	0.0001293715	-0.02962792	-0.6906944	-0.5999304	0.003266838	-0.03574227	-0.006103638	0.004982605
	-0.6906944	-0.5999304	-0.005577322	-0.03558236	-0.006168732	0.004990111	0.04197652	-0.002973959
	0.003266838	-0.03574227	-0.006168732	0.004990111	0.0002995228	-0.02845342	-0.6930801	-0.6007879
	-0.006103638	0.004982605	0.04197652	-0.002973959	-0.6930801	-0.6007879	-0.004179966	-0.03524238
2.1e+08	-0.0008907329	-0.02937449	-0.7558032	-0.5122881	-0.005218906	-0.03165937	-0.00578434	0.006173523
	-0.7558032	-0.5122881	-0.004587486	-0.03342078	-0.005845371	0.006194055	0.03959326	-0.001925299
	-0.005218906	-0.03165937	-0.005845371	0.006194055	-0.0007159863	-0.02829585	-0.758272	-0.5127736
	-0.00578434	0.006173523	0.03959326	-0.001925299	-0.758272	-0.5127736	-0.003267421	-0.03321349
2.2e+08	-0.00206188	-0.02936241	-0.8099036	-0.4177079	-0.01278746	-0.02566609	-0.005231766	0.007344134
	-0.8099036	-0.4177079	-0.002899902	-0.03184239	-0.005286545	0.007375843	0.03771645	-6.098984e-05
	-0.01278746	-0.02566609	-0.005286545	0.007375843	-0.001903301	-0.02836096	-0.8123991	-0.4178196
	-0.005231766	0.007344134	0.03771645	-6.09898e-05	-0.8123991	-0.4178196	-0.001663252	-0.0317338
2.3e+08	-0.003507216	-0.02949231	-0.8522585	-0.3175564	-0.01901615	-0.01798627	-0.004455657	0.008446436
	-0.8522585	-0.3175564	-0.000684142	-0.0309767	-0.004502366	0.008487423	0.03654808	0.002465956
	-0.01901615	-0.01798627	-0.004502366	0.008487423	-0.003379374	-0.02854688	-0.8547268	-0.3172995
	-0.004455657	0.008446435	0.03654808	0.002465956	-0.8547268	-0.3172995	0.0004713945	-0.03093629
2.4e+08	-0.005311329	-0.02962502	-0.8823024	-0.2132806	-0.02353822	-0.008935742	-0.00347503	0.00943908
	-0.8823024	-0.2132806	0.00187008	-0.03090762	-0.003512804	0.009487192	0.03624726	0.00545812
	-0.02353822	-0.008935742	-0.003512804	0.009487192	-0.005222104	-0.02871282	-0.884692	-0.2126695
	-0.00347503	0.00943908	0.03624726	0.00545812	-0.884692	-0.2126695	0.002953317	-0.03090986
2.5e+08	-0.007508958	-0.02959415	-0.8996481	-0.1063919	-0.0260631	0.001091868	-0.00231619	0.01028852
	-0.8996481	-0.1063919	0.004564684	-0.03167149	-0.002344504	0.01034173	0.03692062	0.008684775
	-0.0260631	0.001091869	-0.002344504	0.01034173	-0.00746023	-0.02869307	-0.9019092	-0.1054447
	-0.002316191	0.01028852	0.03692062	0.008684775	-0.9019092	-0.1054447	0.005589232	-0.03169661
2.6e+08	-0.01007817	-0.02922223	-0.904095	0.001563491	-0.02639284	0.01164353	-0.0010092	0.01097004
	-0.904095	0.001563491	0.007204109	-0.03325714	-0.00102765	0.01102661	0.03861604	0.0118955
	-0.02639284	0.01164353	-0.00102765	0.01102661	-0.0100659	-0.02831121	-0.9061829	0.002819189
	-0.0010092	0.01097004	0.03861604	0.0118955	-0.9061829	0.002819189	0.008186353	-0.03329208
2.7e+08	-0.01293775	-0.02833772	-0.8956352	0.1090248	-0.02443298	0.02222883	0.0004156217	0.01146683
	-0.8956352	0.1090248	0.009607208	-0.03560994	0.0004067363	0.01152526	0.04131976	0.01483532
	-0.02443298	0.02222883	0.0004067362	0.01152526	-0.01295271	-0.02739845	-0.8975117	0.1105589
	0.0004156216	0.01146683	0.04131976	0.01483532	-0.8975117	0.1105589	0.01056456	-0.03564777
2.8e+08	-0.01594922	-0.02679296	-0.8744566	0.2144449	-0.02019966	0.03234417	0.00192927	0.01176842
	-0.8744566	0.2144449	0.0116161	-0.03863715	0.001930043	0.01182737	0.04495704	0.01725882
	-0.02019966	0.03234417	0.001930043	0.01182737	-0.01597804	-0.025811	-0.8760875	0.2162223
	0.00192927	0.01176842	0.04495704	0.01725882	-0.8760875	0.2162223	0.01256519	-0.0386768
2.9e+08	-0.01892531	-0.02448097	-0.840937	0.3163162	-0.01382014	0.04149763	0.003506126	0.01186837
	-0.840937	0.3163162	0.01310343	-0.04221537	0.003516253	0.01192684	0.04939623	0.01894528
	-0.01382014	0.04149763	0.003516253	0.01192684	-0.01895095	-0.02344599	-0.8422935	0.3182981
	0.003506126	0.01186837	0.04939623	0.01894528	-0.8422935	0.3182981	0.01405886	-0.0422613
3e+08	-0.02164162	-0.02134942	-0.7956347	0.4131966	-0.00552729	0.04923329	0.005122701	0.01176251
	-0.7956347	0.4131966	0.01397865	-0.04620045	0.005142151	0.01181945	0.05445666	0.01971067
	-0.00552729	0.04923329	0.00514215	0.01181945	-0.02164492	-0.02025616	-0.7966931	0.4153415
	0.005122701	0.01176251	0.05445666	0.01971067	-0.7966931	0.4153415	0.01495159	-0.04626098
3.1e+08	-0.02385296	-0.01741104	-0.7392794	0.5037341	0.004350299	0.05515423	0.006757859	0.01144675
	-0.7392794	0.5037341	0.01419004	-0.05043674	0.006786729	0.01150066	0.05991938	0.01941946
	0.004350299	0.05515423	0.006786729	0.01150066	-0.02381311	-0.01625963	-0.7400221	0.505996
	0.006757859	0.01144675	0.05991938	0.01941946	-0.7400221	0.505996	0.01518725	-0.0505231
3.2e+08	-0.02531113	-0.01274928	-0.6727551	0.586682	0.01540381	0.05894176	0.008390906	0.01091591
	-0.6727551	0.586682	0.01372483	-0.05476722	0.008429148	0.01096539	0.06553938	0.01799076
	0.01540381	0.05894176	0.008429148	0.01096539	-0.02520808	-0.0115462	-0.6731714	0.5890185
	0.008390906	0.01091591	0.06553938	0.01799076	-0.6731714	0.5890185	0.0147487	-0.05489198
3.3e+08	-0.02578549	-0.00751914	-0.5970806	0.660924	0.0271631	0.06037064	0.009999785	0.01016345
	-0.5970806	0.660924	0.01260738	-0.05904274	0.01004682	0.01020734	0.07105956	0.0154034
	0.0271631	0.06037064	0.01004682	0.01020734	-0.02560035	-0.006276308	-0.5971666	0.6632879
	0.009999785	0.01016345	0.07105956	0.0154034	-0.5971666	0.6632879	0.01365587	-0.0592183
3.4e+08	-0.02508196	-0.001942612	-0.5133952	0.7254808	0.03911849	0.05932074	0.01155863	0.009183259
	-0.5133952	0.7254808	0.01089492	-0.06313007	0.01161415	0.009219284	0.07622611	0.01169672
	0.03911849	0.05932074	0.01161415	0.009219284	-0.02479927	-0.00067714	-0.5131508	0.7278292
	0.01155863	0.009183259	0.07622611	0.01169672	-0.5131508	0.7278292	0.0119616	-0.06336746
3.5e+08	-0.02306129	0.003701641	-0.4229299	0.7795281	0.05074378	0.05578194	0.01303765	0.007970051
	-0.4229299	0.7795281	0.008671427	-0.06691872	0.01310053	0.007996255	0.08080158	0.006966885
	0.05074378	0.05578194	0.01310053	0.007996255	-0.02266929	0.004968021	-0.4223637	0.7818124
	0.01303765	0.007970051	0.08080158	0.006966885	-0.4223637	0.7818124	0.00974657	-0.06722676
3.6e+08	-0.01965365	0.009092297	-0.3269948	0.8223937	0.06152011	0.04985576	0.01440182	0.006522287
	-0.3269948	0.8223937	0.006040903	-0.07032617	0.01447045	0.006537129	0.08457819	0.001361924
	0.06152011	0.04985576	0.01447045	0.006537129	-0.01914648	0.01033428	-0.3261195	0.8245717
	0.01440182	0.006522287	0.08457819	0.001361924	-0.3261195	0.8245717	0.007112335	-0.07070977
3.7e+08	-0.01487055	0.01388358	-0.226952	0.8535682	0.07095942	0.04175065	0.01561173	0.004844843
	-0.226952	0.8535682	0.00311949	-0.07329994	0.01568394	0.004846443	0.08738877	-0.004927745
	0.07095942	0.04175065	0.01568394	0.004846443	-0.01424852	0.01507374	-0.2257863	0.8556004
	0.01561173	0.004844843	0.08738877	-0.004927745	-0.2257863	0.8556004	0.004173567	-0.07376064
3.8e+08	-0.008810374	0.01772549	-0.1242013	0.8727036	0.07862516	0.03177313	0.01662529	0.002949766
	-0.1242013	0.8727036	2.769287e-05	-0.07581925	0.01669826	0.002937669	0.08911468	-0.01168007
	0.07862516	0.03177313	0.01669826	0.002937669	-0.008080409	0.01883556	-0.1227698	0.8745504
	0.01662529	0.002949766	0.08911468	-0.01168007	-0.1227698	0.8745504	0.001050739	-0.07635466
3.9e+08	-0.001660802	0.02028502	-0.0201638	0.8796119	0.08415231	0.02031581	0.01739985	0.0008604784
	-0.0201638	0.8796119	-0.003117884	-0.07789465	0.01747037	0.0008333708	0.08969203	-0.01865364
	0.08415231	0.02031581	0.01747037	0.0008333708	-0.0008374186	0.02128835	-0.01849568	0.8812423
	0.01739985	0.0008604785	0.08969203	-0.01865364	-0.01849568	0.8812423	-0.002138616	-0.07849776
4e+08	0.006305549	0.02126961	0.0837368	0.874266	0.08726295	0.007839815	0.01789524	-0.001390805
	0.0837368	0.874266	-0.006211009	-0.07956428	0.01796012	-0.001432004	0.0891135	-0.02560096
	0.08726295	0.007839815	0.01796012	-0.001432004	0.00720178	0.022142	0.08560985	0.8756485
	0.01789524	-0.001390805	0.0891135	-0.02560096	0.08560985	0.8756485	-0.005285936	-0.08022519
4.1e+08	0.01474033	0.02044798	0.186094	0.8567921	0.0877788	-0.005143393	0.01807703	-0.003761338
	0.186094	0.8567921	-0.009162434	-0.08089035	0.01813306	-0.003815167	0.08742823	-0.03228142
	0.0877788	-0.005143393	0.01813306	-0.003815167	0.01568267	0.02116923	0.1881363	0.8579032
	0.01807703	-0.003761338	0.08742823	-0.03228142	0.1881363	0.8579032	-0.008299012	-0.0815963
4.2e+08	0.02323299	0.01766743	0.2855211	0.8274735	0.08563028	-0.01809388	0.01791991	-0.006199506
	0.2855211	0.8274735	-0.01190475	-0.08195404	0.01796404	-0.006264018	0.08473812	-0.0384748
	0.08563028	-0.01809388	0.01796404	-0.006264018	0.02418923	0.01822323	0.2876922	0.8282937
	0.01791991	-0.006199506	0.08473812	-0.0384748	0.2876922	0.8282937	-0.01110644	-0.0826905
4.3e+08	0.03133041	0.01287115	0.3806764	0.7867401	0.0808597	-0.030466	0.01740903	-0.00864898
	0.3806764	0.7867401	-0.0143955	-0.08284877	0.01743931	-0.008721025	0.08119152	-0.04399139
	0.0808597	-0.030466	0.01743931	-0.008721025	0.03226457	0.01325427	0.3829361	0.7872558
	0.01740903	-0.00864898	0.08119152	-0.04399139	0.3829361	0.7872558	-0.01366224	-0.08360056
4.4e+08	0.03855858	0.006108509	0.4702714	0.7351685	0.073621	-0.04173102	0.01654246	-0.01105011
	0.4702714	0.7351685	-0.01661971	-0.08367354	0.0165572	-0.01112626	0.07697451	-0.04868293
	0.073621	-0.04173102	0.0165572	-0.01112626	0.03943196	0.006319658	0.472577	0.735372
	0.01654246	-0.01105011	0.07697451	-0.04868293	0.472577	0.735372	-0.0159466	-0.08442598
4.5e+08	0.04444661	-0.002458251	0.5530831	0.6734787	0.0641746	-0.05140041	0.01533082	-0.01334456
	0.5530831	0.6734787	-0.01858963	-0.08452604	0.0153297	-0.01342104	0.07230088	-0.05244926
	0.0641746	-0.05140041	0.0153297	-0.01342104	0.04522017	-0.002409731	0.5553924	0.6733679
	0.01533082	-0.01334456	0.07230088	-0.05244926	0.5553924	0.6733679	-0.01796781	-0.08526607
4.6e+08	0.0485548	-0.01255387	0.6279743	0.6025267	0.05287703	-0.05904677	0.01379613	-0.01547881
	0.6279743	0.6025267	-0.02034309	-0.0854959	0.01378019	-0.01555169	0.06739943	-0.05524393
	0.05287703	-0.05904677	0.01378019	-0.01555169	0.04919143	-0.01265003	0.6302458	0.6021035
	0.01379613	-0.01547881	0.06739943	-0.05524393	0.6302458	0.6021035	-0.01976028	-0.08621316
4.7e+08	0.05050308	-0.02379563	0.6939113	0.5232969	0.04016664	-0.06432319	0.01197092	-0.01740629
	0.6939113	0.5232969	-0.02194038	-0.08665754	0.01194167	-0.01747235	0.06250113	-0.05707547
	0.04016664	-0.06432319	0.01194167	-0.01747235	0.05096799	-0.02401003	0.6961018	0.5225704
	0.01197092	-0.01740629	0.06250113	-0.05707547	0.6961018	0.5225704	-0.02138131	-0.08734575
4.8e+08	0.04999406	-0.03570738	0.7499676	0.4368926	0.02654594	-0.06697821	0.009893188	-0.01909092
	0.7499676	0.4368926	-0.0234591	-0.08806697	0.009853686	-0.01914726	0.05782648	-0.05800695
	0.02654594	-0.06697821	0.009853686	-0.01914726	0.0502588	-0.03600519	0.7520401	0.4358784
	0.009893188	-0.01909092	0.05782648	-0.05800695	0.7520401	0.4358784	-0.02290704	-0.08872391
4.9e+08	0.04683868	-0.04773612	0.7953521	0.3445329	0.01255987	-0.06686835	0.007605352	-0.02050629
	0.7953521	0.3445329	-0.02498939	-0.08975638	0.007558424	-0.02055147	0.05357254	-0.05815183
	0.01255987	-0.06686835	0.007558424	-0.02055147	0.04688171	-0.04807652	0.79727	0.3432471
	0.007605352	-0.02050629	0.05357254	-0.05815183	0.79727	0.3432471	-0.02442708	-0.09038512
5e+08	0.04097611	-0.05927984	0.8294248	0.2475223	-0.001227067	-0.06396356	0.005147897	-0.02163636
	0.8294248	0.2475223	-0.02662657	-0.09173323	0.005097533	-0.02166984	0.04990152	-0.05766657
	-0.001227067	-0.06396356	0.005097533	-0.02166984	0.04078412	-0.05961626	0.8311512	0.2459907
	0.005147897	-0.02163636	0.04990152	-0.05766657	0.8311512	0.2459907	-0.02603766	-0.09234173
5.1e+08	0.0324837	-0.06971539	0.851698	0.1472481	-0.01425438	-0.05835004	0.002559582	-0.02247326
	0.851698	0.1472481	-0.02846488	-0.09397961	0.002509069	-0.02249565	0.04693168	-0.05674165
	-0.01425438	-0.05835004	0.002509069	-0.02249565	0.03205417	-0.06999852	0.8532044	0.1454976
	0.002559582	-0.02247326	0.04693168	-0.05674165	0.8532044	0.1454976	-0.02783518	-0.0945803
5.2e+08	0.02158627	-0.07843282	0.8618632	0.04515302	-0.02599107	-0.05022633	-0.0001276937	-0.02301439
	0.8618632	0.04515302	-0.0305909	-0.09645332	-0.0001759106	-0.02302741	0.04473033	-0.0555895
