!$
! Info: Touchstone file created by Circ.  Input file=Intel_C2M_200G_8p5in_202208016_staggered.circ
!$
# Hz S RI R 50
0	0.02620103	8.277928e-24	-0.0001067176	1.306914e-20	0.0003497047	9.189273e-22	-0.0001024629	1.254809e-20
	-0.0001067177	1.306915e-20	0.02564919	4.588218e-24	-0.000113776	1.393354e-20	0.0001274803	3.145148e-22
	0.0003497709	9.195765e-22	-0.0001137761	1.393355e-20	0.02620226	8.475249e-24	-0.0001067429	1.307223e-20
	-0.0001024629	1.254809e-20	0.0001275371	3.146401e-22	-0.0001067428	1.307222e-20	0.02564717	4.341948e-24
1e+07	0.03244881	0.003329781	-0.0007516977	-7.275462e-05	0.001675176	0.007051998	-6.346523e-05	-0.0001022866
	-0.0007516977	-7.275462e-05	0.03113976	0.004078053	-0.0005265482	0.0002165729	0.002234614	0.007066072
	0.001675176	0.007051998	-0.0005265482	0.0002165729	0.03223795	0.003785468	-0.000596543	-2.949605e-05
	-6.346523e-05	-0.0001022866	0.002234614	0.007066072	-0.000596543	-2.949605e-05	0.03122979	0.003441917
2e+07	0.03799984	0.001049892	-0.0007088231	-0.0002079066	0.004048506	0.013288	-9.400313e-05	-0.0001439026
	-0.000708823	-0.0002079065	0.03707321	0.002684675	-0.0006239892	0.0001791907	0.005207548	0.01290666
	0.004048594	0.01328789	-0.0006239892	0.0001791908	0.03832643	0.001808605	-0.0005617139	-0.0002969261
	-9.400313e-05	-0.0001439026	0.005207556	0.01290664	-0.0005617139	-0.0002969261	0.03644024	0.001687678
3e+07	0.04141461	-0.003978714	-0.0007249676	-0.0003048709	0.007653597	0.01874601	-0.0001427349	-0.0001950078
	-0.0007249675	-0.0003048709	0.04081649	-0.00169306	-0.0006995336	0.0001935047	0.009573234	0.01785463
	0.007653572	0.01874598	-0.0006995336	0.0001935047	0.04216148	-0.003254883	-0.0005761931	-0.0004109384
	-0.0001427349	-0.0001950078	0.009573217	0.01785467	-0.0005761931	-0.0004109383	0.0396465	-0.002623333
4e+07	0.04324614	-0.009942556	-0.0007709273	-0.0003552676	0.01221114	0.02326208	-0.0002084691	-0.0002343037
	-0.0007709273	-0.0003552676	0.04261318	-0.007165876	-0.0007654692	0.0002210415	0.01509443	0.02143785
	0.01221114	0.02326208	-0.0007654692	0.0002210415	0.04431031	-0.009389625	-0.0006236108	-0.0004775957
	-0.0002084691	-0.0002343037	0.01509444	0.02143788	-0.0006236109	-0.0004775957	0.04103959	-0.007881263
5e+07	0.04360023	-0.01634979	-0.0008353204	-0.0003726175	0.01750207	0.02664164	-0.0002836777	-0.0002577553
	-0.0008353204	-0.0003726175	0.04274982	-0.01293273	-0.0008256174	0.0002568007	0.02138505	0.0234542
	0.01750207	0.02664165	-0.0008256174	0.0002568007	0.04488227	-0.01604985	-0.0006910216	-0.0005099782
	-0.0002836777	-0.0002577553	0.02138506	0.02345421	-0.0006910216	-0.0005099781	0.04088208	-0.01334588
6e+07	0.04256181	-0.02275055	-0.0009092733	-0.0003612785	0.0232409	0.02877225	-0.0003653521	-0.0002647661
	-0.0009092733	-0.0003612785	0.04145318	-0.01852869	-0.0008833888	0.0002983453	0.02803878	0.02376022
	0.02324089	0.02877225	-0.0008833888	0.0002983453	0.04396116	-0.02275056	-0.0007683886	-0.0005127751
	-0.0003653521	-0.0002647661	0.02803879	0.0237602	-0.0007683885	-0.0005127751	0.03939239	-0.01858457
7e+07	0.04029651	-0.02878677	-0.0009933412	-0.0003148738	0.02912895	0.02961353	-0.000450629	-0.0002548178
	-0.0009933412	-0.0003148737	0.03896442	-0.0236019	-0.0009422387	0.0003449007	0.03462171	0.02231408
	0.02912896	0.02961353	-0.0009422387	0.0003449007	0.04171221	-0.02910514	-0.0008473879	-0.0004893791
	-0.000450629	-0.0002548178	0.0346217	0.02231407	-0.0008473878	-0.0004893791	0.03680751	-0.02326768
8e+07	0.03701422	-0.03419102	-0.001078573	-0.0002320322	0.03486967	0.02919575	-0.000535663	-0.000227594
	-0.001078573	-0.0002320322	0.03556767	-0.02790494	-0.001004636	0.000396573	0.04070269	0.01917861
	0.03486967	0.02919575	-0.001004636	0.000396573	0.03834713	-0.03482079	-0.0009534571	-0.0003956922
	-0.000535663	-0.000227594	0.04070269	0.01917862	-0.0009534571	-0.0003956922	0.03341028	-0.02716349
9e+07	0.03295728	-0.03876777	-0.001146679	-0.0001269382	0.04018691	0.02761734	-0.0006178148	-0.0001838243
	-0.001146679	-0.0001269382	0.03156804	-0.03129847	-0.001078167	0.0004542005	0.04587847	0.01451647
	0.04018691	0.02761734	-0.001078167	0.0004542005	0.03411049	-0.03967818	-0.001053045	-0.0002424177
	-0.0006178148	-0.0001838243	0.04587848	0.01451647	-0.001053045	-0.0002424176	0.02951004	-0.0301416
1e+08	0.02845995	-0.04237713	-0.001184538	-8.14311e-07	0.04484558	0.02503374	-0.000694907	-0.0001247288
	-0.001184538	-8.14311e-07	0.02728134	-0.03374287	-0.001186185	0.0005161704	0.04979635	0.008578158
	0.04484558	0.02503374	-0.001186185	0.0005161704	0.02931355	-0.04351688	-0.001104701	-5.792559e-05
	-0.000694907	-0.0001247288	0.04979635	0.008578157	-0.001104701	-5.792559e-05	0.02546981	-0.03213992
1.1e+08	0.02365174	-0.04534095	-0.001210103	0.0001443857	0.04861617	0.02163504	-0.0007657845	-5.138318e-05
	-0.001210103	0.0001443857	0.0228613	-0.03535868	-0.001275594	0.0005319386	0.05215946	0.001677087
	0.04861617	0.02163504	-0.001275594	0.0005319386	0.0241766	-0.04647683	-0.001113425	8.325592e-05
	-0.0007657845	-5.138318e-05	0.05215946	0.001677086	-0.001113425	8.32559e-05	0.0214939	-0.03362994
1.2e+08	0.01850618	-0.04725398	-0.001232372	0.0002905208	0.05136432	0.01771316	-0.0008293528	3.705048e-05
	-0.001232372	0.0002905208	0.01855047	-0.03607324	-0.001345411	0.0005845998	0.05275691	-0.005741266
	0.05136432	0.01771316	-0.001345411	0.0005845998	0.01878527	-0.04834	-0.001125098	0.0002169683
	-0.0008293528	3.705048e-05	0.05275691	-0.005741267	-0.001125098	0.0002169683	0.01748817	-0.03429627
1.3e+08	0.01340114	-0.04808839	-0.001241843	0.0004412682	0.05303441	0.01353832	-0.000883918	0.0001397107
	-0.001241843	0.0004412682	0.01457266	-0.03603904	-0.001410768	0.0006668064	0.05150473	-0.01325743
	0.05303441	0.01353832	-0.001410768	0.0006668064	0.0134748	-0.04909269	-0.001128561	0.0003496144
	-0.000883918	0.0001397107	0.05150472	-0.01325743	-0.001128561	0.0003496144	0.01377462	-0.03424567
1.4e+08	0.008612694	-0.04791401	-0.0012365	0.0005964551	0.05363081	0.009384877	-0.0009256985	0.0002558916
	-0.0012365	0.0005964551	0.01106354	-0.03543393	-0.001469621	0.0007783976	0.04841196	-0.02043439
	0.05363081	0.009384877	-0.001469621	0.0007783976	0.008514154	-0.04880963	-0.001122809	0.0004823636
	-0.0009256985	0.0002558916	0.04841196	-0.02043439	-0.001122809	0.0004823636	0.01050551	-0.03366125
1.5e+08	0.004370173	-0.04686204	-0.001215143	0.0007556052	0.05322226	0.00551416	-0.0009523587	0.0003843374
	-0.001215143	0.0007556052	0.008096089	-0.03444814	-0.001516756	0.0009193865	0.0435858	-0.02684412
	0.05322226	0.00551416	-0.001516756	0.0009193865	0.004131642	-0.0476268	-0.001107723	0.0006163019
	-0.0009523587	0.0003843374	0.0435858	-0.02684412	-0.001107723	0.0006163019	0.007750143	-0.03273264
1.6e+08	0.0008535891	-0.04510926	-0.001176577	0.0009180991	0.05193662	0.002160526	-0.0009615625	0.000523385
	-0.001176577	0.0009180991	0.005684097	-0.03327062	-0.001545607	0.001088525	0.03722884	-0.03209058
	0.05193662	0.002160527	-0.001545607	0.001088525	0.0005076517	-0.04572584	-0.001082959	0.0007527583
	-0.0009615625	0.000523385	0.03722884	-0.03209058	-0.001082959	0.0007527583	0.005516216	-0.03164255
1.7e+08	-0.001810816	-0.0428639	-0.001119295	0.001083182	0.04995218	-0.0004825096	-0.0009509638	0.0006710222
	-0.001119295	0.001083182	0.003786781	-0.03207553	-0.001549275	0.001282874	0.02963012	-0.03583074
	0.04995218	-0.0004825093	-0.001549275	0.001282874	-0.00223054	-0.04332041	-0.001047371	0.0008931573
	-0.0009509638	0.0006710222	0.02963012	-0.03583074	-0.001047371	0.0008931573	0.003759002	-0.03055524
1.8e+08	-0.00355273	-0.04035116	-0.001041474	0.001249662	0.0474869	-0.002271797	-0.0009182935	0.0008247257
	-0.001041474	0.001249662	0.002315907	-0.03100801	-0.001521152	0.001497842	0.02115198	-0.03779292
	0.0474869	-0.002271797	-0.001521152	0.001497842	-0.004012658	-0.04064145	-0.0009989446	0.001038681
	-0.0009182935	0.0008247257	0.02115198	-0.03779292	-0.0009989446	0.001038681	0.002389468	-0.02960548
1.9e+08	-0.004358523	-0.03780021	-0.0009409618	0.001415749	0.04478503	-0.003121832	-0.0008614945	0.0009814501
	-0.0009409618	0.001415749	0.0011463	-0.03017341	-0.001455635	0.001727134	0.01221288	-0.03779245
	0.04478503	-0.003121832	-0.001455635	0.001727134	-0.004824984	-0.03792401	-0.0009345976	0.001189803
	-0.0008614945	0.0009814501	0.01221288	-0.03779245	-0.0009345976	0.001189803	0.001284476	-0.02888869
2e+08	-0.004267438	-0.03543107	-0.0008157839	0.001578517	0.04210218	-0.003009605	-0.0007788716	0.001137504
	-0.0008157839	0.001578517	0.0001293715	-0.02962792	-0.001342271	0.001969041	0.003266838	-0.03574227
	0.04210218	-0.003009605	-0.001342271	0.001969041	-0.004708601	-0.03539334	-0.0008504297	0.001345832
	-0.0007788716	0.001137504	0.003266838	-0.03574227	-0.0008504297	0.001345832	0.0002995228	-0.02845342
2.1e+08	-0.003368383	-0.03344278	-0.0006637131	0.001734707	0.03969154	-0.001974677	-0.0006692632	0.001288693
	-0.0006637131	0.001734707	-0.0008907329	-0.02937449	-0.001183969	0.002207332	-0.005218906	-0.03165937
	0.03969154	-0.001974677	-0.001183969	0.002207332	-0.003753484	-0.03325439	-0.0007423693	0.00150483
	-0.0006692632	0.001288693	-0.005218906	-0.03165937	-0.0007423693	0.00150483	-0.0007159863	-0.02829585
2.2e+08	-0.001790313	-0.03200374	-0.0004832584	0.001879696	0.03778796	-0.0001167387	-0.0005322132	0.001430322
	-0.0004832584	0.001879696	-0.00206188	-0.02936241	-0.0009806081	0.002433105	-0.01278746	-0.02566609
	0.03778796	-0.0001167386	-0.0009806081	0.002433105	-0.002092142	-0.03168042	-0.0006062836	0.001663139
	-0.0005322132	0.001430322	-0.01278746	-0.02566609	-0.0006062836	0.001663139	-0.001903301	-0.02836096
2.3e+08	0.0003054218	-0.03124379	-0.0002739402	0.002007961	0.03659499	0.002410313	-0.0003681784	0.001557373
	-0.0002739402	0.002007961	-0.003507216	-0.02949231	-0.0007340856	0.002637615	-0.01901615	-0.01798627
	0.036595	0.002410313	-0.0007340856	0.002637615	0.0001106102	-0.0308058	-0.000438751	0.001815441
	-0.0003681784	0.001557373	-0.01901615	-0.01798627	-0.000438751	0.001815441	-0.003379374	-0.02854688
2.4e+08	0.002736385	-0.03124859	-3.642399e-05	0.002113403	0.03627303	0.005407899	-0.0001786214	0.001664684
	-3.642399e-05	0.002113403	-0.005311329	-0.02962502	-0.0004479367	0.002812828	-0.02353822	-0.008935742
	0.03627303	0.005407899	-0.0004479367	0.002812828	0.002667934	-0.03072012	-0.0002375419	0.001954905
	-0.0001786214	0.001664684	-0.02353822	-0.008935742	-0.0002375419	0.001954905	-0.005222104	-0.02871282
2.5e+08	0.00531077	-0.03205746	0.000226978	0.002189634	0.03692956	0.008643918	3.39754e-05	0.001747183
	0.000226978	0.002189634	-0.007508958	-0.02959415	-0.0001271039	0.002951656	-0.0260631	0.001091868
	0.03692956	0.008643918	-0.0001271039	0.002951656	0.005382949	-0.03146555	-2.224787e-06	0.002073601
	3.39754e-05	0.001747183	-0.0260631	0.001091869	-2.224787e-06	0.002073601	-0.00746023	-0.02869307
2.6e+08	0.007838057	-0.03366311	0.000512376	0.002230431	0.03861292	0.01186649	0.0002659507	0.001800197
	0.000512376	0.002230431	-0.01007817	-0.02922223	0.0002223789	0.003048253	-0.02639284	0.01164353
	0.03861292	0.01186649	0.0002223789	0.003048253	0.00805947	-0.03303713	0.0002655133	0.002162971
	0.0002659507	0.001800197	-0.02639284	0.01164353	0.0002655133	0.002162971	-0.0100659	-0.02831121
2.7e+08	0.01014084	-0.03601534	0.0008142576	0.002230248	0.04130946	0.0148192	0.0005127493	0.001819623
	0.0008142576	0.002230248	-0.01293775	-0.02833772	0.0005936633	0.003098063	-0.02443298	0.02222883
	0.04130946	0.0148192	0.0005936633	0.003098063	0.0105142	-0.03538526	0.0005616291	0.002214512
	0.0005127493	0.001819623	-0.02443298	0.02222883	0.0005616291	0.002214512	-0.01295271	-0.02739845
2.8e+08	0.01206368	-0.0390262	0.001125663	0.002184669	0.04494416	0.01725528	0.0007688187	0.001802255
	0.001125663	0.002184669	-0.01594922	-0.02679296	0.000979629	0.003097761	-0.02019966	0.03234417
	0.04494416	0.01725528	0.000979629	0.003097761	0.01258565	-0.03842145	0.0008796806	0.002220506
	0.0007688187	0.001802255	-0.02019966	0.03234417	0.0008796806	0.002220506	-0.01597804	-0.025811
2.9e+08	0.01348052	-0.04257696	0.001438454	0.002090796	0.04938478	0.01895285	0.001027988	0.001745966
	0.001438454	0.002090796	-0.01892531	-0.02448097	0.001372925	0.003045213	-0.01382014	0.04149763
	0.04938478	0.01895285	0.001372925	0.003045213	0.01414205	-0.04202584	0.001211164	0.002174656
	0.001027988	0.001745966	-0.01382014	0.04149763	0.001211164	0.002174656	-0.01895095	-0.02344599
3e+08	0.01430094	-0.04652798	0.001743828	0.001947547	0.05444978	0.01972699	0.001283675	0.001649848
	0.001743828	0.001947547	-0.02164162	-0.02134942	0.001766138	0.002939338	-0.00552729	0.04923329
	0.05444978	0.01972699	0.001766138	0.002939338	0.01508753	-0.04605576	0.001545832	0.002072744
	0.001283675	0.001649848	-0.00552729	0.04923329	0.001545832	0.002072744	-0.02164492	-0.02025616
3.1e+08	0.01447237	-0.05072758	0.002032788	0.001755842	0.05991923	0.0194415	0.00152918	0.001514224
	0.002032788	0.001755842	-0.02385296	-0.01741104	0.002151982	0.0027799	0.004350299	0.05515423
	0.05991923	0.0194415	0.002151982	0.0027799	0.01536457	-0.05035584	0.00187233	0.001913136
	0.00152918	0.001514224	0.004350299	0.05515423	0.00187233	0.001913136	-0.02381311	-0.01625963
3.2e+08	0.0139805	-0.05502213	0.002296659	0.001518511	0.06554705	0.0180152	0.001757889	0.001340804
	0.002296659	0.001518511	-0.02531113	-0.01274928	0.002523144	0.002567635	0.01540381	0.05894176
	0.06554705	0.0180152	0.002523144	0.002567635	0.0149552	-0.05476767	0.002179016	0.00169688
	0.001757889	0.001340804	0.01540381	0.05894176	0.002179016	0.00169688	-0.02520808	-0.0115462
3.3e+08	0.0128476	-0.05926506	0.002527592	0.001240197	0.07107503	0.01542695	0.001963695	0.001132429
	0.002527592	0.001240197	-0.02578549	-0.00751914	0.002872513	0.002303921	0.0271631	0.06037064
	0.07107503	0.01542695	0.002872513	0.002303921	0.01387912	-0.05913914	0.002454681	0.001427821
	0.001963695	0.001132429	0.0271631	0.06037064	0.002454681	0.001427821	-0.02560035	-0.006276308
3.4e+08	0.01112847	-0.06332504	0.002718977	0.0009270555	0.07624839	0.01171636	0.002141205	0.0008930388
	0.002718977	0.0009270555	-0.02508196	-0.001942612	0.00319293	0.001991145	0.03911849	0.05932074
	0.07624839	0.01171636	0.00319293	0.001991145	0.01218946	-0.06333295	0.002689302	0.001112348
	0.002141205	0.0008930388	0.03911849	0.05932074	0.002689302	0.001112348	-0.02479927	-0.00067714
3.5e+08	0.00890452	-0.06709264	0.002865726	0.0005863319	0.08082885	0.006980138	0.00228586	0.0006274271
	0.002865726	0.0005863319	-0.02306129	0.003701641	0.003477444	0.001632572	0.05074378	0.05578194
	0.08082885	0.006980138	0.003477444	0.001632572	0.009967757	-0.06723388	0.002874621	0.0007590088
	0.00228586	0.0006274271	0.05074378	0.05578194	0.002874621	0.0007590088	-0.02266929	0.004968021
3.6e+08	0.00627733	-0.07048571	0.002964518	0.0002258854	0.08460796	0.001367037	0.002394189	0.0003410113
	0.002964518	0.0002258854	-0.01965365	0.009092297	0.003719315	0.00123234	0.06152011	0.04985576
	0.08460796	0.001367037	0.003719315	0.00123234	0.007316792	-0.07075326	0.003004726	0.0003778538
	0.002394189	0.0003410113	0.06152011	0.04985576	0.003004726	0.0003778538	-0.01914648	0.01033428
3.7e+08	0.003360778	-0.07345151	0.003013712	-0.0001463419	0.08741818	-0.004931652	0.002463806	3.944197e-05
	0.003013712	-0.0001463419	-0.01487055	0.01388358	0.003912181	0.0007957722	0.07095942	0.04175065
	0.08741818	-0.004931652	0.003912181	0.0007957722	0.004352956	-0.07383333	0.003076256	-2.035751e-05
	0.002463806	3.944197e-05	0.07095942	0.04175065	0.003076256	-2.035751e-05	-0.01424852	0.01507374
3.8e+08	0.0002734943	-0.0759685	0.00301328	-0.0005226058	0.08914072	-0.011693	0.00249337	-0.0002714126
	0.00301328	-0.0005226058	-0.008810374	0.01772549	0.004050292	0.0003293903	0.07862516	0.03177313
	0.08914072	-0.011693	0.004050292	0.0003293903	0.001198729	-0.07644793	0.003088423	-0.0004246496
	0.00249337	-0.0002714126	0.07862516	0.03177313	0.003088423	-0.0004246496	-0.008080409	0.01883556
3.9e+08	-0.002869379	-0.0780461	0.002964551	-0.0008958681	0.08971181	-0.01867465	0.002482526	-0.000585945
	0.002964551	-0.0008958681	-0.001660802	0.02028502	0.004128832	-0.0001592807	0.08415231	0.02031581
	0.08971181	-0.01867465	0.004128832	-0.0001592807	-0.002026139	-0.07860194	0.003042906	-0.0008247427
	0.002482526	-0.000585945	0.08415231	0.02031581	0.003042906	-0.0008247427	-0.0008374186	0.02128835
4e+08	-0.005962573	-0.07972114	0.002869872	-0.001259994	0.08912449	-0.02562832	0.002431747	-0.0008988396
	0.002869872	-0.001259994	0.006305549	0.02126961	0.004144101	-0.0006618162	0.08726295	0.007839815
	0.08912449	-0.02562832	0.004144101	-0.0006618162	-0.005210712	-0.08033011	0.002943389	-0.001211626
	0.002431747	-0.0008988396	0.08726295	0.007839815	0.002943389	-0.001211626	0.00720178	0.022142
4.1e+08	-0.008917183	-0.08105443	0.002731626	-0.001609144	0.08742846	-0.03231269	0.002342213	-0.001205241
	0.002731626	-0.001609144	0.01474033	0.02044798	0.004088327	-0.001197403	0.0877788	-0.005143393
	0.08742846	-0.03231269	0.004088327	-0.001197403	-0.008260525	-0.08169174	0.002795312	-0.001576931
	0.002342213	-0.001205241	0.0877788	-0.005143393	0.002795312	-0.001576931	0.01568267	0.02116923
4.2e+08	-0.01166597	-0.08212587	0.002553593	-0.001939447	0.08472632	-0.03850705	0.002215558	-0.00150084
	0.002553593	-0.001939447	0.02323299	0.01766743	0.003955668	-0.001738965	0.08563028	-0.01809388
	0.08472632	-0.03850705	0.003955668	-0.001738965	-0.01110174	-0.08276671	0.002605065	-0.001915691
	0.002215558	-0.00150084	0.08563028	-0.01809388	0.002605065	-0.001915691	0.02418923	0.01822323
4.3e+08	-0.01416625	-0.08302765	0.002339348	-0.002248108	0.08116731	-0.04402142	0.002053529	-0.001781915
	0.002339348	-0.002248108	0.03133041	0.01287115	0.003749198	-0.002261147	0.0808597	-0.030466
	0.08116731	-0.04402142	0.003749198	-0.002261147	-0.01368615	-0.08364881	0.002379068	-0.002224997
	0.002053529	-0.001781915	0.0808597	-0.030466	0.002379068	-0.002224997	0.03226457	0.01325427
4.4e+08	-0.01640241	-0.08385775	0.002091846	-0.002532675	0.07693832	-0.04870739	0.001858118	-0.002045028
	0.002091846	-0.002532675	0.03855858	0.006108509	0.003472786	-0.002753303	0.073621	-0.04173102
	0.07693832	-0.04870739	0.003472786	-0.002753303	-0.01599205	-0.08443901	0.002123471	-0.002503215
	0.001858118	-0.002045028	0.073621	-0.04173102	0.002123471	-0.002503215	0.03943196	0.006319658
4.5e+08	-0.01838584	-0.08471322	0.00181358	-0.002791139	0.07225408	-0.05246507	0.001631333	-0.002287066
	0.00181358	-0.002791139	0.04444661	-0.002458251	0.003132115	-0.003205776	0.0641746	-0.05140041
	0.07225408	-0.05246507	0.003132115	-0.003205776	-0.01802627	-0.08523848	0.001843447	-0.002750329
	0.001631333	-0.002287066	0.0641746	-0.05140041	0.001843447	-0.002750329	0.04522017	-0.002409731
4.6e+08	-0.02015348	-0.08568327	0.001506611	-0.003021499	0.06734415	-0.05524835	0.00137507	-0.002505118
	0.001506611	-0.003021499	0.0485548	-0.01255387	0.002734523	-0.00361017	0.05287703	-0.05904677
	0.06734415	-0.05524835	0.002734523	-0.00361017	-0.01982212	-0.08614164	0.001542717	-0.00296731
	0.00137507	-0.002505118	0.05287703	-0.05904677	0.001542717	-0.00296731	0.04919143	-0.01265003
4.7e+08	-0.02176457	-0.08684234	0.001172489	-0.003221629	0.0624402	-0.05706637	0.00109131	-0.002696237
	0.001172489	-0.003221629	0.05050308	-0.02379563	0.002288332	-0.003959906	0.04016664	-0.06432319
	0.0624402	-0.05706637	0.002288332	-0.003959906	-0.02143643	-0.08722935	0.001223777	-0.00315538
	0.00109131	-0.002696237	0.04016664	-0.06432319	0.001223777	-0.00315538	0.05096799	-0.02401003
4.8e+08	-0.02329583	-0.08824671	0.0008126525	-0.003388903	0.05776326	-0.05798292	0.0007820196	-0.002857416
	0.0008126525	-0.003388903	0.04999406	-0.03570738	0.001802303	-0.004250369	0.02654594	-0.06697821
	0.05776326	-0.05798292	0.001802303	-0.004250369	-0.02294525	-0.08856399	0.0008874896	-0.003315565
	0.0007820196	-0.002857416	0.02654594	-0.06697821	0.0008874896	-0.003315565	0.0502588	-0.03600519
4.9e+08	-0.02483669	-0.0899291	0.0004287342	-0.003520039	0.05351064	-0.05811238	0.0004494173	-0.002985456
	0.0004287342	-0.003520039	0.04683868	-0.04773612	0.001285509	-0.004478609	0.01255987	-0.06686835
