# GHz S RI R 45
0.000     0.015269841948    0.001923274860    -0.000000016546    -0.000000112730    0.000714375825    0.001644598786    -0.000000012939    -0.000000111769
            -0.000000016546    -0.000000112730    0.014033591754    0.001426089020    0.000000003364    -0.000000082471    0.000586396559    0.001227992143
            0.000714375699    0.001644598731    0.000000003364    -0.000000082471    0.015219020642    0.001910829412    0.000000009508    -0.000000078534
            -0.000000012939    -0.000000111769    0.000586396516    0.001227992164    0.000000009508    -0.000000078534    0.013958897019    0.001417780418
0.025     0.019576552299    0.010732391554    -0.000000076108    -0.000000249596    0.002266196765    0.009589479868    -0.000000070297    -0.000000247759
            -0.000000076108    -0.000000249596    0.017597332361    0.008836853050    -0.000000032510    -0.000000187754    0.001747450509    0.007700082043
            0.002263608237    0.009592239053    -0.000000032510    -0.000000187753    0.019501078008    0.010680279123    -0.000000021672    -0.000000179800
            -0.000000070297    -0.000000247759    0.001747278660    0.007700114990    -0.000000021672    -0.000000179800    0.017522996336    0.008750931027
0.050     0.025817566678    0.017472768836    -0.000000226303    -0.000000441179    0.006684190793    0.018167317757    -0.000000217855    -0.000000440264
            -0.000000226303    -0.000000441179    0.022640771594    0.014420862548    -0.000000138488    -0.000000344823    0.005121128215    0.014721562632
            0.006684156682    0.018167347356    -0.000000138488    -0.000000344823    0.025709861846    0.017366409021    -0.000000120423    -0.000000334569
            -0.000000217855    -0.000000440264    0.005121098751    0.014721566529    -0.000000120423    -0.000000334569    0.022544007366    0.014265920824
0.075     0.033669396179    0.021955303461    -0.000000437975    -0.000000574344    0.013475595430    0.024988448775    -0.000000427465    -0.000000575597
            -0.000000437975    -0.000000574344    0.028996795400    0.018338961017    -0.000000296760    -0.000000461902    0.010381721029    0.020510570604
            0.013475587900    0.024988449427    -0.000000296760    -0.000000461902    0.033518009178    0.021823670455    -0.000000271011    -0.000000452309
            -0.000000427465    -0.000000575597    0.010381713137    0.020510570115    -0.000000271011    -0.000000452309    0.028869599984    0.018122247122
0.100     0.042811461564    0.023770200519    -0.000000697333    -0.000000637290    0.022036501796    0.029502835692    -0.000000685341    -0.000000641673
            -0.000000697333    -0.000000637290    0.036528502916    0.020285374576    -0.000000496743    -0.000000527711    0.017135004220    0.024664342130
            0.022036501796    0.029502835692    -0.000000496743    -0.000000527711    0.042612198007    0.023633929542    -0.000000463064    -0.000000521519
            -0.000000685341    -0.000000641673    0.017135004220    0.024664342130    -0.000000463064    -0.000000521519    0.036365148546    0.020021064841
0.125     0.052452228119    0.022587229016    -0.000000985557    -0.000000618684    0.031666780582    0.031305573344    -0.000000972977    -0.000000627126
            -0.000000985557    -0.000000618684    0.044757092805    0.019952870418    -0.000000724624    -0.000000532208    0.024926232091    0.026864132312
            0.031666780582    0.031305573344    -0.000000724624    -0.000000532208    0.052208591921    0.022467456826    -0.000000683342    -0.000000532397
            -0.000000972977    -0.000000627126    0.024926232091    0.026864132312    -0.000000683342    -0.000000532397    0.044558519652    0.019657301288
0.150     0.061863422887    0.018264373254    -0.000001281005    -0.000000512093    0.041599325020    0.030194273385    -0.000001268940    -0.000000525118
            -0.000001281005    -0.000000512093    0.053095559602    0.017197903734    -0.000000964182    -0.000000468937    0.033257161355    0.026901380220
            0.041599325020    0.030194273385    -0.000000964182    -0.000000468937    0.061588887015    0.018184997088    -0.000000916586    -0.000000478146
            -0.000001268940    -0.000000525118    0.033257161355    0.026901380220    -0.000000916586    -0.000000478146    0.052867313497    0.016888096674
0.175     0.070110086759    0.010906299415    -0.000001561240    -0.000000316232    0.051037720018    0.026150976789    -0.000001551018    -0.000000334218
            -0.000001561240    -0.000000316232    0.060944787307    0.011995937564    -0.000001198555    -0.000000335245    0.041584667221    0.024683166674
            0.051037720018    0.026150976789    -0.000001198555    -0.000000335245    0.069826403567    0.010884676760    -0.000001146560    -0.000000355850
            -0.000001551018    -0.000000334218    0.041584667221    0.024683166674    -0.000001146560    -0.000000355850    0.060700202938    0.011686129301
0.200     0.076365514710    0.000875223152    -0.000001803824    -0.000000035009    0.059210848243    0.019361496964    -0.000001796984    -0.000000057893
            -0.000001803824    -0.000000035009    0.067699751281    0.004479828409    -0.000001410231    -0.000000132044    0.049364740603    0.020244215389
            0.059210848243    0.019361496964    -0.000001410231    -0.000000132044    0.076101505635    0.000921617894    -0.000001356387    -0.000000165942
            -0.000001796984    -0.000000057893    0.049364740603    0.020244215389    -0.000001356387    -0.000000165942    0.067457515103    0.004180344013
0.225     0.079914947685    -0.011281975386    -0.000001987647    0.000000322963    0.065409999211    0.010194737883    -0.000001985814    0.000000295606
            -0.000001987647    0.000000322963    0.072787485292    -0.005083457783    -0.000001582314    0.000000135879    0.056071307691    0.013737847277
            0.065409999211    0.010194737883    -0.000001582314    0.000000135879    0.079703986258    -0.011167188239    -0.000001529758    0.000000087380
            -0.000001985814    0.000000295606    0.056071307691    0.013737847277    -0.000001529758    0.000000087380    0.072570627360    -0.005368254995
0.250     0.080205217473    -0.024848268114    -0.000002093394    0.000000744263    0.069037130290    -0.000816290198    -0.000002098155    0.000000713365
            -0.000002093394    0.000000744263    0.075714948474    -0.016289022344    -0.000001698571    0.000000460015    0.061226912160    0.005431274733
            0.069037130290    -0.000816290198    -0.000001698571    0.000000460015    0.080082587171    -0.024675056105    -0.000001650850    0.000000396428
            -0.000002098155    0.000000713365    0.061226912160    0.005431274733    -0.000001650850    0.000000396428    0.075548656998    -0.016561631454
0.275     0.076858572369    -0.038984260822    -0.000002104989    0.000001211437    0.069628975142    -0.013001640036    -0.000002117798    0.000001178397
            -0.000002104989    0.000001211437    0.076083078040    -0.028631414813    -0.000001744980    0.000000828428    0.064417850838    -0.004307209175
            0.069628975142    -0.013001640036    -0.000001744980    0.000000828428    0.076858221315    -0.038774258307    -0.000001705880    0.000000750164
            -0.000002117798    0.000001178397    0.064417850838    -0.004307209175    -0.000001705880    0.000000750164    0.075993077077    -0.028901967178
0.300     0.069716638621    -0.052768077936    -0.000002009901    0.000001703140    0.066894188014    -0.025591064044    -0.000002031861    0.000001669887
            -0.000002009901    0.000001703140    0.073620710949    -0.041520579935    -0.000001709555    0.000001225740    0.065320963906    -0.015025016661
            0.066894188014    -0.025591064044    -0.000001709555    0.000001225740    0.069867570847    -0.052554719118    -0.000001682797    0.000001134251
            -0.000002031861    0.000001669887    0.065320963906    -0.015025016661    -0.000001682797    0.000001134251    0.073631406683    -0.041807477089
0.325     0.058839663143    -0.065244161503    -0.000001800355    0.000002195505    0.060726652130    -0.037747223903    -0.000001832275    0.000002164224
            -0.000001800355    0.000002195505    0.068185196572    -0.054313584560    -0.000001583902    0.000001634096    0.063713041392    -0.026202680882
            0.060726652130    -0.037747223903    -0.000001583902    0.000001634096    0.059162780778    -0.065070620583    -0.000001572965    0.000001531777
            -0.000001832275    0.000002164224    0.063713041392    -0.026202680882    -0.000001572965    0.000001531777    0.068317038250    -0.054642870001
0.350     0.044527291511    -0.075480869362    -0.000001473656    0.000002662166    0.051226397972    -0.048616101225    -0.000001515733    0.000002635461
            -0.000001473656    0.000002662166    0.059783296490    -0.066344648107    -0.000001363044    0.000002033050    0.059489154351    -0.037279845658
            0.051226397972    -0.048616101225    -0.000001363044    0.000002033050    0.045032111911    -0.075398726956    -0.000001370831    0.000001923209
            -0.000001515733    0.000002635461    0.059489154351    -0.037279845658    -0.000001370831    0.000001923209    0.060050753877    -0.066749325391
0.375     0.027301571689    -0.082618365349    -0.000001033163    0.000003076203    0.038699838598    -0.057365716918    -0.000001084931    0.000003056885
            -0.000001033163    0.000003076203    0.048563582369    -0.076952065906    -0.000001046837    0.000002401103    0.052665043341    -0.047674293382
            0.038699838598    -0.057365716918    -0.000001046837    0.000002401103    0.027983777150    -0.082683997743    -0.000001075466    0.000002287880
            -0.000001084931    0.000003056885    0.052665043341    -0.047674293382    -0.000001075466    0.000002287880    0.048973564245    -0.077470754393
0.400     0.007896938708    -0.085931854675    -0.000000488128    0.000003410593    0.023658180998    -0.063247942362    -0.000000548454    0.000003401474
            -0.000000488128    0.000003410593    0.034821807493    -0.085514958789    -0.000000639762    0.000002715667    0.043384909535    -0.056815717018
            0.023658180998    -0.063247942362    -0.000000639762    0.000002715667    0.008736559501    -0.086203329383    -0.000000690308    0.000002603784
            -0.000000548454    0.000003401474    0.043384909535    -0.056815717018    -0.000000690308    0.000002603784    0.035371578190    -0.086189865784
0.425     -0.012775766907    -0.084875016899    0.000000145665    0.000003640495    0.006797128431    -0.065637871240    0.000000078766    0.000003644259
            0.000000145665    0.000003640495    0.018985970989    -0.091476696871    -0.000000151732    0.000002955464    0.031915701663    -0.064163997388
            0.006797128431    -0.065637871240    -0.000000151732    0.000002955464    -0.011815045432    -0.085407262759    -0.000000224211    0.000002849910
            0.000000078766    0.000003644259    0.031915701663    -0.064163997388    -0.000000224211    0.000002849910    0.019662257199    -0.092351898140
0.450     -0.033674700032    -0.079134206884    0.000000846483    0.000003743787    -0.011036373969    -0.064093730634    0.000000775742    0.000003762743
            0.000000846483    0.000003743787    0.001603524728    -0.094381825231    0.000000402142    0.000003100383    0.018640588508    -0.069245619522
            -0.011036373969    -0.064093730634    0.000000402142    0.000003100383    -0.032644895396    -0.079974482333    0.000000309044    0.000003006216
            0.000000775742    0.000003762743    0.018640588508    -0.069245619522    0.000000309044    0.000003006216    0.002381635511    -0.095499461131
0.475     -0.053684188610    -0.068653876213    0.000001587344    0.000003703787    -0.028887971638    -0.058385269253    0.000001516223    0.000003739613
            0.000001587344    0.000003703787    -0.016681690231    -0.093893159496    0.000001002016    0.000003134409    0.004044737743    -0.071668954520
            -0.028887971638    -0.058385269253    0.000001002016    0.000003134409    -0.052651160321    -0.069837424924    0.000000890765    0.000003056388
            0.000001516223    0.000003739613    0.004044737743    -0.071668954520    0.000000890765    0.000003056388    -0.015837114760    -0.095291698354
0.500     -0.071688263765    -0.053661429606    0.000002336761    0.000003509480    -0.045761602340    -0.048531682241    0.000002269172    0.000003563076
            0.000002336761    0.000003509480    -0.035157396191    -0.089819525097    0.000001623609    0.000003045397    -0.011306391412    -0.071156889197
            -0.045761602340    -0.048531682241    0.000001623609    0.000003045397    -0.070728266477    -0.055207448583    0.000001497981    0.000002987639
            0.000002269172    0.000003563076    -0.011306391412    -0.071156889197    0.000001497981    0.000002987639    -0.034292555328    -0.091530260526
0.525     -0.086640330501    -0.034658992324    0.000003061081    0.000003157768    -0.060677460484    -0.034799394699    0.000003001447    0.000003228997
            0.000003061081    0.000003157768    -0.053074476987    -0.082123942753    0.000002240316    0.000002827671    -0.026789231895    -0.067554067142
            -0.060677460484    -0.034799394699    0.000002240316    0.000002827671    -0.085836343971    -0.036567885147    0.000002104941    0.000002793405
            0.000003001447    0.000003228997    -0.026789231895    -0.067554067142    0.000002104941    0.000002793405    -0.052243982272    -0.084168849164
0.550     -0.097643689474    -0.012401913909    0.000003725411    0.000002653162    -0.072752530888    -0.017698407948    0.000003678114    0.000002740805
            0.000003725411    0.000002653162    -0.069685357102    -0.070935263178    0.000002823704    0.000002481297    -0.041757440213    -0.060848208945
            -0.072752530888    -0.017698407948    0.000002823704    0.000002481297    -0.097079337894    -0.014653413082    0.000002683992    0.000002472554
            0.000003678114    0.000002740805    -0.041757440213    -0.060848208945    0.000002683992    0.000002472554    -0.068950550927    -0.073324206704
0.575     -0.104007952804    0.012149505644    0.000004297073    0.000002008525    -0.081249550510    0.002056686303    0.000004266254    0.000002110313
            0.000004297073    0.000002008525    -0.084277196527    -0.056541677151    0.000003346380    0.000002013574    -0.055567031074    -0.051164633094
            -0.081249550510    0.002056686303    0.000003346380    0.000002013574    -0.103762817157    0.009595976387    0.000003208103    0.000002031162
            0.000004266254    0.000002110313    -0.055567031074    -0.051164633094    0.000003208103    0.000002031162    -0.083703308187    -0.059271474847
0.600     -0.105304404458    0.037894811991    0.000004746035    0.000001244087    -0.085641185254    0.023594883792    0.000004735435    0.000001356516
            0.000004746035    0.000001244087    -0.096213911051    -0.039381833165    0.000003782457    0.000001437666    -0.067617430469    -0.038768824869
            -0.085641185254    0.023594883792    0.000003782457    0.000001437666    -0.105447901131    0.035098964469    0.000003651490    0.000001480952
            0.000004735435    0.000001356516    -0.067617430469    -0.038768824869    0.000003651490    0.000001480952    -0.095866206004    -0.042434382173
0.625     -0.101384678503    0.063666960357    0.000005048579    0.000000386259    -0.085625503805    0.045951752083    0.000005060976    0.000000505147
            0.000005048579    0.000000386259    -0.104961983135    -0.020023993078    0.000004110624    0.000000772481    -0.077372735949    -0.024049409003
            -0.085625503805    0.045951752083    0.000004110624    0.000000772481    -0.101972138455    0.060704861484    0.000003992604    0.000000839510
            0.000005060976    0.000000505147    -0.077372735949    -0.024049409003    0.000003992604    0.000000839510    -0.104903486620    -0.023366385139
0.650     -0.092389032420    0.088313745834    0.000005186693    -0.000000533837    -0.081150233678    0.068138663585    0.000005223934    -0.000000413504
            0.000005186693    -0.000000533837    -0.110123959095    0.000862930307    0.000004313623    0.000000040813    -0.084398548622    -0.007500196013
            -0.081150233678    0.068138663585    0.000004313623    0.000000040813    -0.093457428300    0.085272964760    0.000004213561    0.000000128429
            0.000005223934    -0.000000413504    -0.084398548622    -0.007500196013    0.000004213561    0.000000128429    -0.110410635218    -0.002723077925
0.675     -0.078719740571    0.110766406025    0.000005150569    -0.000001482590    -0.072387539152    0.089201664925    0.000005213345    -0.000001366168
            0.000005150569    -0.000001482590    -0.111451148350    0.022540031206    0.000004380679    -0.000000731734    -0.088370865324    0.010305502128
            -0.072387539152    0.089201664925    0.000004380679    -0.000000731734    -0.080285911001    0.107741635801    0.000004302790    -0.000000627700
            0.000005213345    -0.000001366168    -0.088370865324    0.010305502128    0.000004302790    -0.000000627700    -0.112129757897    0.018769337178
0.700     -0.061005472407    0.130104618966    0.000004937126    -0.000002425272    -0.059719393042    0.108283404607    0.000005024901    -0.000002318173
            0.000004937126    -0.000002425272    -0.108858748757    0.044238502326    0.000004305861    -0.000001518501    -0.089100765047    0.028746514825
            -0.059719393042    0.108283404607    0.000004305861    -0.000001518501    -0.063064848865    0.127192383989    0.000004253331    -0.000001402956
            0.000005024901    -0.000002318173    -0.089100765047    0.028746514825    0.000004253331    -0.000001402956    -0.109963728713    0.040351599579
0.725     -0.040046729989    0.145595462099    0.000004551057    -0.000003328813    -0.043686644967    0.124652662191    0.000004662089    -0.000003236409
            0.000004551057    -0.000003328813    -0.102422215113    0.065192435675    0.000004089580    -0.000002293433    -0.086527332031    0.047180268745
            -0.043686644967    0.124652662191    0.000004089580    -0.000002293433    -0.042574201242    0.142889104346    0.000004064521    -0.000002171716
            0.000004662089    -0.000003236409    -0.086527332031    0.047180268745    0.000004064521    -0.000002171716    -0.103973999628    0.061265533821
0.750     -0.016758217066    0.156723058062    0.000004002565    -0.000004161954    -0.024952689677    0.137740434110    0.000004134052    -0.000004089011
            0.000004002565    -0.000004161954    -0.092371957249    0.084678842262    0.000003736173    -0.000003031351    -0.080725943917    0.064978429354
            -0.024952689677    0.137740434110    0.000003736173    -0.000003031351    -0.019709721693    0.154308064311    0.000003739538    -0.000002909202
            0.000004134052    -0.000004089011    -0.080725943917    0.064978429354    0.000003739538    -0.000002909202    -0.094375262383    0.080791259727
0.775     0.007888098907    0.163191920338    0.000003307343    -0.000004897783    -0.004254860863    0.147139353484    0.000003455640    -0.000004848383
            0.000003307343    -0.000004897783    -0.079075645288    0.102043147966    0.000003254673    -0.000003710004    -0.071889329608    0.081546168012
            -0.004254860863    0.147139353484    0.000003254673    -0.000003710004    0.004572985476    0.161142805905    0.000003286406    -0.000003593005
