# GHz S RI R 45
0.000     0.015269841948    0.001923274860    -0.000001756493    -0.000003830052    0.000714375825    0.001644598786    -0.000001950474    -0.000004179181
            -0.000001756493    -0.000003830052    0.016000747654    0.001661698204    -0.000001586297    -0.000003505234    0.000730713866    0.001486727928
            0.000714375699    0.001644598731    -0.000001586297    -0.000003505234    0.015219020642    0.001910829412    -0.000001742208    -0.000003787288
            -0.000001950474    -0.000004179181    0.000730713996    0.001486727865    -0.000001742208    -0.000003787288    0.015948899371    0.001650709961
0.025     0.019576552299    0.010732391554    -0.000003879298    -0.000008330741    0.002266196765    0.009589479868    -0.000004263552    -0.000009093646
            -0.000003879302    -0.000008330750    0.019971749885    0.011150279138    -0.000003525689    -0.000007628233    0.001978013804    0.010136718524
            0.002263608237    0.009592239053    -0.000003525684    -0.000007628216    0.019501078008    0.010680279123    -0.000003835267    -0.000008244001
            -0.000004263547    -0.000009093633    0.001976631409    0.010136731431    -0.000003835261    -0.000008243991    0.019894268675    0.011079339853
0.050     0.025817566678    0.017472768836    -0.000008272655    -0.000014440527    0.006684190793    0.018167317757    -0.000009044760    -0.000015766205
            -0.000008272655    -0.000014440527    0.025017044035    0.018506651909    -0.000007547421    -0.000013230299    0.005566755803    0.019473077509
            0.006684156682    0.018167347356    -0.000007547421    -0.000013230299    0.025709861846    0.017366409021    -0.000008171856    -0.000014302163
            -0.000009044760    -0.000015766205    0.005566765537    0.019472984241    -0.000008171856    -0.000014302163    0.024881757215    0.018383080723
0.075     0.033669396179    0.021955303461    -0.000013989112    -0.000018992310    0.013475595430    0.024988448775    -0.000015258638    -0.000020754280
            -0.000013989112    -0.000018992310    0.030933529481    0.024179914744    -0.000012787850    -0.000017405447    0.011067552503    0.027481881926
            0.013475587900    0.024988449427    -0.000012787850    -0.000017405447    0.033518009178    0.021823670455    -0.000013817990    -0.000018829388
            -0.000015258638    -0.000020754280    0.011067556179    0.027481877211    -0.000013817990    -0.000018829388    0.030725796441    0.024032847084
0.100     0.042811461564    0.023770200519    -0.000020765756    -0.000021920322    0.022036501796    0.029502835692    -0.000022635233    -0.000023994130
            -0.000020765756    -0.000021920322    0.037586233006    0.028017783184    -0.000019002986    -0.000020089643    0.018003717421    0.033779083839
            0.022036501796    0.029502835692    -0.000019002986    -0.000020089643    0.042612198007    0.023633929542    -0.000020522965    -0.000021763041
            -0.000022635233    -0.000023994130    0.018003739937    0.033779076371    -0.000020522965    -0.000021763041    0.037294952613    0.027878969052
0.125     0.052452228119    0.022587229016    -0.000028234944    -0.000023096911    0.031666780582    0.031305573344    -0.000030786984    -0.000025340950
            -0.000028234944    -0.000023096911    0.044433345606    0.029885630710    -0.000025855874    -0.000021165456    0.025843385958    0.038113138044
            0.031666780582    0.031305573344    -0.000025855874    -0.000021165456    0.052208591921    0.022467456826    -0.000027932206    -0.000022971676
            -0.000030786984    -0.000025340950    0.025843385854    0.038113139323    -0.000027932206    -0.000022971676    0.044054245688    0.029796176550
0.150     0.061863422887    0.018264373254    -0.000035997388    -0.000022513710    0.041599325020    0.030194273385    -0.000039290120    -0.000024774250
            -0.000035997388    -0.000022513710    0.051000067040    0.029864557798    -0.000032975627    -0.000020624486    0.034017712976    0.040388404471
            0.041599325020    0.030194273385    -0.000032975627    -0.000020624486    0.061588887015    0.018184997088    -0.000035655047    -0.000022435951
            -0.000039290120    -0.000024774250    0.034017712976    0.040388404471    -0.000035655047    -0.000022435951    0.050554742212    0.029850025414
0.175     0.070110086759    0.010906299415    -0.000043721041    -0.000020234061    0.051037720018    0.026150976789    -0.000047783677    -0.000022347468
            -0.000043721041    -0.000020234061    0.056714583665    0.028144149366    -0.000040058850    -0.000018525918    0.041965471287    0.040661717198
            0.051037720018    0.026150976789    -0.000040058850    -0.000018525918    0.069826403567    0.010884676760    -0.000043363423    -0.000020207494
            -0.000047783677    -0.000022347468    0.041965470578    0.040661717930    -0.000043363423    -0.000020207494    0.056230432973    0.028232342893
0.200     0.076365514710    0.000875223152    -0.000051139288    -0.000016379823    0.059210848243    0.019361496964    -0.000055972452    -0.000018178269
            -0.000051139288    -0.000016379823    0.061116474467    0.025101504674    -0.000046860690    -0.000014980643    0.049170487757    0.039141192208
            0.059210848243    0.019361496964    -0.000046860690    -0.000014980643    0.076101505635    0.000921617894    -0.000050788135    -0.000016394812
            -0.000055972452    -0.000018178269    0.049170487757    0.039141192208    -0.000050788135    -0.000016394812    0.060628774450    0.025311404550
0.225     0.079914947685    -0.011281975386    -0.000058043556    -0.000011072715    0.065409999211    0.010194737883    -0.000063617481    -0.000012388365
            -0.000058043556    -0.000011072715    0.063884507156    0.021217977320    -0.000053189032    -0.000010098686    0.055196754872    0.036159424339
            0.065409999211    0.010194737883    -0.000053189032    -0.000010098686    0.079703986258    -0.011167188239    -0.000057712081    -0.000011108466
            -0.000063617481    -0.000012388365    0.055196754872    0.036159424339    -0.000057712081    -0.000011108466    0.063435081365    0.021556132493
0.250     0.080205217473    -0.024848268114    -0.000064281397    -0.000004433790    0.069037130290    -0.000816290198    -0.000070537016    -0.000005101807
            -0.000064281397    -0.000004433790    0.064846549829    0.017058797166    -0.000058901804    -0.000003992109    0.059720316824    0.032157689617
            0.069037130290    -0.000816290198    -0.000058901804    -0.000003992109    0.080082587171    -0.024675056105    -0.000063968925    -0.000004463113
            -0.000070537016    -0.000005101807    0.059720316824    0.032157689617    -0.000063968925    -0.000004463113    0.064479377976    0.017517159586
0.275     0.076858572369    -0.038984260822    -0.000069723104    0.000003450601    0.069628975142    -0.013001640036    -0.000076571161    0.000003586628
            -0.000069723104    0.000003450601    0.063996717119    0.013210771674    -0.000063878365    0.000003260406    0.062550333601    0.027645291729
            0.069628975142    -0.013001640036    -0.000063878365    0.000003260406    0.076858221315    -0.038774258307    -0.000069412769    0.000003454904
            -0.000076571161    0.000003586628    0.062550333601    0.027645291729    -0.000069412769    0.000003454904    0.063753635033    0.013766522462
0.300     0.069716638621    -0.052768077936    -0.000074248295    0.000012524438    0.066894188014    -0.025591064044    -0.000081570379    0.000013605844
            -0.000074248295    0.000012524438    0.061496791139    0.010256763117    -0.000068005388    0.000011605293    0.063647612651    0.023171111509
            0.066894188014    -0.025591064044    -0.000068005388    0.000011605293    0.069867570847    -0.052554719118    -0.000073906505    0.000012579813
            -0.000081570379    0.000013605844    0.063647612651    0.023171111509    -0.000073906505    0.000012579813    0.061412875129    0.010873077869
0.325     0.058839663143    -0.065244161503    -0.000077702867    0.000022758304    0.060726652130    -0.037747223903    -0.000085352256    0.000024912052
            -0.000077702867    0.000022758304    0.057672435529    0.008715571641    -0.000071139396    0.000021014482    0.063128555313    0.019276041892
            0.060726652130    -0.037747223903    -0.000071139396    0.000021014482    0.059162780778    -0.065070620583    -0.000077283224    0.000022869330
            -0.000085352256    0.000024912052    0.063128555313    0.019276041892    -0.000077283224    0.000022869330    0.057771822932    0.009343888900
0.350     0.044527291511    -0.075480869362    -0.000079889647    0.000034132133    0.051226397972    -0.048616101225    -0.000087694471    0.000037458855
            -0.000079889647    0.000034132133    0.052996688549    0.009012984723    -0.000073096883    0.000031466215    0.061267052193    0.016458182903
            0.051226397972    -0.048616101225    -0.000073096883    0.000031466215    0.045032111911    -0.075398726956    -0.000079339722    0.000034277875
            -0.000087694471    0.000037458855    0.061267052193    0.016458182903    -0.000079339722    0.000034277875    0.053288616530    0.009596462309
0.375     0.027301571689    -0.082618365349    -0.000080540397    0.000046596970    0.038699838598    -0.057365716918    -0.000088306657    0.000051169051
            -0.000080540397    0.000046596970    0.048061641906    0.011429173396    -0.000073631161    0.000042909516    0.058475605270    0.015120643183
            0.038699838598    -0.057365716918    -0.000073631161    0.000042909516    0.027983777150    -0.082683997743    -0.000079810469    0.000046733644
            -0.000088306657    0.000051169051    0.058475605270    0.015120643183    -0.000079810469    0.000046733644    0.048538189965    0.011906755726
0.400     0.007896938708    -0.085931854675    -0.000079330730    0.000060039944    0.023658180998    -0.063247942362    -0.000086847238    0.000065896945
            -0.000079330730    0.000060039944    0.043542332370    0.016076158107    -0.000072443350    0.000055237713    0.055285358864    0.015540832917
            0.023658180998    -0.063247942362    -0.000072443350    0.000055237713    0.008736559501    -0.086203329383    -0.000078386460    0.000060095505
            -0.000086847238    0.000065896945    0.055285358864    0.015540832917    -0.000078386460    0.000060095505    0.044176887689    0.016388345747
0.425     -0.012775766907    -0.084875016899    -0.000075890215    0.000074239906    0.006797128431    -0.065637871240    -0.000082936459    0.000081380108
            -0.000075890215    0.000074239906    0.040144216720    0.022863381449    -0.000069197109    0.000068237452    0.052300573875    0.017826326796
            0.006797128431    -0.065637871240    -0.000069197109    0.000068237452    -0.011815045432    -0.085407262759    -0.000074720824    0.000074124979
            -0.000082936459    0.000081380108    0.052300573875    0.017826326796    -0.000074720824    0.000074124979    0.040891645439    0.022957530717
0.450     -0.033674700032    -0.079134206884    -0.000069852648    0.000088838614    -0.011036373969    -0.064093730634    -0.000076203953    0.000097223891
            -0.000069852648    0.000088838614    0.038550033236    0.031496949580    -0.000063558818    0.000081576377    0.050155228026    0.021902272424
            -0.011036373969    -0.064093730634    -0.000063558818    0.000081576377    -0.032644895396    -0.079974482333    -0.000068481783    0.000088450615
            -0.000076203953    0.000097223891    0.050155228026    0.021902272424    -0.000068481783    0.000088450615    0.039349171533    0.031333256132
0.475     -0.053684188610    -0.068653876213    -0.000060902792    0.000103322805    -0.028887971638    -0.058385269253    -0.000066339810    0.000112871575
            -0.000060902792    0.000103322805    0.039352804920    0.041478723944    -0.000055250752    0.000094775414    0.049447178298    0.027495147975
            -0.028887971638    -0.058385269253    -0.000055250752    0.000094775414    -0.052651160321    -0.069837424924    -0.000059396539    0.000102561212
            -0.000066339810    0.000112871575    0.049447178298    0.027495147975    -0.000059396539    0.000102561212    0.040129544322    0.041034886924
0.500     -0.071688263765    -0.053661429606    -0.000048856897    0.000117040125    -0.045761602340    -0.048531682241    -0.000053174731    0.000127631747
            -0.000048856897    0.000117040125    0.043001311575    0.052141054662    -0.000044110104    0.000107233100    0.050686130331    0.034156134026
            -0.045761602340    -0.048531682241    -0.000044110104    0.000107233100    -0.070728266477    -0.055207448583    -0.000047316272    0.000115822347
            -0.000053174731    0.000127631747    0.050686130331    0.034156134026    -0.000047316272    0.000115822347    0.043674884624    0.051416095081
0.525     -0.086640330501    -0.034658992324    -0.000033705819    0.000129232732    -0.060677460484    -0.034799394699    -0.000036719417    0.000140710546
            -0.000033705819    0.000129232732    0.049742776525    0.062686890538    -0.000030145499    0.000118252396    0.054230393633    0.041284790990
            -0.060677460484    -0.034799394699    -0.000030145499    0.000118252396    -0.085836343971    -0.036567885147    -0.000032268736    0.000127508147
            -0.000036719417    0.000140710546    0.054230393633    0.041284790990    -0.000032268736    0.000127508147    0.050231824953    0.061703385596
0.550     -0.097643689474    -0.012401913909    -0.000015672163    0.000139114095    -0.072752530888    -0.017698407948    -0.000017225876    0.000151288429
            -0.000015672163    0.000139114095    0.059596442397    0.072259958195    -0.000013573473    0.000127114637    0.060255363031    0.048189929968
            -0.072752530888    -0.017698407948    -0.000013573473    0.000127114637    -0.097079337894    -0.014653413082    -0.000014497053    0.000136875047
            -0.000017225876    0.000151288429    0.060255363031    0.048189929968    -0.000014497053    0.000136875047    0.059825926653    0.071063241541
0.575     -0.104007952804    0.012149505644    0.000004781692    0.000145937924    -0.081249550510    0.002056686303    0.000004810726    0.000158595124
            0.000004781692    0.000145937924    0.072333508822    0.080010834917    0.000005167110    0.000133145635    0.068721254802    0.054143064116
            -0.081249550510    0.002056686303    0.000005167110    0.000133145635    -0.103762817157    0.009595976387    0.000005532487    0.000143230199
            0.000004810726    0.000158595124    0.068721254802    0.054143064116    0.000005532487    0.000143230199    0.072241627731    0.078667522790
0.600     -0.105304404458    0.037894811991    0.000026981088    0.000149099980    -0.085641185254    0.023594883792    0.000028676948    0.000162008944
            0.000026981088    0.000149099980    0.087498816941    0.085174550891    0.000025445555    0.000135803176    0.079386636161    0.058452982908
            -0.085641185254    0.023594883792    0.000025445555    0.000135803176    -0.105447901131    0.035098964469    0.000027151863    0.000146020894
            0.000028676948    0.000162008944    0.079386636161    0.058452982908    0.000027151863    0.000146020894    0.087042742619    0.083767178911
0.625     -0.101384678503    0.063666960357    0.000050081283    0.000148191279    -0.085625503805    0.045951752083    0.000053490633    0.000161110022
            0.000050081283    0.000148191279    0.104437710281    0.087130219705    0.000046480188    0.000134732241    0.091818056888    0.060516884307
            -0.085625503805    0.045951752083    0.000046480188    0.000134732241    -0.101972138455    0.060704861484    0.000049549130    0.000144885536
            0.000053490633    0.000161110022    0.091818056888    0.060516884307    0.000049549130    0.000144885536    0.103597436715    0.085751554417
0.650     -0.092389032420    0.088313745834    0.000073156272    0.000143054926    -0.081150233678    0.068138663585    0.000078287497    0.000155738876
            0.000073156272    0.000143054926    0.122358509097    0.085450114351    0.000067416755    0.000129810680    0.105443253439    0.059874725706
            -0.081150233678    0.068138663585    0.000067416755    0.000129810680    -0.093457428300    0.085272964760    0.000071842183    0.000139704030
            0.000078287497    0.000155738876    0.105443253439    0.059874725706    0.000071842183    0.000139704030    0.121138238417    0.084197106947
0.675     -0.078719740571    0.110766406025    0.000095276215    0.000133782691    -0.072387539152    0.089201664925    0.000102096300    0.000145994723
            0.000095276215    0.000133782691    0.140384216770    0.079924938233    0.000087410484    0.000121145502    0.119587037111    0.056232040580
            -0.072387539152    0.089201664925    0.000087410484    0.000121145502    -0.080285911001    0.107741635801    0.000093150464    0.000130592929
            0.000102096300    0.000145994723    0.119587037111    0.056232040580    0.000093150464    0.000130592929    0.138814066597    0.078890863338
0.700     -0.061005472407    0.130104618966    0.000115589256    0.000120710768    -0.059719393042    0.108283404607    0.000124033339    0.000132223579
            0.000115589256    0.000120710768    0.157626662451    0.070568741963    0.000105693324    0.000109065750    0.133537197262    0.049476727383
            -0.059719393042    0.108283404607    0.000105693324    0.000109065750    -0.063064848865    0.127192383989    0.000112681310    0.000117891905
            0.000124033339    0.000132223579    0.133537197262    0.049476727383    0.000112681310    0.000117891905    0.155758704593    0.069838007079
0.725     -0.040046729989    0.145595462099    0.000133378101    0.000104358178    -0.043686644967    0.124652662191    0.000143356960    0.000114957400
            0.000133378101    0.000104358178    0.173233038732    0.057607190363    0.000121626814    0.000094065138    0.146578138343    0.039668970117
            -0.043686644967    0.124652662191    0.000121626814    0.000094065138    -0.042574201242    0.142889104346    0.000129777760    0.000102109048
            0.000143356960    0.000114957400    0.146578138343    0.039668970117    0.000129777760    0.000102109048    0.171139953089    0.057248651355
0.750     -0.016758217066    0.156723058062    0.000148111050    0.000085378499    -0.024952689677    0.137740434110    0.000159503256    0.000094871961
            0.000148111050    0.000085378499    0.186443248697    0.041448686113    0.000134749137    0.000076751579    0.158045432203    0.027030181581
            -0.024952689677    0.137740434110    0.000134749137    0.000076751579    -0.019709721693    0.154308064311    0.000143955810    0.000083873101
            0.000159503256    0.000094871961    0.158045432203    0.027030181581    0.000143955810    0.000083873101    0.184211633176    0.041512604062
0.775     0.007888098907    0.163191920338    0.000159438213    0.000064496562    -0.004254860863    0.147139353484    0.000172107976    0.000072707075
            0.000159438213    0.000064496562    0.196614089958    0.022653641661    0.000144767083    0.000057792193    0.167341411929    0.011915984963
            -0.004254860863    0.147139353484    0.000144767083    0.000057792193    0.004572985476    0.161142805905    0.000154912837    0.000063862955
            0.000172107976    0.000072707075    0.167341411929    0.011915984963    0.000154912837    0.000063862955    0.194341284353    0.023168714788
