# GHz S RI R 45
0.000     0.015269841948    0.001923274860    0.000000400269    0.000000521120    0.000714375825    0.001644598786    0.000000572616    0.000000796538
            0.000000400274    0.000000521120    0.014645552100    0.001424850791    0.000000594930    0.000000822125    0.000615692032    0.001228939626
            0.000714375699    0.001644598731    0.000000595195    0.000000822125    0.015219020642    0.001910829412    0.000000825867    0.000001198285
            0.000000572614    0.000000796538    0.000615692032    0.001228939626    0.000000825890    0.000001198285    0.014471447210    0.001420137857
0.025     0.019576552299    0.010732391554    0.000000825960    0.000001074775    0.002266196765    0.009589479868    0.000001200016    0.000001644655
            0.000000825959    0.000001074772    0.018384192444    0.009307735392    0.000001245552    0.000001713313    0.001860842742    0.008262318400
            0.002263608237    0.009592239053    0.000001245552    0.000001713316    0.019501078008    0.010680279123    0.000001745662    0.000002481064
            0.000001200021    0.000001644658    0.001860587927    0.008262587046    0.000001745663    0.000002481063    0.018314048193    0.009250953812
0.050     0.025817566678    0.017472768836    0.000001661222    0.000001647182    0.006684190793    0.018167317757    0.000002442091    0.000002553866
            0.000001661222    0.000001647182    0.023714730578    0.015161585110    0.000002525927    0.000002668787    0.005475048379    0.015762074862
            0.006684156682    0.018167347356    0.000002525927    0.000002668787    0.025709861846    0.017366409021    0.000003573320    0.000003891752
            0.000002442091    0.000002553866    0.005475036221    0.015762078026    0.000003573320    0.000003891752    0.023621950312    0.015075890178
0.075     0.033669396179    0.021955303461    0.000002656082    0.000001842352    0.013475595430    0.024988448775    0.000003936557    0.000002914869
            0.000002656082    0.000001842352    0.030387467272    0.019185276464    0.000004068653    0.000003061352    0.011078268901    0.021893552500
            0.013475587900    0.024988449427    0.000004068653    0.000003061352    0.033518009178    0.021823670455    0.000005789341    0.000004512241
            0.000003936557    0.000002914870    0.011078261815    0.021893552724    0.000005789341    0.000004512241    0.030271412206    0.019079275329
0.100     0.042811461564    0.023770200519    0.000003734461    0.000001655603    0.022036501796    0.029502835692    0.000005578034    0.000002717103
            0.000003734461    0.000001655603    0.038222682005    0.021055087820    0.000005766026    0.000002878942    0.018218842393    0.026214443386
            0.022036501796    0.029502835692    0.000005766026    0.000002878942    0.042612198007    0.023633929542    0.000008249055    0.000004322887
            0.000005578034    0.000002717103    0.018218842393    0.026214443386    0.000008249055    0.000004322887    0.038085120769    0.020941108881
0.125     0.052452228119    0.022587229016    0.000004782846    0.000001068495    0.031666780582    0.031305573344    0.000007205474    0.000001925936
            0.000004782846    0.000001068495    0.046638330216    0.020466176759    0.000007452776    0.000002084815    0.026371972107    0.028388364434
            0.031666780582    0.031305573344    0.000007452776    0.000002084815    0.052208591921    0.022467456826    0.000010727663    0.000003262750
            0.000007205474    0.000001925936    0.026371971797    0.028388366087    0.000010727663    0.000003262750    0.046486746709    0.020355234994
0.150     0.061863422887    0.018264373254    0.000005685413    0.000000107337    0.041599325020    0.030194273385    0.000008650526    0.000000570643
            0.000005685413    0.000000107337    0.055037570799    0.017281486340    0.000008955956    0.000000707617    0.034964665717    0.028212526594
            0.041599325020    0.030194273385    0.000008955956    0.000000707617    0.061588887015    0.018184997088    0.000012977793    0.000001363988
            0.000008650526    0.000000570643    0.034964665796    0.028212529681    0.000012977793    0.000001363988    0.054882324714    0.017187622990
0.175     0.070110086759    0.010906299415    0.000006335172    -0.000001181937    0.051037720018    0.026150976789    0.000009755553    -0.000001292516
            0.000006335172    -0.000001181937    0.062711040727    0.011520819488    0.000010112533    -0.000001196210    0.043382608374    0.025622876772
            0.051037720018    0.026150976789    0.000010112533    -0.000001196210    0.069826403567    0.010884676760    0.000014771403    -0.000001304563
            0.000009755553    -0.000001292516    0.043382602460    0.025622892684    0.000014771403    -0.000001304563    0.062569870798    0.011452828955
0.200     0.076365514710    0.000875223152    0.000006641618    -0.000002723468    0.059210848243    0.019361496964    0.000010382970    -0.000003563561
            0.000006641618    -0.000002723468    0.068988207295    0.003393413178    0.000010779647    -0.000003524821    0.051019325041    0.020704878119
            0.059210848243    0.019361496964    0.000010779647    -0.000003524821    0.076101505635    0.000921617894    0.000015903436    -0.000004612222
            0.000010382970    -0.000003563561    0.051019325041    0.020704878119    0.000015903436    -0.000004612222    0.068883261730    0.003354466278
0.225     0.079914947685    -0.011281975386    0.000006534171    -0.000004421532    0.065409999211    0.010194737883    0.000010420787    -0.000006112510
            0.000006534171    -0.000004421532    0.073258799241    -0.006740189214    0.000010840670    -0.000006144948    0.057300966056    0.013681258940
            0.065409999211    0.010194737883    0.000010840670    -0.000006144948    0.079703986258    -0.011167188239    0.000016200228    -0.000008383055
            0.000010420787    -0.000006112510    0.057300966056    0.013681258940    0.000016200228    -0.000008383055    0.073214998688    -0.006754216313
0.250     0.080205217473    -0.024848268114    0.000005970144    -0.000006163882    0.069037130290    -0.000816290198    0.000009794475    -0.000008782737
            0.000005970144    -0.000006163882    0.075019599244    -0.018372536589    0.000010217531    -0.000008895408    0.061720619994    0.004902918300
            0.069037130290    -0.000816290198    0.000010217531    -0.000008895408    0.080082587171    -0.024675056105    0.000015539043    -0.000012399046
            0.000009794475    -0.000008782737    0.061720619994    0.004902918300    0.000015539043    -0.000012399046    0.075062323699    -0.018373462904
0.275     0.076858572369    -0.038984260822    0.000004933579    -0.000007829625    0.069628975142    -0.013001640036    0.000008466312    -0.000011402312
            0.000004933579    -0.000007829625    0.073888006283    -0.030889423084    0.000008870221    -0.000011599028    0.063857305160    -0.005167924197
            0.069628975142    -0.013001640036    0.000008870221    -0.000011599028    0.076858221315    -0.038774258307    0.000013847523    -0.000016416198
            0.000008466312    -0.000011402312    0.063857305160    -0.005167924197    0.000013847523    -0.000016416198    0.074041001007    -0.030897165011
0.300     0.069716638621    -0.052768077936    0.000003439969    -0.000009294971    0.066894188014    -0.025591064044    0.000006442752    -0.000013791308
            0.000003439969    -0.000009294971    0.069638122501    -0.043593777396    0.000006804455    -0.000014070246    0.063404935810    -0.015980112253
            0.066894188014    -0.025591064044    0.000006804455    -0.000014070246    0.069867570847    -0.052554719118    0.000011116203    -0.000020174719
            0.000006442752    -0.000013791308    0.063404935810    -0.015980112253    0.000011116203    -0.000020174719    0.069921381521    -0.043636710108
0.325     0.058839663143    -0.065244161503    0.000001533963    -0.000010439157    0.060726652130    -0.037747223903    0.000003771837    -0.000015770736
            0.000001533963    -0.000010439157    0.062201436468    -0.055742510849    0.000004068911    -0.000016124372    0.060183923130    -0.026915990642
            0.060726652130    -0.037747223903    0.000004068911    -0.000016124372    0.059162780778    -0.065070620583    0.000007395026    -0.000023412358
            0.000003771837    -0.000015770736    0.060183923130    -0.026915990642    0.000007395026    -0.000023412358    0.062628467485    -0.055855847875
0.350     0.044527291511    -0.075480869362    -0.000000708279    -0.000011152364    0.051226397972    -0.048616101225    0.000000547360    -0.000017173212
            -0.000000708279    -0.000011152364    0.051687211624    -0.066584081435    0.000000759464    -0.000017589068    0.054159578705    -0.037323740259
            0.051226397972    -0.048616101225    0.000000759464    -0.000017589068    0.045032111911    -0.075398726956    0.000002799860    -0.000025879308
            0.000000547360    -0.000017173212    0.054159578705    -0.037323740259    0.000002799860    -0.000025879308    0.052263027554    -0.066809272859
0.375     0.027301571689    -0.082618365349    -0.000003182753    -0.000011341854    0.038699838598    -0.057365716918    -0.000003095775    -0.000017851563
            -0.000003182753    -0.000011341854    0.038372932044    -0.075392734472    -0.000002986078    -0.000018312733    0.045445421842    -0.046543426508
            0.038699838598    -0.057365716918    -0.000002986078    -0.000018312733    0.027983777150    -0.082683997743    -0.000002493880    -0.000027350820
            -0.000003095775    -0.000017851563    0.045445421842    -0.046543426508    -0.000002493880    -0.000027350820    0.039092402659    -0.075774749785
0.400     0.007896938708    -0.085931854675    -0.000005759547    -0.000010941102    0.023658180998    -0.063247942362    -0.000006983142    -0.000017692387
            -0.000005759547    -0.000010941102    0.022705303712    -0.081512799425    -0.000006989611    -0.000018178538    0.034307517390    -0.053948073265
            0.023658180998    -0.063247942362    -0.000006989611    -0.000018178538    0.008736559501    -0.086203329383    -0.000008252751    -0.000027645461
            -0.000006983142    -0.000017692387    0.034307517390    -0.053948073265    -0.000008252751    -0.000027645461    0.023551483997    -0.082098189281
0.425     -0.012775766907    -0.084875016899    -0.000008289636    -0.000009915862    0.006797128431    -0.065637871240    -0.000010909624    -0.000016624131
            -0.000008289636    -0.000009915862    0.005279777786    -0.084389651560    -0.000011042142    -0.000017112391    0.021156043856    -0.058969910317
            0.006797128431    -0.065637871240    -0.000011042142    -0.000017112391    -0.011815045432    -0.085407262759    -0.000014197071    -0.000026636543
            -0.000010909624    -0.000016624131    0.021156043856    -0.058969910317    -0.000014197071    -0.000026636543    0.006223230059    -0.085223054108
0.450     -0.033674700032    -0.079134206884    -0.000010613165    -0.000008272380    -0.011036373969    -0.064093730634    -0.000014649668    -0.000014629698
            -0.000010613165    -0.000008272380    -0.013181640373    -0.083611736812    -0.000014913916    -0.000015095123    0.006531278328    -0.061143069173
            -0.011036373969    -0.064093730634    -0.000014913916    -0.000015095123    -0.032644895396    -0.079974482333    -0.000020013560    -0.000024269646
            -0.000014649668    -0.000014629698    0.006531278328    -0.061143069173    -0.000020013560    -0.000024269646    -0.012182849677    -0.084732585262
0.475     -0.053684188610    -0.068653876213    -0.000012570458    -0.000006059513    -0.028887971638    -0.058385269253    -0.000017971892    -0.000011750136
            -0.000012570458    -0.000006059513    -0.031863766324    -0.078933366772    -0.000018369250    -0.000012166278    -0.008918596606    -0.060126210528
            -0.028887971638    -0.058385269253    -0.000018369250    -0.000012166278    -0.052651160321    -0.069837424924    -0.000025374360    -0.000020567903
            -0.000017971892    -0.000011750136    -0.008918596606    -0.060126210528    -0.000025374360    -0.000020567903    -0.030862175478    -0.080372509763
0.500     -0.071688263765    -0.053661429606    -0.000014015851    -0.000003371071    -0.045761602340    -0.048531682241    -0.000020656902    -0.000008089633
            -0.000014015851    -0.000003371071    -0.049900007814    -0.070302316788    -0.000021184293    -0.000008428858    -0.024473094407    -0.055737044647
            -0.045761602340    -0.048531682241    -0.000021184293    -0.000008428858    -0.070728266477    -0.055207448583    -0.000029959522    -0.000015640708
            -0.000020656902    -0.000008089633    -0.024473094407    -0.055737044647    -0.000029959522    -0.000015640708    -0.048958036743    -0.072079200432
0.525     -0.086640330501    -0.034658992324    -0.000014830181    -0.000000340123    -0.060677460484    -0.034799394699    -0.000022514585    -0.000003809338
            -0.000014830181    -0.000000340123    -0.066416754260    -0.057866476768    -0.000023163565    -0.000004043197    -0.039372449909    -0.047960736277
            -0.060677460484    -0.034799394699    -0.000023163565    -0.000004043197    -0.085836343971    -0.036567885147    -0.000033479324    -0.000009676909
            -0.000022514585    -0.000003809338    -0.039372449909    -0.047960736277    -0.000033479324    -0.000009676909    -0.065603361942    -0.059986523730
0.550     -0.097643689474    -0.012401913909    -0.000014933932    0.000002868770    -0.072752530888    -0.017698407948    -0.000023402638    0.000000880300
            -0.000014933932    0.000002868770    -0.080587561585    -0.041976903548    -0.000024158942    0.000000780388    -0.052868808410    -0.036964695118
            -0.072752530888    -0.017698407948    -0.000024158942    0.000000780388    -0.097079337894    -0.014653413082    -0.000035699421    -0.000002938082
            -0.000023402638    0.000000880300    -0.052868808410    -0.036964695118    -0.000035699421    -0.000002938082    -0.079974495730    -0.044429263279
0.575     -0.104007952804    0.012149505644    -0.000014295022    0.000006073304    -0.081249550510    0.002056686303    -0.000023237687    0.000005736940
            -0.000014295022    0.000006073304    -0.091677143259    -0.023170713296    -0.000024080122    0.000005798442    -0.064262041454    -0.023085814683
            -0.081249550510    0.002056686303    -0.000024080122    0.000005798442    -0.103762817157    0.009595976387    -0.000036456051    0.000004262090
            -0.000023237687    0.000005736940    -0.064262041454    -0.023085814683    -0.000036456051    0.000004262090    -0.091335174972    -0.025927947146
0.600     -0.105304404458    0.037894811991    -0.000012932963    0.000009088734    -0.085641185254    0.023594883792    -0.000022005037    0.000010504478
            -0.000012932963    0.000009088734    -0.099091377628    -0.002144307682    -0.000022905042    0.000010752017    -0.072952114806    -0.006817791791
            -0.085641185254    0.023594883792    -0.000022905042    0.000010752017    -0.105447901131    0.035098964469    -0.000035672006    0.000011578231
            -0.000022005037    0.000010504478    -0.072952114806    -0.006817791791    -0.000035672006    0.000011578231    -0.099085629411    -0.005162615219
0.625     -0.101384678503    0.063666960357    -0.000010916722    0.000011743989    -0.085625503805    0.045951752083    -0.000019755985    0.000014934538
            -0.000010916722    0.000011743989    -0.102407049624    0.020284293003    -0.000020677753    0.000015387485    -0.078463511281    0.011221464914
            -0.085625503805    0.045951752083    -0.000020677753    0.000015387485    -0.101972138455    0.060704861484    -0.000033356518    0.000018660325
            -0.000019755985    0.000014934538    -0.078463511281    0.011221464914    -0.000033356518    0.000018660325    -0.102793745725    0.017064474563
0.650     -0.092389032420    0.088313745834    -0.000008357033    0.000013895707    -0.081150233678    0.068138663585    -0.000016603728    0.000018805465
            -0.000008357033    0.000013895707    -0.101400583957    0.043225455382    -0.000017504730    0.000019475507    -0.080481279206    0.030326293839
            -0.081150233678    0.068138663585    -0.000017504730    0.000019475507    -0.093457428300    0.085272964760    -0.000029604703    0.000025177461
            -0.000016603728    0.000018805465    -0.080481279206    0.030326293839    -0.000029604703    0.000025177461    -0.102222675907    0.039875757245
0.675     -0.078719740571    0.110766406025    -0.000005394718    0.000015438264    -0.072387539152    0.089201664925    -0.000012708075    0.000021936793
            -0.000005394718    0.000015438264    -0.096053464275    0.065765362938    -0.000013541244    0.000022825588    -0.078854463368    0.049744244856
            -0.072387539152    0.089201664925    -0.000013541244    0.000022825588    -0.080285911001    0.107741635801    -0.000024581857    0.000030838406
            -0.000012708075    0.000021936793    -0.078854463368    0.049744244856    -0.000024581857    0.000030838406    -0.097338295973    0.062367074111
0.700     -0.061005472407    0.130104618966    -0.000002187340    0.000016309478    -0.059719393042    0.108283404607    -0.000008261765    0.000024199545
            -0.000002187340    0.000016309478    -0.086550566228    0.087020728796    -0.000008978273    0.000025296908    -0.073607597873    0.068723057617
            -0.059719393042    0.108283404607    -0.000008978273    0.000025296908    -0.063064848865    0.127192383989    -0.000018510445    0.000035407713
            -0.000008261765    0.000024199545    -0.073607597873    0.068723057617    -0.000018510445    0.000035407713    -0.088307732823    0.083660213892
0.725     -0.040046729989    0.145595462099    0.000001105309    0.000016489806    -0.043686644967    0.124652662191    -0.000003471717    0.000025517892
            0.000001105309    0.000016489806    -0.073260772034    0.106179573374    -0.000004024201    0.000026800863    -0.064920606406    0.086543807094
            -0.043686644967    0.124652662191    -0.000004024201    0.000026800863    -0.042574201242    0.142889104346    -0.000011647805    0.000038711531
            -0.000003471717    0.000025517892    -0.064920606406    0.086543807094    -0.000011647805    0.000038711531    -0.075481430283    0.102945188744
0.750     -0.016758217066    0.156723058062    0.000004332529    0.000015998880    -0.024952689677    0.137740434110    0.000001455236    0.000025868075
            0.000004332529    0.000015998880    -0.056710021554    0.122544801154    0.000001108641    0.000027301541    -0.053118175182    0.102562606773
            -0.024952689677    0.137740434110    0.000001108641    0.000027301541    -0.019709721693    0.154308064311    -0.000004270452    0.000040641969
            0.000001455236    0.000025868075    -0.053118175182    0.102562606773    -0.000004270452    0.000040641969    -0.059367117250    0.119521415262
0.775     0.007888098907    0.163191920338    0.000007361845    0.000014887194    -0.004254860863    0.147139353484    0.000006325341    0.000025269835
            0.000007361845    0.000014887194    -0.037546673659    0.135556769006    0.000006217777    0.000026807789    -0.038637361321    0.116226345983
            -0.004254860863    0.147139353484    0.000006217777    0.000026807789    0.004572985476    0.161142805905    0.000003344434    0.000041150358
