# GHz S RI R 45
0.000     0.015269841948    0.001923274860    0.000001880451    0.000003760321    0.000714375825    0.001644598786    0.000002045818    0.000004397620
            0.000001880386    0.000003760320    0.014734197394    0.001917223296    0.000002264615    0.000004419824    0.000678984615    0.001643262578
            0.000714375699    0.001644598731    0.000002264545    0.000004419826    0.015219020642    0.001910829412    0.000002472854    0.000005240568
            0.000002045750    0.000004397619    0.000678984758    0.001643262518    0.000002472567    0.000005240566    0.014700327390    0.001928028193
0.025     0.019576552299    0.010732391554    0.000004315296    0.000008539878    0.002266196765    0.009589479868    0.000004831405    0.000009466437
            0.000004315295    0.000008539868    0.018882134803    0.010238419208    0.000005186349    0.000010607464    0.002141809953    0.009180316005
            0.002263608237    0.009592239053    0.000005186359    0.000010607466    0.019501078008    0.010680279123    0.000005788423    0.000011498722
            0.000004831413    0.000009466429    0.002141006896    0.009180287484    0.000005788429    0.000011498722    0.018817058559    0.010205973793
0.050     0.025817566678    0.017472768836    0.000009743004    0.000014674150    0.006684190793    0.018167317757    0.000011048831    0.000016168696
            0.000009743004    0.000014674150    0.024849325739    0.016681005114    0.000011556181    0.000018307394    0.006329961088    0.017423277823
            0.006684156682    0.018167347356    0.000011556181    0.000018307395    0.025709861846    0.017366409021    0.000013154809    0.000019703884
            0.000011048832    0.000016168697    0.006329950071    0.017423271186    0.000013154809    0.000019703884    0.024789316326    0.016614974586
0.075     0.033669396179    0.021955303461    0.000017133570    0.000018493019    0.013475595430    0.024988448775    0.000019518680    0.000020235138
            0.000017133570    0.000018493019    0.032366543959    0.021026876344    0.000020178614    0.000023325812    0.012789624339    0.024055178629
            0.013475587900    0.024988449427    0.000020178614    0.000023325812    0.033518009178    0.021823670455    0.000023166030    0.000024818016
            0.000019518680    0.000020235138    0.012789616164    0.024055178446    0.000023166030    0.000024818017    0.032310319889    0.020933456662
0.100     0.042811461564    0.023770200519    0.000025836197    0.000019629066    0.022036501796    0.029502835692    0.000029511541    0.000021246496
            0.000025836197    0.000019629066    0.041182712944    0.022899673288    0.000030329112    0.000025251265    0.020985788361    0.028559665701
            0.022036501796    0.029502835692    0.000030329112    0.000025251265    0.042612198007    0.023633929542    0.000034994542    0.000026364347
            0.000029511541    0.000021246496    0.020985788361    0.028559665701    0.000034994542    0.000026364347    0.041135045811    0.022782242333
0.125     0.052452228119    0.022587229016    0.000035050684    0.000017773134    0.031666780582    0.031305573344    0.000040126461    0.000018839632
            0.000035050684    0.000017773134    0.050629847672    0.021946272365    0.000041100674    0.000023722571    0.030292948182    0.030548142166
            0.031666780582    0.031305573344    0.000041100674    0.000023722571    0.052208591921    0.022467456826    0.000047604600    0.000023909504
            0.000040126461    0.000018839632    0.030292948182    0.030548142166    0.000047604600    0.000023909504    0.050596023574    0.021806727831
0.150     0.061863422887    0.018264373254    0.000043914104    0.000012896512    0.041599325020    0.030194273385    0.000050387251    0.000012967351
            0.000043914104    0.000012896512    0.059962045589    0.018046380135    0.000051508534    0.000018696331    0.040024901211    0.029799041129
            0.041599325020    0.030194273385    0.000051508534    0.000018696331    0.061588887015    0.018184997088    0.000059867046    0.000017382741
            0.000050387251    0.000012967351    0.040024901211    0.029799041129    0.000059867046    0.000017382741    0.059957810748    0.017887592604
0.175     0.070110086759    0.010906299415    0.000051594149    0.000005149110    0.051037720018    0.026150976789    0.000059346977    0.000003780382
            0.000051594149    0.000005149110    0.068387394188    0.011245716103    0.000060597020    0.000010329187    0.049456033308    0.026258876357
            0.051037720018    0.026150976789    0.000060597020    0.000010329187    0.069826403567    0.010884676760    0.000070679104    0.000006937134
            0.000059346977    0.000003780382    0.049456033308    0.026258876357    0.000070679104    0.000006937134    0.068427752795    0.011062857905
0.200     0.076365514710    0.000875223152    0.000057333994    -0.000005101260    0.059210848243    0.019361496964    0.000066138122    -0.000008323236
            0.000057333994    -0.000005101260    0.075144406416    0.001805095098    0.000067491386    -0.000000972106    0.057875344164    0.020052214801
            0.059210848243    0.019361496964    0.000067491386    -0.000000972106    0.076101505635    0.000921617894    0.000079022170    -0.000006986158
            0.000066138122    -0.000008323236    0.057875344164    0.020052214801    0.000079022170    -0.000006986158    0.075244013631    0.001588527273
0.225     0.079914947685    -0.011281975386    0.000060478920    -0.000017322015    0.065409999211    0.010194737883    0.000070002418    -0.000022757926
            0.000060478920    -0.000017322015    0.079543180153    -0.009837110191    0.000071427848    -0.000014610936    0.064615753240    0.011466986675
            0.065409999211    0.010194737883    0.000071427848    -0.000014610936    0.079703986258    -0.011167188239    0.000083997234    -0.000023727090
            0.000070002418    -0.000022757926    0.064615753240    0.011466986675    0.000083997234    -0.000023727090    0.079716132312    -0.010102714218
0.250     0.080205217473    -0.024848268114    0.000060534009    -0.000030833710    0.069037130290    -0.000816290198    0.000070357293    -0.000038768155
            0.000060534009    -0.000030833710    0.081025549979    -0.023074073734    0.000071821502    -0.000029819077    0.069097655745    0.000941740834
            0.069037130290    -0.000816290198    0.000071821502    -0.000029819077    0.080082587171    -0.024675056105    0.000084902703    -0.000042423141
            0.000070357293    -0.000038768155    0.069097655745    0.000941740834    0.000084902703    -0.000042423141    0.081283841033    -0.023409683942
0.275     0.076858572369    -0.038984260822    0.000057161279    -0.000044854509    0.069628975142    -0.013001640036    0.000066793099    -0.000055478135
            0.000057161279    -0.000044854509    0.079181100697    -0.037179471063    0.000068263603    -0.000045706614    0.070849644058    -0.010956583061
            0.069628975142    -0.013001640036    0.000068263603    -0.000045706614    0.076858221315    -0.038774258307    0.000081232823    -0.000062066517
            0.000066793099    -0.000055478135    0.070849644058    -0.010956583061    0.000081232823    -0.000062066517    0.079531981317    -0.037611647234
0.300     0.069716638621    -0.052768077936    0.000050222386    -0.000058536384    0.066894188014    -0.025591064044    0.000059122012    -0.000071931488
            0.000050222386    -0.000058536384    0.073786878803    -0.051339005785    0.000060571745    -0.000061303183    0.069543334838    -0.023561382995
            0.066894188014    -0.025591064044    0.000060571745    -0.000061303183    0.069867570847    -0.052554719118    0.000072736652    -0.000081548408
            0.000059122012    -0.000071931488    0.069543334838    -0.023561382995    0.000072736652    -0.000081548408    0.074231786454    -0.051899678866
0.325     0.058839663143    -0.065244161503    0.000039767134    -0.000070997178    0.060726652130    -0.037747223903    0.000047366215    -0.000087126480
            0.000039767134    -0.000070997178    0.064807084021    -0.064693632556    0.000048777732    -0.000075594157    0.065004826809    -0.036133907150
            0.060726652130    -0.037747223903    0.000048777732    -0.000075594157    0.059162780778    -0.065070620583    0.000059404787    -0.000099699765
            0.000047366215    -0.000087126480    0.065004826809    -0.036133907150    0.000059404787    -0.000099699765    0.065339187777    -0.065418424064
0.350     0.044527291511    -0.075480869362    0.000026062025    -0.000081373924    0.051226397972    -0.048616101225    0.000031791503    -0.000100074110
            0.000026062025    -0.000081373924    0.052414215176    -0.076386927105    0.000033161857    -0.000087581130    0.057236488415    -0.047904936185
            0.051226397972    -0.048616101225    0.000033161857    -0.000087581130    0.045032111911    -0.075398726956    0.000041512845    -0.000115361263
            0.000031791503    -0.000100074110    0.057236488415    -0.047904936185    0.000041512845    -0.000115361263    0.053016748187    -0.077312365652
0.375     0.027301571689    -0.082618365349    0.000009575860    -0.000088852134    0.038699838598    -0.057365716918    0.000012892686    -0.000109833603
            0.000009575860    -0.000088852134    0.036975229354    -0.085603454503    0.000014235042    -0.000096315905    0.046417571178    -0.058104964038
            0.038699838598    -0.057365716918    0.000014235042    -0.000096315905    0.027983777150    -0.082683997743    0.000019599649    -0.000127418574
            0.000012892686    -0.000109833603    0.046417571178    -0.058104964038    0.000019599649    -0.000127418574    0.037621037056    -0.086765164253
0.400     0.007896938708    -0.085931854675    -0.000009015806    -0.000092737821    0.023658180998    -0.063247942362    -0.000008600279    -0.000115588563
            -0.000009015806    -0.000092737821    0.019049924937    -0.091622017732    -0.000007252902    -0.000100981489    0.032908246004    -0.066015834162
            0.023658180998    -0.063247942362    -0.000007252902    -0.000100981489    0.008736559501    -0.086203329383    -0.000005519798    -0.000134895415
            -0.000008600279    -0.000115588563    0.032908246004    -0.066015834162    -0.000005519798    -0.000134895415    0.019701018541    -0.093051604362
0.425     -0.012775766907    -0.084875016899    -0.000028860568    -0.000092488262    0.006797128431    -0.065637871240    -0.000031752993    -0.000116682709
            -0.000028860568    -0.000092488262    -0.000635901914    -0.093851590713    -0.000030348077    -0.000100927720    0.017235864366    -0.071001271657
            0.006797128431    -0.065637871240    -0.000030348077    -0.000100927720    -0.011815045432    -0.085407262759    -0.000032790150    -0.000136992688
            -0.000031752993    -0.000116682709    0.017235864366    -0.071001271657    -0.000032790150    -0.000136992688    -0.000028031984    -0.095573598889
0.450     -0.033674700032    -0.079134206884    -0.000048965051    -0.000087788386    -0.011036373969    -0.064093730634    -0.000055463486    -0.000112708791
            -0.000048965051    -0.000087788386    -0.021221074720    -0.091879284564    -0.000053930234    -0.000095756853    0.000074934220    -0.072559413307
            -0.011036373969    -0.064093730634    -0.000053930234    -0.000095756853    -0.032644895396    -0.079974482333    -0.000060955947    -0.000133189386
            -0.000055463486    -0.000112708791    0.000074934219    -0.072559412307    -0.000060955947    -0.000133189386    -0.020713374765    -0.093907738397
0.475     -0.053684188610    -0.068653876213    -0.000068250882    -0.000078571304    -0.028887971638    -0.058385269253    -0.000078522410    -0.000103527363
            -0.000068250882    -0.000078571304    -0.041749822728    -0.085494249092    -0.000076776124    -0.000085346586    -0.017782935647    -0.070346603415
            -0.028887971638    -0.058385269253    -0.000076776124    -0.000085346586    -0.052651160321    -0.069837424924    -0.000088628918    -0.000123262181
            -0.000078522410    -0.000103527363    -0.017782935647    -0.070346603415    -0.000088628918    -0.000123262181    -0.041405740257    -0.087830712890
0.500     -0.071688263765    -0.053661429606    -0.000085637474    -0.000065062945    -0.045761602340    -0.048531682241    -0.000099700388    -0.000089324898
            -0.000085637474    -0.000065062945    -0.061226487684    -0.074718065420    -0.000097647434    -0.000069903438    -0.035475795893    -0.064217556054
            -0.045761602340    -0.048531682241    -0.000097647434    -0.000069903438    -0.070728266477    -0.055207448583    -0.000114383284    -0.000107361596
            -0.000099700388    -0.000089324898    -0.035475795893    -0.064217556054    -0.000114383284    -0.000107361596    -0.061112863572    -0.077348745031
0.525     -0.086640330501    -0.034658992324    -0.000100111640    -0.000047764359    -0.060677460484    -0.034799394699    -0.000117827418    -0.000070596065
            -0.000100111640    -0.000047764359    -0.078668730344    -0.059805990301    -0.000115370652    -0.000049943534    -0.052113803010    -0.054230186661
            -0.060677460484    -0.034799394699    -0.000115370652    -0.000049943534    -0.085836343971    -0.036567885147    -0.000136844408    -0.000085986616
            -0.000117827418    -0.000070596065    -0.052113803010    -0.054230186661    -0.000136844408    -0.000085986616    -0.078851666068    -0.062701002331
0.550     -0.097643689474    -0.012401913909    -0.000110832788    -0.000027440947    -0.072752530888    -0.017698407948    -0.000131904029    -0.000048138260
            -0.000110832788    -0.000027440947    -0.093173252958    -0.041244585901    -0.000128949870    -0.000026286058    -0.066842671050    -0.040657728849
            -0.072752530888    -0.017698407948    -0.000128949870    -0.000026286058    -0.097079337894    -0.014653413082    -0.000154811316    -0.000059985098
            -0.000131904029    -0.000048138260    -0.066842671050    -0.040657728849    -0.000154811316    -0.000059985098    -0.093713953544    -0.044357429270
0.575     -0.104007952804    0.012149505644    -0.000117178769    -0.000005047269    -0.081249550510    0.002056686303    -0.000141159508    -0.000022973985
            -0.000117178769    -0.000005047269    -0.103965455848    -0.019724566073    -0.000137622957    0.000000028079    -0.078885959443    -0.023967687781
            -0.081249550510    0.002056686303    -0.000137622957    0.000000028079    -0.103762817157    0.009595976387    -0.000167327029    -0.000030474217
            -0.000141159508    -0.000022973985    -0.078885959443    -0.023967687781    -0.000167327029    -0.000030474217    -0.104916179992    -0.022993614494
0.600     -0.105304404458    0.037894811991    -0.000118820007    0.000018340949    -0.085641185254    0.023594883792    -0.000145135439    0.000003719392
            -0.000118820007    0.000018340949    -0.110455533144    0.003897648960    -0.000140945203    0.000027804510    -0.087605746333    -0.004798829780
            -0.085641185254    0.023594883792    -0.000140945203    0.000027804510    -0.105447901131    0.035098964469    -0.000173771519    0.000001232585
            -0.000145135439    0.000003719392    -0.087605746333    -0.004798829780    -0.000173771519    0.000001232585    -0.111855201555    0.000547198150
0.625     -0.101384678503    0.063666960357    -0.000115711200    0.000041624105    -0.085625503805    0.045951752083    -0.000143681455    0.000030713675
            -0.000115711200    0.000041624105    -0.112267526670    0.028651109314    -0.000138782279    0.000055805285    -0.092526133533    0.016082755494
            -0.085625503805    0.045951752083    -0.000138782279    0.000055805285    -0.101972138455    0.060704861484    -0.000173863687    0.000033741704
            -0.000143681455    0.000030713675    -0.092526133533    0.016082755494    -0.000173863687    0.000033741704    -0.114138534906    0.025304259291
0.650     -0.092389032420    0.088313745834    -0.000108097776    0.000063768672    -0.081150233678    0.068138663585    -0.000136974573    0.000056828307
            -0.000108097776    0.000063768672    -0.109264068103    0.053511859280    -0.000131328222    0.000082842871    -0.093371409099    0.037831683258
            -0.081150233678    0.068138663585    -0.000131328222    0.000082842871    -0.093457428300    0.085272964760    -0.000167692133    0.000065681874
            -0.000136974573    0.000056828307    -0.093371409099    0.037831683258    -0.000167692133    0.000065681874    -0.111610134291    0.050258868478
0.675     -0.078719740571    0.110766406025    -0.000096447414    0.000083876904    -0.072387539152    0.089201664925    -0.000125445471    0.000081007491
            -0.000096447414    0.000083876904    -0.101543764365    0.077460560300    -0.000119029547    0.000107859618    -0.090059891334    0.059573339315
            -0.072387539152    0.089201664925    -0.000119029547    0.000107859618    -0.080285911001    0.107741635801    -0.000155637478    0.000095795103
            -0.000125445471    0.000081007491    -0.090059891334    0.059573339315    -0.000155637478    0.000095795103    -0.104348436636    0.074393102836
0.700     -0.061005472407    0.130104618966    -0.000081407367    0.000101246002    -0.059719393042    0.108283404607    -0.000109743683    0.000102391941
            -0.000081407367    0.000101246002    -0.089430291100    0.099544355471    -0.000102551492    0.000129997303    -0.082712057785    0.080459272470
            -0.059719393042    0.108283404607    -0.000102551492    0.000129997303    -0.063064848865    0.127192383989    -0.000138344865    0.000123016187
            -0.000109743683    0.000102391941    -0.082712057785    0.080459272470    -0.000138344865    0.000123016187    -0.092657397209    0.096750268284
0.725     -0.040046729989    0.145595462099    -0.000063710605    0.000115378434    -0.043686644967    0.124652662191    -0.000090634441    0.000120334291
            -0.000063710605    0.000115378434    -0.073440510331    0.118921183026    -0.000082672366    0.000148613364    -0.071616928956    0.099702402467
            -0.043686644967    0.124652662191    -0.000082672366    0.000148613364    -0.042574201242    0.142889104346    -0.000116614420    0.000146498007
            -0.000090634441    0.000120334291    -0.071616928956    0.099702402467    -0.000116614420    0.000146498007    -0.077034813128    0.116480260729
0.750     -0.016758217066    0.156723058062    -0.000044127521    0.000125994956    -0.024952689677    0.137740434110    -0.000068948147    0.000134421853
            -0.000044127521    0.000125994956    -0.054247174872    0.134902107095    -0.000060233230    0.000163297576    -0.057217242209    0.116622177935
            -0.024952689677    0.137740434110    -0.000060233230    0.000163297576    -0.019709721693    0.154308064311    -0.000091349527    0.000165642858
            -0.000068948147    0.000134421853    -0.057217242209    0.116622177935    -0.000091349527    0.000165642858    -0.058137482054    0.132881490529
0.775     0.007888098907    0.163191920338    -0.000023389968    0.000132990303    -0.004254860863    0.147139353484    -0.000045498708    0.000144433723
            -0.000023389968    0.000132990303    -0.032633978021    0.146970001874    -0.000036057854    0.000173835336    -0.040064530543    0.130654978457
            -0.004254860863    0.147139353484    -0.000036057854    0.000173835336    0.004572985476    0.161142805905    -0.000063464728    0.000180062370
