# GHz S RI R 45
0.000     0.015269841948    0.001923274860    -0.000014968409    -0.000039484953    0.000714375825    0.001644598786    -0.000021217163    -0.000054624042
            -0.000014968354    -0.000039484956    0.015546601414    0.001664758027    -0.000011261201    -0.000029494835    0.000762673918    0.001484466285
            0.000714375699    0.001644598731    -0.000011261207    -0.000029494835    0.015219020642    0.001910829412    -0.000015093573    -0.000039451019
            -0.000021217129    -0.000054624040    0.000762674197    0.001484466254    -0.000015093659    -0.000039451018    0.015525812912    0.001655617863
0.025     0.019576552299    0.010732391554    -0.000035534844    -0.000087086774    0.002266196765    0.009589479868    -0.000049682311    -0.000121049881
            -0.000035534858    -0.000087086722    0.019194654516    0.010557770049    -0.000026673740    -0.000064926270    0.001826626694    0.009559532429
            0.002263608237    0.009592239053    -0.000026673730    -0.000064926245    0.019501078008    0.010680279123    -0.000035524117    -0.000086987429
            -0.000049682874    -0.000121050050    0.001826647609    0.009558747759    -0.000035524141    -0.000086987358    0.019109200847    0.010473359856
0.050     0.025817566678    0.017472768836    -0.000080477776    -0.000153585814    0.006684190793    0.018167317757    -0.000111023993    -0.000213566791
            -0.000080477776    -0.000153585814    0.023705856749    0.017676679055    -0.000060416692    -0.000114460599    0.004970505952    0.018484467807
            0.006684156682    0.018167347356    -0.000060416692    -0.000114460599    0.025709861846    0.017366409021    -0.000080043757    -0.000153622638
            -0.000111023998    -0.000213566800    0.004970531053    0.018484462093    -0.000080043757    -0.000153622638    0.023568208041    0.017530036601
0.075     0.033669396179    0.021955303461    -0.000140824825    -0.000204018570    0.013475595430    0.024988448775    -0.000193100927    -0.000284841743
            -0.000140824825    -0.000204018570    0.028992054970    0.023364938399    -0.000105818985    -0.000151872035    0.009841117235    0.026308926490
            0.013475587900    0.024988449427    -0.000105818985    -0.000151872035    0.033518009178    0.021823670455    -0.000139952388    -0.000204667299
            -0.000193100927    -0.000284841743    0.009841132086    0.026308928409    -0.000139952388    -0.000204667299    0.028773114289    0.023177653672
0.100     0.042811461564    0.023770200519    -0.000213328338    -0.000237100740    0.022036501796    0.029502835692    -0.000292205305    -0.000333398488
            -0.000213328331    -0.000237100733    0.034980594323    0.027502887918    -0.000160371673    -0.000176121141    0.016051698506    0.032701907049
            0.022036501796    0.029502835692    -0.000160371673    -0.000176121141    0.042612198007    0.023633929542    -0.000212333880    -0.000238844798
            -0.000292205305    -0.000333398488    0.016051698506    0.032701907049    -0.000212333880    -0.000238844798    0.034661656177    0.027309376638
0.125     0.052452228119    0.022587229016    -0.000293821208    -0.000251147434    0.031666780582    0.031305573344    -0.000403294285    -0.000356766247
            -0.000293821200    -0.000251147428    0.041235043424    0.029967699178    -0.000220886362    -0.000185933296    0.023174443836    0.037437209631
            0.031666780582    0.031305573344    -0.000220886362    -0.000185933296    0.052208591921    0.022467456826    -0.000293343733    -0.000254309395
            -0.000403294285    -0.000356766247    0.023174426412    0.037437163964    -0.000293343733    -0.000254309395    0.040809068244    0.029806740023
0.150     0.061863422887    0.018264373254    -0.000377902003    -0.000245890757    0.041599325020    0.030194273385    -0.000520862231    -0.000354132183
            -0.000377902003    -0.000245890757    0.047385909314    0.030814580974    -0.000284005565    -0.000181088890    0.030748203640    0.040409989751
            0.041599325020    0.030194273385    -0.000284005565    -0.000181088890    0.061588887015    0.018184997088    -0.000378798275    -0.000250465528
            -0.000520862231    -0.000354132183    0.030748203640    0.040409989751    -0.000378798275    -0.000250465528    0.046864295263    0.030728646100
0.175     0.070110086759    0.010906299415    -0.000461635851    -0.000221833038    0.051037720018    0.026150976789    -0.000639796979    -0.000325508151
            -0.000461635851    -0.000221833038    0.052956896739    0.030170342417    -0.000346732241    -0.000161970881    0.038312659962    0.041634335932
            0.051037720018    0.026150976789    -0.000346732241    -0.000161970881    0.069826403567    0.010884676760    -0.000464835146    -0.000227390313
            -0.000639796979    -0.000325508151    0.038312659962    0.041634335932    -0.000464835146    -0.000227390313    0.052363675538    0.030195290610
0.200     0.076365514710    0.000875223152    -0.000541778928    -0.000180319336    0.059210848243    0.019361496964    -0.000755614533    -0.000271986129
            -0.000541778928    -0.000180319336    0.057561796240    0.028321249711    -0.000406591544    -0.000129580722    0.045436402124    0.041245618013
            0.059210848243    0.019361496964    -0.000406591544    -0.000129580722    0.076101505635    0.000921617894    -0.000548087562    -0.000185956248
            -0.000755614533    -0.000271986129    0.045436402124    0.041245618013    -0.000548087562    -0.000185956248    0.056932209487    0.028484605049
0.225     0.079914947685    -0.011281975386    -0.000615780310    -0.000122870592    0.065409999211    0.010194737883    -0.000864474912    -0.000194969883
            -0.000615780310    -0.000122870592    0.060923280083    0.025636144452    -0.000461607640    -0.000085055350    0.051744619178    0.039479441853
            0.065409999211    0.010194737883    -0.000461607640    -0.000085055350    0.079703986258    -0.011167188239    -0.000625670144    -0.000127262984
            -0.000864474912    -0.000194969883    0.051744619178    0.039479441853    -0.000625670144    -0.000127262984    0.060300762065    0.025953453005
0.250     0.080205217473    -0.024848268114    -0.000681798559    -0.000051161777    0.069037130290    -0.000816290198    -0.000963253058    -0.000096194847
            -0.000681798559    -0.000051161777    0.062877346930    0.022555529737    -0.000510317303    -0.000029646963    0.056944585116    0.036662262741
            0.069037130290    -0.000816290198    -0.000510317303    -0.000029646963    0.080082587171    -0.024675056105    -0.000695213738    -0.000052686330
            -0.000963253058    -0.000096194847    0.056944585116    0.036662262741    -0.000695213738    -0.000052686330    0.062310174279    0.023028654421
0.275     0.076858572369    -0.038984260822    -0.000738406495    0.000033444189    0.069628975142    -0.013001640036    -0.001049193820    0.000022748209
            -0.000738406495    0.000033444189    0.063388601167    0.019539311864    -0.000551539519    0.000035599473    0.060842564788    0.033179546280
            0.069628975142    -0.013001640036    -0.000551539519    0.000035599473    0.076858221315    -0.038774258307    -0.000754630259    0.000036514687
            -0.001049193820    0.000022748209    0.060842564788    0.033179546280    -0.000754630259    0.000036514687    0.062925437217    0.020155219318
0.300     0.069716638621    -0.052768077936    -0.000784464538    0.000129863464    0.066894188014    -0.025591064044    -0.001119855775    0.000160307443
            -0.000784464538    0.000129863464    0.062551355264    0.017051950833    -0.000584293148    0.000109800680    0.063359356849    0.029456454199
            0.066894188014    -0.025591064044    -0.000584293148    0.000109800680    0.069867570847    -0.052554719118    -0.000802046354    0.000139079852
            -0.001119855775    0.000160307443    0.063359356849    0.029456454199    -0.000802046354    0.000139079852    0.062237017912    0.017782526897
0.325     0.058839663143    -0.065244161503    -0.000818684323    0.000237352946    0.060726652130    -0.037747223903    -0.001172628681    0.000315102248
            -0.000818684323    0.000237352946    0.060587726491    0.015512568928    -0.000607471146    0.000192309534    0.064533553833    0.025920476913
            0.060726652130    -0.037747223903    -0.000607471146    0.000192309534    0.059162780778    -0.065070620583    -0.000835491672    0.000253811356
            -0.001172628681    0.000315102248    0.064533553833    0.025920476913    -0.000835491672    0.000253811356    0.060458703127    0.016316188842
0.350     0.044527291511    -0.075480869362    -0.000839515202    0.000355404788    0.051226397972    -0.048616101225    -0.001204766337    0.000485735333
            -0.000839515202    0.000355404788    0.057835675552    0.015276859901    -0.000619794944    0.000282529469    0.064525814544    0.022977831071
            0.051226397972    -0.048616101225    -0.000619794944    0.000282529469    0.045032111911    -0.075398726956    -0.000852879031    0.000379461371
            -0.001204766337    0.000485735333    0.064525814544    0.022977831071    -0.000852879031    0.000379461371    0.057916542245    0.016100862282
0.375     0.027301571689    -0.082618365349    -0.000844809757    0.000483392903    0.038699838598    -0.057365716918    -0.001212981698    0.000670416675
            -0.000844809757    0.000483392903    0.054729001439    0.016594112212    -0.000619553076    0.000379778491    0.063605182421    0.020973310757
            0.038699838598    -0.057365716918    -0.000619553076    0.000379778491    0.027983777150    -0.082683997743    -0.000851788518    0.000514440169
            -0.001212981698    0.000670416675    0.063605182421    0.020973310757    -0.000851788518    0.000514440169    0.055028933204    0.017378186964
0.400     0.007896938708    -0.085931854675    -0.000831895114    0.000620340257    0.023658180998    -0.063247942362    -0.001193652208    0.000866796730
            -0.000831895114    0.000620340257    0.051771633469    0.019593363652    -0.000604734291    0.000482985165    0.062138522304    0.020169206101
            0.023658180998    -0.063247942362    -0.000604734291    0.000482985165    0.008736559501    -0.086203329383    -0.000829617395    0.000656701643
            -0.001193652208    0.000866796730    0.062138522304    0.020169206101    -0.000829617395    0.000656701643    0.052282547026    0.020274047813
0.425     -0.012775766907    -0.084875016899    -0.000797553757    0.000764423171    0.006797128431    -0.065637871240    -0.001142854055    0.001071414069
            -0.000797553757    0.000764423171    0.049500569363    0.024254315814    -0.000573007627    0.000590419588    0.060559054516    0.020709713887
            0.006797128431    -0.065637871240    -0.000573007627    0.000590419588    -0.011815045432    -0.085407262759    -0.000783644084    0.000803303080
            -0.001142854055    0.001071414069    0.060559055101    0.020709715268    -0.000783644084    0.000803303080    0.050196023216    0.024769969118
0.450     -0.033674700032    -0.079134206884    -0.000738434195    0.000912733925    -0.011036373969    -0.064093730634    -0.001056830523    0.001279559379
            -0.000738434195    0.000912733925    0.048449813026    0.030406788130    -0.000522053116    0.000699531987    0.059339534810    0.022611289171
            -0.011036373969    -0.064093730634    -0.000522053116    0.000699531987    -0.032644895396    -0.079974482333    -0.000711378316    0.000950398458
            -0.001056830523    0.001279559379    0.059339534810    0.022611289171    -0.000711378316    0.000950398458    0.049285554968    0.030703138088
0.475     -0.053684188610    -0.068653876213    -0.000651385335    0.001060913706    -0.028887971638    -0.058385269253    -0.000932369626    0.001485007452
            -0.000651385335    0.001060913706    0.049101538565    0.037724439826    -0.000449865700    0.000806706439    0.058945698912    0.025743896202
            -0.028887971638    -0.058385269253    -0.000449865700    0.000806706439    -0.052651160321    -0.069837424924    -0.000610912556    0.001093024948
            -0.000932369626    0.001485007452    0.058945698912    0.025743896202    -0.000610912556    0.001093024948    0.050017772975    0.037759228123
0.500     -0.071688263765    -0.053661429606    -0.000534161622    0.001203315922    -0.045761602340    -0.048531682241    -0.000767551286    0.001680117305
            -0.000534161622    0.001203315922    0.051848318013    0.045746232739    -0.000355247355    0.000907420858    0.059802122627    0.029843257405
            -0.045761602340    -0.048531682241    -0.000355247355    0.000907420858    -0.070728266477    -0.055207448583    -0.000481470105    0.001225291088
            -0.000767551286    0.001680117305    0.059802122627    0.029843257405    -0.000481470105    0.001225291088    0.052773320792    0.045494079577
0.525     -0.086640330501    -0.034658992324    -0.000385836316    0.001333051877    -0.060677460484    -0.034799394699    -0.000562232959    0.001856137798
            -0.000385836316    0.001333051877    0.056947972337    0.053898294256    -0.000238152427    0.000996378728    0.062242885640    0.034518778797
            -0.060677460484    -0.034799394699    -0.000238152427    0.000996378728    -0.085836343971    -0.036567885147    -0.000323696958    0.001340631645
            -0.000562232959    0.001856137798    0.062242885640    0.034518778797    -0.000323696958    0.001340631645    0.057802857416    0.053353854981
0.550     -0.097643689474    -0.012401913909    -0.000207504795    0.001442582698    -0.072752530888    -0.017698407948    -0.000318634190    0.002003831339
            -0.000207504795    0.001442582698    0.064499809855    0.061539613497    -0.000100116164    0.001067993203    0.066485776603    0.039290879504
            -0.072752530888    -0.017698407948    -0.000100116164    0.001067993203    -0.097079337894    -0.014653413082    -0.000140109835    0.001432352282
            -0.000318634190    0.002003831339    0.066485776603    0.039290879504    -0.000140109835    0.001432352282    0.065204746396    0.060719091035
0.575     -0.104007952804    0.012149505644    -0.000002359972    0.001524285573    -0.081249550510    0.002056686303    -0.000041435453    0.002114133787
            -0.000002359972    0.001524285573    0.074421322754    0.068005187374    0.000055709505    0.001116850944    0.072599397818    0.043622120838
            -0.081249550510    0.002056686303    0.000055709505    0.001116850944    -0.103762817157    0.009595976387    0.000064879122    0.001494180598
            -0.000041435453    0.002114133787    0.072599397818    0.043622120838    0.000064879122    0.001494180598    0.074901404540    0.066946744714
0.600     -0.105304404458    0.037894811991    0.000224121962    0.001571364134    -0.085641185254    0.023594883792    0.000262145075    0.002179176198
            0.000224121962    0.001571364134    0.086454612465    0.072662038995    0.000224548960    0.001138439775    0.080503759279    0.046970646620
            -0.085641185254    0.023594883792    0.000224548960    0.001138439775    -0.105447901131    0.035098964469    0.000285169179    0.001521024411
            0.000262145075    0.002179176198    0.080503759279    0.046970646620    0.000285169179    0.001521024411    0.086645651481    0.071423362437
0.625     -0.101384678503    0.063666960357    0.000464517078    0.001578417923    -0.085625503805    0.045951752083    0.000582873803    0.002192835485
            0.000464517078    0.001578417923    0.100172578146    0.074956017608    0.000400321190    0.001129514145    0.089963728768    0.048826734691
            -0.085625503805    0.045951752083    0.000400321190    0.001129514145    -0.101972138455    0.060704861484    0.000513221066    0.001509407874
            0.000582873803    0.002192835485    0.089963728768    0.048826734691    0.000513221066    0.001509407874    0.100027723434    0.073610932655
0.650     -0.092389032420    0.088313745834    0.000710135249    0.001542154635    -0.081150233678    0.068138663585    0.000910032977    0.002151549739
            0.000710135249    0.001542154635    0.115018989839    0.074456016256    0.000576239528    0.001088628143    0.100620002840    0.048760489472
            -0.081150233678    0.068138663585    0.000576239528    0.001088628143    -0.093457428300    0.085272964760    0.000740841928    0.001457949159
            0.000910032977    0.002151549739    0.100620002840    0.048760489472    0.000740841928    0.001457949159    0.114510258307    0.073089551671
0.675     -0.078719740571    0.110766406025    0.000951483302    0.001461620732    -0.072387539152    0.089201664925    0.001232344442    0.002054413102
            0.000951483302    0.001461620732    0.130337118235    0.070882059826    0.000745284117    0.001016142949    0.112004821579    0.046446218124
            -0.072387539152    0.089201664925    0.000745284117    0.001016142949    -0.080285911001    0.107741635801    0.000959652431    0.001367395127
            0.001232344442    0.002054413102    0.112004821579    0.046446218124    0.000959652431    0.001367395127    0.129459456608    0.069584753189
0.700     -0.061005472407    0.130104618966    0.001179258251    0.001338338816    -0.059719393042    0.108283404607    0.001538690175    0.001903398208
            0.001179258251    0.001338338816    0.145425225478    0.064123392077    0.000900877962    0.000914286895    0.123590717130    0.041687423324
            -0.059719393042    0.108283404607    0.000900877962    0.000914286895    -0.063064848865    0.127192383989    0.001161981503    0.001240553306
            0.001538690175    0.001903398208    0.123590717130    0.041687423324    0.001161981503    0.001240553306    0.144195891105    0.062985363228
0.725     -0.040046729989    0.145595462099    0.001384892659    0.001175993165    -0.043686644967    0.124652662191    0.001818999874    0.001702844175
            0.001384892659    0.001175993165    0.159571793042    0.054239815746    0.001037364927    0.000786742954    0.134812197183    0.034419649284
            -0.043686644967    0.124652662191    0.001037364927    0.000786742954    -0.042574201242    0.142889104346    0.001341190627    0.001081908816
            0.001818999874    0.001702844175    0.134812197183    0.034419649284    0.001341190627    0.001081908816    0.158031273279    0.053343989193
0.750     -0.016758217066    0.156723058062    0.001561145566    0.000980166384    -0.024952689677    0.137740434110    0.002064684374    0.001459272562
            0.001561145566    0.000980166384    0.172107142670    0.041450834568    0.001150369213    0.000638329919    0.145114524504    0.024712546608
            -0.024952689677    0.137740434110    0.001150369213    0.000638329919    -0.019709721693    0.154308064311    0.001492189178    0.000897208137
            0.002064684374    0.001459272562    0.145114524504    0.024712546608    0.001492189178    0.000897208137    0.170314132815    0.040869688254
0.775     0.007888098907    0.163191920338    0.001702437661    0.000757723699    -0.004254860863    0.147139353484    0.002269142287    0.001180496938
            0.001702437661    0.000757723699    0.182428330788    0.026119021289    0.001236868117    0.000474553927    0.153968178349    0.012755502143
            -0.004254860863    0.147139353484    0.001236868117    0.000474553927    0.004572985476    0.161142805905    0.001611534610    0.000692819186
            0.002269142287    0.001180496938    0.153968178349    0.012755502143    0.001611534610    0.000692819186    0.180457845502    0.025908622554
