# GHz S RI R 45
0.000     0.015269841948    0.001923274860    0.000000327956    0.000001135445    0.000714375825    0.001644598786    0.000000319178    0.000001127779
            0.000000327956    0.000001135445    0.016041658130    0.001455750340    0.000000354333    0.000001171590    0.000714310895    0.001400880505
            0.000714375699    0.001644598731    0.000000354333    0.000001171590    0.015219020642    0.001910829412    0.000000356095    0.000001180745
            0.000000319178    0.000001127779    0.000714310246    0.001400880500    0.000000356095    0.000001180745    0.015969812076    0.001460015121
0.025     0.019576552299    0.010732391554    0.000000914927    0.000002508805    0.002266196765    0.009589479868    0.000000893963    0.000002494729
            0.000000914923    0.000002508806    0.019661820319    0.010564616117    0.000000965684    0.000002589694    0.001904450841    0.009889582830
            0.002263608237    0.009592239053    0.000000965683    0.000002589694    0.019501078008    0.010680279123    0.000000965770    0.000002611789
            0.000000893962    0.000002494729    0.001906842627    0.009889240077    0.000000965770    0.000002611789    0.019605773255    0.010624376970
0.050     0.025817566678    0.017472768836    0.000002180369    0.000004400921    0.006684190793    0.018167317757    0.000002146017    0.000004390309
            0.000002180369    0.000004400921    0.024385316764    0.017556092815    0.000002274117    0.000004534638    0.005360495108    0.019047193133
            0.006684156682    0.018167347356    0.000002274117    0.000004534638    0.025709861846    0.017366409021    0.000002279767    0.000004584254
            0.000002146017    0.000004390309    0.005360529694    0.019047200021    0.000002279767    0.000004584254    0.024344474124    0.017681253956
0.075     0.033669396179    0.021955303461    0.000003844838    0.000005866484    0.013475595430    0.024988448775    0.000003802496    0.000005863238
            0.000003844838    0.000005866484    0.029941056299    0.022987932252    0.000003987328    0.000006038811    0.010687121998    0.026933653682
            0.013475587900    0.024988449427    0.000003987328    0.000006038811    0.033518009178    0.021823670455    0.000004007233    0.000006113983
            0.000003802496    0.000005863238    0.010687137171    0.026933656269    0.000004007233    0.000006113982    0.029935077977    0.023179321145
0.100     0.042811461564    0.023770200519    0.000005848170    0.000006877555    0.022036501796    0.029502835692    0.000005800750    0.000006883940
            0.000005848170    0.000006877555    0.036207427690    0.026702100265    0.000006045705    0.000007076567    0.017427058196    0.033173903265
            0.022036501796    0.029502835692    0.000006045706    0.000007076567    0.042612198007    0.023633929542    0.000006086538    0.000007174348
            0.000005800750    0.000006883940    0.017427057617    0.033173903570    0.000006086538    0.000007174348    0.036253969460    0.026950021422
0.125     0.052452228119    0.022587229016    0.000008089675    0.000007390698    0.031666780582    0.031305573344    0.000008040365    0.000007408302
            0.000008089675    0.000007390698    0.042667338062    0.028572046529    0.000008345898    0.000007603777    0.025071003021    0.037517890619
            0.031666780582    0.031305573344    0.000008345898    0.000007603777    0.052208591921    0.022467456826    0.000008413907    0.000007720000
            0.000008040365    0.000007408302    0.025071003021    0.037517890619    0.000008413907    0.000007720000    0.042780109867    0.028861842127
0.150     0.061863422887    0.018264373254    0.000010459441    0.000007392489    0.041599325020    0.030194273385    0.000010411450    0.000007422030
            0.000010459441    0.000007392489    0.048892420084    0.028636029121    0.000010777778    0.000007608479    0.033073010623    0.039863993988
            0.041599325020    0.030194273385    0.000010777777    0.000007608478    0.061588887015    0.018184997088    0.000010878395    0.000007737561
            0.000010411450    0.000007422030    0.033073041417    0.039863980134    0.000010878395    0.000007737561    0.049084486041    0.028950692806
0.175     0.070110086759    0.010906299415    0.000012862980    0.000006892018    0.051037720018    0.026150976789    0.000012819487    0.000006933230
            0.000012862980    0.000006892018    0.054334172951    0.027081280450    0.000013244234    0.000007099282    0.040891407718    0.040255472130
            0.051037720018    0.026150976789    0.000013244234    0.000007099282    0.069826403567    0.010884676760    0.000013381890    0.000007234508
            0.000012819487    0.000006933230    0.040891423928    0.040255462791    0.000013381890    0.000007234508    0.054613298769    0.027399255236
0.200     0.076365514710    0.000875223152    0.000015221932    0.000005913430    0.059210848243    0.019361496964    0.000015185967    0.000005965210
            0.000015221932    0.000005913430    0.058550838557    0.024258153476    0.000015665235    0.000006101501    0.048023688969    0.038880651391
            0.059210848243    0.019361496964    0.000015665235    0.000006101501    0.076101505635    0.000921617894    0.000015843212    0.000006235255
            0.000015185967    0.000005965210    0.048023688969    0.038880651391    0.000015843212    0.000006235255    0.058918868329    0.024555250442
0.225     0.079914947685    -0.011281975386    0.000017473216    0.000004482932    0.065409999211    0.010194737883    0.000017447591    0.000004543468
            0.000017473216    0.000004482932    0.061231113884    0.020611990788    0.000017976876    0.000004642339    0.054040643362    0.036049059204
            0.065409999211    0.010194737883    0.000017976876    0.000004642339    0.079703986258    -0.011167188239    0.000018197019    0.000004766114
            0.000017447591    0.000004543468    0.054040643362    0.036049059204    0.000018197019    0.000004766114    0.061683579748    0.020862568548
0.250     0.080205217473    -0.024848268114    0.000019567109    0.000002627122    0.069037130290    -0.000816290198    0.000019553868    0.000002693939
            0.000019567109    0.000002627122    0.062200489776    0.016667998684    0.000020129347    0.000002749158    0.058616919885    0.032176630885
            0.069037130290    -0.000816290198    0.000020129347    0.000002749158    0.080082587171    -0.024675056105    0.000020391649    0.000002853963
            0.000019553868    0.000002693939    0.058616919885    0.032176630885    0.000020391649    0.000002853963    0.062725613984    0.016846701979
0.275     0.076858572369    -0.038984260822    0.000021461051    0.000000364225    0.069628975142    -0.013001640036    0.000021461525    0.000000434409
            0.000021461051    0.000000364225    0.061438275642    0.012976205022    0.000022079779    0.000000440268    0.061551932758    0.027748198545
            0.069628975142    -0.013001640036    0.000022079779    0.000000440268    0.076858221315    -0.038774258307    0.000022382806    0.000000516904
            0.000021461525    0.000000434409    0.061551932758    0.027748198545    0.000022382806    0.000000516904    0.062017073826    0.013059989090
0.300     0.069716638621    -0.052768077936    0.000023113126    -0.000002294874    0.066894188014    -0.025591064044    0.000023127895    -0.000002224484
            0.000023113126    -0.000002294874    0.059079420698    0.010087568002    0.000023786395    -0.000002273789    0.062788416379    0.023291612918
            0.066894188014    -0.025591064044    0.000023786395    -0.000002273789    0.069867570847    -0.052554719118    0.000024126691    -0.000002234330
            0.000023127895    -0.000002224484    0.062788416379    0.023291612918    0.000024126691    -0.000002234330    0.059685551081    0.010057488966
0.325     0.058839663143    -0.065244161503    0.000024473263    -0.000005347699    0.060726652130    -0.037747223903    0.000024502210    -0.000005280081
            0.000024473263    -0.000005347699    0.055412391505    0.008498852547    0.000025198578    -0.000005391341    0.062416451673    0.019331849341
            0.060726652130    -0.037747223903    0.000025198578    -0.000005391341    0.059162780778    -0.065070620583    0.000025571155    -0.000005397626
            0.000024502210    -0.000005280081    0.062416451673    0.019331849341    0.000025571155    -0.000005397626    0.056013203187    0.008342522739
0.350     0.044527291511    -0.075480869362    0.000025477147    -0.000008792594    0.051226397972    -0.048616101225    0.000025519569    -0.000008730716
            0.000025477147    -0.000008792594    0.050865172058    0.008625974990    0.000026251428    -0.000008911945    0.060677832779    0.016359993458
            0.051226397972    -0.048616101225    0.000026251428    -0.000008911945    0.045032111911    -0.075398726956    0.000026649447    -0.000008971723
            0.000025519569    -0.000008730716    0.060677832779    0.016359993458    0.000026649447    -0.000008971723    0.051422985238    0.008339451018
0.375     0.027301571689    -0.082618365349    0.000026041307    -0.000012621638    0.038699838598    -0.057365716918    0.000026095796    -0.000012568153
            0.000026041307    -0.000012621638    0.045980700398    0.010754155669    0.000026859626    -0.000012829071    0.057949482419    0.014783543709
            0.038699838598    -0.057365716918    0.000026859626    -0.000012829071    0.027983777150    -0.082683997743    0.000027274916    -0.000012949024
            0.000026095796    -0.000012568153    0.057949482419    0.014783543709    0.000027274916    -0.000012949024    0.046455139667    0.010343953341
0.400     0.007896938708    -0.085931854675    0.000026063018    -0.000016808127    0.023658180998    -0.063247942362    0.000026127723    -0.000016765153
            0.000026063018    -0.000016808127    0.041384971844    0.015017456542    0.000026918163    -0.000017117211    0.054726111625    0.014896496895
            0.023658180998    -0.063247942362    0.000026918163    -0.000017117211    0.008736559501    -0.086203329383    0.000027341226    -0.000017302632
            0.000026127723    -0.000016765153    0.054726111625    0.014896496895    0.000027341226    -0.000017302632    0.041735613247    0.014501685225
0.425     -0.012775766907    -0.084875016899    0.000025425162    -0.000021295835    0.006797128431    -0.065637871240    0.000025498049    -0.000021265302
            0.000025425162    -0.000021295835    0.037740683871    0.021365193103    0.000026306522    -0.000021720849    0.051580757342    0.016836779417
            0.006797128431    -0.065637871240    0.000026306522    -0.000021720849    -0.011815045432    -0.085407262759    0.000026726787    -0.000021975566
            0.000025498049    -0.000021265302    0.051580757342    0.016836779417    0.000026726787    -0.000021975566    0.037930598039    0.020773748089
0.450     -0.033674700032    -0.079134206884    0.000024006868    -0.000025987874    -0.011036373969    -0.064093730634    0.000024085560    -0.000025971203
            0.000024006868    -0.000025987874    0.035699772135    0.029558396159    0.000024899838    -0.000026542963    0.049124833616    0.020572123370
            -0.011036373969    -0.064093730634    0.000024899838    -0.000026542963    -0.032644895396    -0.079974482333    0.000025305960    -0.000026869099
            0.000024085560    -0.000025971203    0.049124833616    0.020572123370    0.000025305960    -0.000026869099    0.035698845257    0.028933109131
0.475     -0.053684188610    -0.068653876213    0.000021699087    -0.000030741872    -0.028887971638    -0.058385269253    0.000021781107    -0.000030740141
            0.000021699087    -0.000030741872    0.035842552291    0.039166073776    0.000022584639    -0.000031439868    0.047948873146    0.025881070997
            -0.028887971638    -0.058385269253    0.000022584639    -0.000031439868    -0.052651160321    -0.069837424924    0.000022964704    -0.000031837655
            0.000021781107    -0.000030740141    0.047948873146    0.025881070997    0.000022964704    -0.000031837655    0.035630848678    0.038558524646
0.500     -0.071688263765    -0.053661429606    0.000018423511    -0.000035370087    -0.045761602340    -0.048531682241    0.000018506092    -0.000035383918
            0.000018423511    -0.000035370087    0.038627069558    0.049593617104    0.000019277901    -0.000036220726    0.048572444756    0.032370492079
            -0.045761602340    -0.048531682241    0.000019277901    -0.000036220726    -0.070728266477    -0.055207448583    0.000019619655    -0.000036688529
            0.000018506092    -0.000035383918    0.048572444756    0.032370492079    0.000019619655    -0.000036688529    0.038198535206    0.049062287273
0.525     -0.086640330501    -0.034658992324    0.000014150880    -0.000039649208    -0.060677460484    -0.034799394699    0.000014231179    -0.000039678910
            0.000014150880    -0.000039649208    0.044334654868    0.060114570063    0.000014946531    -0.000040657959    0.051383784609    0.039493614241
            -0.060677460484    -0.034799394699    0.000014946531    -0.000040657959    -0.085836343971    -0.036567885147    0.000015237701    -0.000041192243
            0.000014231179    -0.000039678910    0.051383784609    0.039493614241    0.000015237701    -0.000041192243    0.043698963957    0.059721852459
0.550     -0.097643689474    -0.012401913909    0.000008915593    -0.000043336526    -0.072752530888    -0.017698407948    0.000008990520    -0.000043381961
            0.000008915593    -0.000043336526    0.053041308965    0.069932418635    0.000009621918    -0.000044502943    0.056606118607    0.046602321337
            -0.072752530888    -0.017698407948    0.000009621918    -0.000044502943    -0.097079337894    -0.014653413082    0.000009850394    -0.000045097868
            0.000008990520    -0.000043381961    0.056606118607    0.046602321337    0.000009850394    -0.000045097868    0.052224920467    0.069739002007
0.575     -0.104007952804    0.012149505644    0.000002823485    -0.000046193666    -0.081249550510    0.002056686303    0.000002889786    -0.000046254074
            0.000002823485    -0.000046193666    0.064594162534    0.078238890514    0.000003408583    -0.000047510362    0.064262223724    0.052995555590
            -0.081249550510    0.002056686303    0.000003408583    -0.000047510362    -0.103762817157    0.009595976387    0.000003562898    -0.000048158213
            0.000002889786    -0.000046254074    0.064262223724    0.052995555590    0.000003562898    -0.000048158213    0.063640420448    0.078300235302
0.600     -0.105304404458    0.037894811991    -0.000003951084    -0.000048010196    -0.085641185254    0.023594883792    -0.000003896479    -0.000048084203
            -0.000003951084    -0.000048010196    0.078625030961    0.084286188764    -0.000003518424    -0.000049462482    0.074179997498    0.057988419259
            -0.085641185254    0.023594883792    -0.000003518424    -0.000049462482    -0.105447901131    0.035098964469    -0.000003448670    -0.000050153109
            -0.000003896479    -0.000048084203    0.074179997498    0.057988419259    -0.000003448670    -0.000050153109    0.077592172639    0.084647083374
0.625     -0.101384678503    0.063666960357    -0.000011176335    -0.000048627901    -0.085625503805    0.045951752083    -0.000011136861    -0.000048713164
            -0.000011176335    -0.000048627901    0.094569208381    0.087443569708    -0.000010924748    -0.000050193759    0.085996284975    0.060962909148
            -0.085625503805    0.045951752083    -0.000010924748    -0.000050193759    -0.101972138455    0.060704861484    -0.000010948828    -0.000050915139
            -0.000011136861    -0.000048713164    0.085996286039    0.060962907647    -0.000010948828    -0.000050915139    0.093528137475    0.088134313122
0.650     -0.092389032420    0.088313745834    -0.000018583427    -0.000047954771    -0.081150233678    0.068138663585    -0.000018561734    -0.000048048270
            -0.000018583427    -0.000047954771    0.111719128938    0.087248714356    -0.000018537073    -0.000049605888    0.099201481346    0.061423622925
            -0.081150233678    0.068138663585    -0.000018537073    -0.000049605888    -0.093457428300    0.085272964760    -0.000018662000    -0.000050344034
            -0.000018561734    -0.000048048270    0.099201481346    0.061423622925    -0.000018662000    -0.000050344034    0.110748479533    0.088282613525
0.675     -0.078719740571    0.110766406025    -0.000025889945    -0.000045975220    -0.072387539152    0.089201664925    -0.000025888073    -0.000046072916
            -0.000025889945    -0.000045975220    0.129269490355    0.083434709176    -0.000026066824    -0.000047678247    0.113170180351    0.059023839297
            -0.072387539152    0.089201664925    -0.000026066824    -0.000047678247    -0.080285911001    0.107741635801    -0.000026297410    -0.000048417419
            -0.000025888073    -0.000046072916    0.113170180351    0.059023839297    -0.000026297410    -0.000048417419    0.128451426109    0.084805828270
0.700     -0.061005472407    0.130104618966    -0.000032823742    -0.000042745706    -0.059719393042    0.108283404607    -0.000032843014    -0.000042843003
            -0.000032823742    -0.000042745706    0.146384520882    0.075943451731    -0.000033234585    -0.000044463822    0.127223588624    0.053588902667
            -0.059719393042    0.108283404607    -0.000033234585    -0.000044463822    -0.063064848865    0.127192383989    -0.000033573135    -0.000045187495
            -0.000032843014    -0.000042843003    0.127223588624    0.053588902667    -0.000033573135    -0.000045187495    0.145800365545    0.077626050736
0.725     -0.040046729989    0.145595462099    -0.000039144318    -0.000038387860    -0.043686644967    0.124652662191    -0.000039184838    -0.000038479646
            -0.000039144318    -0.000038387860    0.162243755505    0.064918064087    -0.000039792490    -0.000040082922    0.140662051548    0.045111352032
            -0.043686644967    0.124652662191    -0.000039792490    -0.000040082922    -0.042574201242    0.142889104346    -0.000040238075    -0.000040773761
            -0.000039184838    -0.000038479646    0.140662051548    0.045111352032    -0.000040238075    -0.000040773761    0.161969690560    0.066866983672
0.750     -0.016758217066    0.156723058062    -0.000044656479    -0.000033070624    -0.024952689677    0.137740434110    -0.000044716884    -0.000033151625
            -0.000044656479    -0.000033070624    0.176098655819    0.050681447785    -0.000045537394    -0.000034705034    0.152819536368    0.033744940438
            -0.024952689677    0.137740434110    -0.000045537394    -0.000034705034    -0.019709721693    0.154308064311    -0.000046086145    -0.000035345766
            -0.000044716884    -0.000033151625    0.152819536368    0.033744940438    -0.000046086145    -0.000035345766    0.176199818712    0.052834808861
0.775     0.007888098907    0.163191920338    -0.000049219934    -0.000026995850    -0.004254860863    0.147139353484    -0.000049297587    -0.000027061211
            -0.000049219934    -0.000026995850    0.187298329899    0.033709940710    -0.000050322310    -0.000028534123    0.163082719257    0.019781249212
            -0.004254860863    0.147139353484    -0.000050322310    -0.000028534123    0.004572985476    0.161142805905    -0.000050967051    -0.000029108182
            -0.000049297587    -0.000027061211    0.163082719257    0.019781249212    -0.000050967051    -0.000029108182    0.187827244039    0.035990078216
