# GHz S RI R 45
0.000     0.015269841948    0.001923274860    0.000000050013    -0.000000037429    0.000714375825    0.001644598786    0.000000078220    -0.000000005082
            0.000000050013    -0.000000037429    0.014557203781    0.001571448948    0.000000100896    0.000000037231    0.000647112094    0.001395664234
            0.000714375699    0.001644598731    0.000000100896    0.000000037231    0.015219020642    0.001910829412    0.000000141283    0.000000085573
            0.000000078220    -0.000000005082    0.000647112592    0.001395664223    0.000000141283    0.000000085573    0.014437317196    0.001561719284
0.025     0.019576552299    0.010732391554    0.000000055093    -0.000000092982    0.002266196765    0.009589479868    0.000000109463    -0.000000026362
            0.000000055093    -0.000000092982    0.018261980968    0.009293157288    0.000000161516    0.000000060340    0.001928297535    0.008361112790
            0.002263608237    0.009592239053    0.000000161516    0.000000060340    0.019501078008    0.010680279123    0.000000241498    0.000000159514
            0.000000109463    -0.000000026362    0.001929805442    0.008361020840    0.000000241498    0.000000159514    0.018189512155    0.009248348750
0.050     0.025817566678    0.017472768836    0.000000024995    -0.000000205670    0.006684190793    0.018167317757    0.000000131458    -0.000000105758
            0.000000024995    -0.000000205670    0.023629600486    0.015161060948    0.000000244028    0.000000034953    0.005664907468    0.015950266268
            0.006684156682    0.018167347356    0.000000244028    0.000000034953    0.025709861846    0.017366409021    0.000000397958    0.000000186547
            0.000000131458    -0.000000105758    0.005664891719    0.015950284596    0.000000397958    0.000000186547    0.023531787042    0.015104139884
0.075     0.033669396179    0.021955303461    -0.000000046419    -0.000000312492    0.013475595430    0.024988448775    0.000000118681    -0.000000200520
            -0.000000046419    -0.000000312492    0.030434070654    0.019200530303    0.000000306569    -0.000000030809    0.011476333702    0.022134446974
            0.013475587900    0.024988449427    0.000000306569    -0.000000030809    0.033518009178    0.021823670455    0.000000546345    0.000000142134
            0.000000118681    -0.000000200520    0.011476326913    0.022134447115    0.000000546345    0.000000142134    0.030302724553    0.019138271144
0.100     0.042811461564    0.023770200519    -0.000000155638    -0.000000401451    0.022036501796    0.029502835692    0.000000072740    -0.000000298984
            -0.000000155638    -0.000000401451    0.038473726886    0.021050878724    0.000000347696    -0.000000126949    0.018900313723    0.026450487829
            0.022036501796    0.029502835692    0.000000347696    -0.000000126949    0.042612198007    0.023633929542    0.000000681743    0.000000037248
            0.000000072740    -0.000000298984    0.018900313723    0.026450487829    0.000000681743    0.000000037248    0.038306593082    0.021000498432
0.125     0.052452228119    0.022587229016    -0.000000298100    -0.000000463455    0.031666780582    0.031305573344    -0.000000007060    -0.000000392678
            -0.000000298100    -0.000000463455    0.047136383424    0.020402814805    0.000000358410    -0.000000247581    0.027400675413    0.028543462790
            0.031666780582    0.031305573344    0.000000358410    -0.000000247581    0.052208591921    0.022467456826    0.000000786938    -0.000000124517
            -0.000000007060    -0.000000392678    0.027400676021    0.028543459434    0.000000786938    -0.000000124517    0.046937404995    0.020382736573
0.150     0.061863422887    0.018264373254    -0.000000467967    -0.000000487818    0.041599325020    0.030194273385    -0.000000121445    -0.000000469896
            -0.000000467967    -0.000000487818    0.055862922847    0.017076461463    0.000000330517    -0.000000381728    0.036383591974    0.028195176493
            0.041599325020    0.030194273385    0.000000330517    -0.000000381728    0.061588887015    0.018184997088    0.000000845682    -0.000000330974
            -0.000000121445    -0.000000469896    0.036383591974    0.028195176493    0.000000845682    -0.000000330974    0.055643915618    0.017105997089
0.175     0.070110086759    0.010906299415    -0.000000656654    -0.000000467133    0.051037720018    0.026150976789    -0.000000266950    -0.000000521408
            -0.000000656654    -0.000000467133    0.063894427585    0.011078946231    0.000000259304    -0.000000518474    0.045216990831    0.025331525585
            0.051037720018    0.026150976789    0.000000259304    -0.000000518474    0.069826403567    0.010884676760    0.000000844624    -0.000000568987
            -0.000000266950    -0.000000521408    0.045216990831    0.025331525585    0.000000844624    -0.000000568987    0.063674413145    0.011173531624
0.200     0.076365514710    0.000875223152    -0.000000853376    -0.000000394612    0.059210848243    0.019361496964    -0.000000438364    -0.000000536708
            -0.000000853376    -0.000000394612    0.070539230158    0.002623607722    0.000000142077    -0.000000644337    0.053274111257    0.020030399773
            0.059210848243    0.019361496964    0.000000142077    -0.000000644337    0.076101505635    0.000921617894    0.000000773861    -0.000000820791
            -0.000000438364    -0.000000536708    0.053274111257    0.020030399773    0.000000773861    -0.000000820791    0.070343170684    0.002793419264
0.225     0.079914947685    -0.011281975386    -0.000001046134    -0.000000266508    0.065409999211    0.010194737883    -0.000000627601    -0.000000507790
            -0.000001046134    -0.000000266508    0.075173335822    -0.007930937678    -0.000000019387    -0.000000745819    0.059958496578    0.012511167235
            0.065409999211    0.010194737883    -0.000000019387    -0.000000745819    0.079703986258    -0.011167188239    0.000000628398    -0.000001066580
            -0.000000627601    -0.000000507790    0.059958496578    0.012511167235    0.000000628398    -0.000001066580    0.075030731498    -0.007683315987
0.250     0.080205217473    -0.024848268114    -0.000001220683    -0.000000081249    0.069037130290    -0.000816290198    -0.000000823645    -0.000000427089
            -0.000001220683    -0.000000081249    0.077278838481    -0.020081181580    -0.000000219887    -0.000000808573    0.064741126419    0.003125765115
            0.069037130290    -0.000816290198    -0.000000219887    -0.000000808573    0.080082587171    -0.024675056105    0.000000408778    -0.000001284733
            -0.000000823645    -0.000000427089    0.064741126419    0.003125765115    0.000000408778    -0.000001284733    0.077221767581    -0.019761676097
0.275     0.076858572369    -0.038984260822    -0.000001363021    0.000000159229    0.069628975142    -0.013001640036    -0.000001014080    -0.000000290747
            -0.000001363021    0.000000159229    0.076455419385    -0.033215047469    -0.000000449958    -0.000000820825    0.067179241119    -0.007658506929
            0.069628975142    -0.013001640036    -0.000000449958    -0.000000820825    0.076858221315    -0.038774258307    0.000000121249    -0.000001454549
            -0.000001014080    -0.000000290747    0.067179241119    -0.007658506929    0.000000121249    -0.000001454549    0.076515959851    -0.032838931529
0.300     0.069716638621    -0.052768077936    -0.000001457948    0.000000449586    0.066894188014    -0.025591064044    -0.000001183941    -0.000000097068
            -0.000001457948    0.000000449586    0.072458453198    -0.046634030519    -0.000000696713    -0.000000771823    0.066947046281    -0.019282253176
            0.066894188014    -0.025591064044    -0.000000696713    -0.000000771823    0.069867570847    -0.052554719118    -0.000000222397    -0.000001556303
            -0.000001183941    -0.000000097068    0.066947046281    -0.019282253176    -0.000000222397    -0.000001556303    0.072665893861    -0.046226764470
0.325     0.058839663143    -0.065244161503    -0.000001492082    0.000000781131    0.060726652130    -0.037747223903    -0.000001318630    0.000000151517
            -0.000001492082    0.000000781131    0.065200082995    -0.059590572423    -0.000000944479    -0.000000655392    0.063845887581    -0.031116832124
            0.060726652130    -0.037747223903    -0.000000944479    -0.000000655392    0.059162780778    -0.065070620583    -0.000000605333    -0.000001573951
            -0.000001318630    0.000000151517    0.063845887581    -0.031116832124    -0.000000605333    -0.000001573951    0.065578519537    -0.059186385409
0.350     0.044527291511    -0.075480869362    -0.000001452468    0.000001141125    0.051226397972    -0.048616101225    -0.000001402120    0.000000449079
            -0.000001452468    0.000001141125    0.054771459288    -0.071325682166    -0.000001174891    -0.000000468114    0.057824727174    -0.042497609578
            0.051226397972    -0.048616101225    -0.000001174891    -0.000000468114    0.045032111911    -0.075398726956    -0.000001006119    -0.000001494952
            -0.000001402120    0.000000449079    0.057824727174    -0.042497609578    -0.000001006119    -0.000001494952    0.055336848146    -0.070966662123
0.375     0.027301571689    -0.082618365349    -0.000001329459    0.000001514121    0.038699838598    -0.057365716918    -0.000001420552    0.000000785669
            -0.000001329459    0.000001514121    0.041431891235    -0.081103207929    -0.000001369089    -0.000000212452    0.048980911637    -0.052749360180
            0.038699838598    -0.057365716918    -0.000001369089    -0.000000212452    0.027983777150    -0.082683997743    -0.000001400163    -0.000001312904
            -0.000001420552    0.000000785669    0.048980911637    -0.052749360180    -0.000001400163    -0.000001312904    0.042190143003    -0.080837905715
0.400     0.007896938708    -0.085931854675    -0.000001115861    0.000001880680    0.023658180998    -0.063247942362    -0.000001360535    0.000001146979
            -0.000001115861    0.000001880680    0.025610616380    -0.088255357270    -0.000001507187    0.000000104876    0.037566128510    -0.061228157544
            0.023658180998    -0.063247942362    -0.000001507187    0.000000104876    0.008736559501    -0.086203329383    -0.000001760283    -0.000001027104
            -0.000001360535    0.000001146979    0.037566128510    -0.061228157544    -0.000001760283    -0.000001027104    0.026555605409    -0.088135172600
0.425     -0.012775766907    -0.084875016899    -0.000000809332    0.000002219993    0.006797128431    -0.065637871240    -0.000001212843    0.000001515453
            -0.000000809332    0.000002219993    0.007885351327    -0.092211638639    -0.000001571857    0.000000471052    0.023976478873    -0.067345833551
            0.006797128431    -0.065637871240    -0.000001571857    0.000000471052    -0.011815045432    -0.085407262759    -0.000002059415    -0.000000644623
            -0.000001212843    0.000001515453    0.023976478873    -0.067345833551    -0.000002059415    -0.000000644623    0.008997894662    -0.092289018962
0.450     -0.033674700032    -0.079134206884    -0.000000412162    0.000002508436    -0.011036373969    -0.064093730634    -0.000000971254    0.000001869349
            -0.000000412162    0.000002508436    -0.011039085794    -0.092541234908    -0.000001547398    0.000000868481    0.008739957038    -0.070614091333
            -0.011036373969    -0.064093730634    -0.000001547398    0.000000868481    -0.032644895396    -0.079974482333    -0.000002271224    -0.000000179381
            -0.000000971254    0.000001869349    0.008739957038    -0.070614091333    -0.000002271224    -0.000000179381    -0.009791486799    -0.092864933669
0.475     -0.053684188610    -0.068653876213    0.000000067397    0.000002723369    -0.028887971638    -0.058385269253    -0.000000635723    0.000002185634
            0.000000067397    0.000002723369    -0.030363219241    -0.088973353000    -0.000001423976    0.000001274996    -0.007505995382    -0.070663566866
            -0.028887971638    -0.058385269253    -0.000001423976    0.000001274996    -0.052651160321    -0.069837424924    -0.000002373832    0.000000347197
            -0.000000635723    0.000002185634    -0.007505995382    -0.070663566866    -0.000002373832    0.000000347197    -0.029026053515    -0.089586341280
0.500     -0.071688263765    -0.053661429606    0.000000614872    0.000002841985    -0.045761602340    -0.048531682241    -0.000000211711    0.000002439050
            0.000000614872    0.000002841985    -0.049233823275    -0.081425921954    -0.000001196313    0.000001664974    -0.024048035877    -0.067280457805
            -0.045761602340    -0.048531682241    -0.000001196313    0.000001664974    -0.070728266477    -0.055207448583    -0.000002350040    0.000000907837
            -0.000000211711    0.000002439050    -0.024048035877    -0.067280457805    -0.000002350040    0.000000907837    -0.047863888172    -0.082360851490
0.525     -0.086640330501    -0.034658992324    0.000001210058    0.000002845787    -0.060677460484    -0.034799394699    0.000000288226    0.000002606428
            0.000001210058    0.000002845787    -0.066785544448    -0.070010272083    -0.000000867296    0.000002011790    -0.040128112672    -0.060412647231
            -0.060677460484    -0.034799394699    -0.000000867296    0.000002011790    -0.085836343971    -0.036567885147    -0.000002191073    0.000001470765
            0.000000288226    0.000002606428    -0.040128112672    -0.060412647231    -0.000002191073    0.000001470765    -0.065448527774    -0.071287504211
0.550     -0.097643689474    -0.012401913909    0.000001826780    0.000002719814    -0.072752530888    -0.017698407948    0.000000844990    0.000002666018
            0.000001826780    0.000002719814    -0.082192534831    -0.055036028740    -0.000000446051    0.000002288579    -0.054992725002    -0.050187051441
            -0.072752530888    -0.017698407948    -0.000000446051    0.000002288579    -0.097079337894    -0.014653413082    -0.000001895768    0.000002001857
            0.000000844990    0.000002666018    -0.054992725002    -0.050187051441    -0.000001895768    0.000002001857    -0.080960180021    -0.056660504559
0.575     -0.104007952804    0.012149505644    0.000002435604    0.000002456641    -0.081249550510    0.002056686303    0.000001433790    0.000002602225
            0.000002435604    0.000002456641    -0.094710162744    -0.036995034588    0.000000050306    0.000002472231    -0.067926593713    -0.036897312170
            -0.081249550510    0.002056686303    0.000000050306    0.000002472231    -0.103762817157    0.009595976387    -0.000001472968    0.000002467717
            0.000001433790    0.000002602225    -0.067926593713    -0.036897312170    -0.000001472968    0.000002467717    -0.093656206136    -0.038955899488
0.600     -0.105304404458    0.037894811991    0.000003003823    0.000002055477    -0.085641185254    0.023594883792    0.000002024941    0.000002404704
            0.000003003823    0.000002055477    -0.103723491299    -0.016538621219    0.000000599229    0.000002543198    -0.078302885985    -0.020994935151
            -0.085641185254    0.023594883792    0.000000599229    0.000002543198    -0.105447901131    0.035098964469    -0.000000939242    0.000002837386
            0.000002024941    0.000002404704    -0.078302885985    -0.020994935151    -0.000000939242    0.000002837386    -0.102919537024    -0.018807805158
0.625     -0.101384678503    0.063666960357    0.000003499910    0.000001524431    -0.085625503805    0.045951752083    0.000002587065    0.000002072048
            0.000003499910    0.000001524431    -0.108775598614    0.005557766998    0.000001173336    0.000002489561    -0.085607432182    -0.003059190839
            -0.085625503805    0.045951752083    0.000001173336    0.000002489561    -0.101972138455    0.060704861484    -0.000000319240    0.000003085902
            0.000002587065    0.000002072048    -0.085607432182    -0.003059190839    -0.000000319240    0.000003085902    -0.108287951577    0.003024832027
0.650     -0.092389032420    0.088313745834    0.000003893310    0.000000879058    -0.081150233678    0.068138663585    0.000003087774    0.000001610007
            0.000003893310    0.000000879058    -0.109598456339    0.028439433519    0.000001742880    0.000002305346    -0.089476531067    0.016234492373
            -0.081150233678    0.068138663585    0.000001742880    0.000002305346    -0.093457428300    0.085272964760    0.000000357549    0.000003194449
            0.000003087774    0.000001610007    -0.089476531067    0.016234492373    0.000000357549    0.000003194449    -0.109482964954    0.025701557210
0.675     -0.078719740571    0.110766406025    0.000004159299    0.000000142128    -0.072387539152    0.089201664925    0.000003498064    0.000001033047
            0.000004159299    0.000000142128    -0.106118372783    0.051216913253    0.000002278048    0.000001993394    -0.089700590183    0.036152805096
            -0.072387539152    0.089201664925    0.000002278048    0.000001993394    -0.080285911001    0.107741635801    0.000001058106    0.000003153145
            0.000003498064    0.000001033047    -0.089700590183    0.036152805096    0.000001058106    0.000003153145    -0.106418255055    0.048345077593
0.700     -0.061005472407    0.130104618966    0.000004277782    -0.000000658154    -0.059719393042    0.108283404607    0.000003791990    0.000000361796
            0.000004277782    -0.000000658154    -0.098459782891    0.073017477832    0.000002750253    0.000001562314    -0.086241372688    0.055948703407
            -0.059719393042    0.108283404607    0.000002750253    0.000001562314    -0.063064848865    0.127192383989    0.000001748738    0.000002959145
            0.000003791990    0.000000361796    -0.086241372688    0.055948703407    0.000001748738    0.000002959145    -0.099202714386    0.070091219374
0.725     -0.040046729989    0.145595462099    0.000004237153    -0.000001490406    -0.043686644967    0.124652662191    0.000003950774    -0.000000377608
            0.000004237153    -0.000001490406    -0.086928394313    0.093025096615    0.000003134986    0.000001027793    -0.079213350987    0.074892970966
            -0.043686644967    0.124652662191    0.000003134986    0.000001027793    -0.042574201242    0.142889104346    0.000002396989    0.000002618247
            0.000003950774    -0.000000377608    -0.079213350987    0.074892970966    0.000002396989    0.000002618247    -0.088124885834    0.090129562825
0.750     -0.016758217066    0.156723058062    0.000004031911    -0.000002321168    -0.024952689677    0.137740434110    0.000003960893    -0.000001155829
            0.000004031911    -0.000002321168    -0.071989982176    0.110523423148    0.000003411211    0.000000409251    -0.068880271296    0.092316728245
            -0.024952689677    0.137740434110    0.000003411211    0.000000409251    -0.019709721693    0.154308064311    0.000002972928    0.000002141720
            0.000003960893    -0.000001155829    -0.068880271296    0.092316728245    0.000002972928    0.000002141720    -0.073632990709    0.107744241477
0.775     0.007888098907    0.163191920338    0.000003664881    -0.000003118225    -0.004254860863    0.147139353484    0.000003817064    -0.000001942366
            0.000003664881    -0.000003118225    -0.054238725277    0.124919951487    0.000003563995    -0.000000270008    -0.055624235554    0.107627939358
            -0.004254860863    0.147139353484    0.000003563995    -0.000000270008    0.004572985476    0.161142805905    0.000003450972    0.000001547074
            0.000003817064    -0.000001942366    -0.055624235554    0.107627939358    0.000003450972    0.000001547074    -0.056303845798    0.122340608519
