# GHz S RI R 45
0.000     0.015269841948    0.001923274860    0.000000438287    0.000000959363    0.000714375825    0.001644598786    0.000000461172    0.000001036642
            0.000000438286    0.000000959362    0.014222080319    0.001917259225    0.000000487242    0.000001045617    0.000649341153    0.001641663885
            0.000714375699    0.001644598731    0.000000487247    0.000001045618    0.015219020642    0.001910829412    0.000000500774    0.000001133570
            0.000000461213    0.000001036642    0.000649341002    0.001641663838    0.000000500763    0.000001133570    0.014181047395    0.001926002364
0.025     0.019576552299    0.010732391554    0.000001031892    0.000002076431    0.002266196765    0.009589479868    0.000001098301    0.000002218444
            0.000001031891    0.000002076425    0.018079133172    0.009751447586    0.000001135204    0.000002311961    0.002016103164    0.008619024468
            0.002263608237    0.009592239053    0.000001135203    0.000002311966    0.019501078008    0.010680279123    0.000001190957    0.000002410398
            0.000001098302    0.000002218442    0.002014881406    0.008618699634    0.000001190960    0.000002410401    0.018009793124    0.009712518731
0.050     0.025817566678    0.017472768836    0.000002359035    0.000003571767    0.006684190793    0.018167317757    0.000002519531    0.000003812539
            0.000002359035    0.000003571767    0.023747570333    0.015927343216    0.000002577012    0.000003988058    0.005939522309    0.016400543038
            0.006684156682    0.018167347356    0.000002577012    0.000003988058    0.025709861846    0.017366409021    0.000002733034    0.000004145706
            0.000002519532    0.000003812539    0.005939517498    0.016400545844    0.000002733034    0.000004145706    0.023674029723    0.015882106480
0.075     0.033669396179    0.021955303461    0.000004180275    0.000004514444    0.013475595430    0.024988448775    0.000004470834    0.000004818736
            0.000004180275    0.000004514444    0.030918436726    0.020181665942    0.000004553290    0.000005067565    0.012022982160    0.022725846161
            0.013475587900    0.024988449427    0.000004553290    0.000005067565    0.033518009178    0.021823670455    0.000004851288    0.000005245437
            0.000004470834    0.000004818737    0.012022949910    0.022725804394    0.000004851288    0.000005245437    0.030847311374    0.020126108193
0.100     0.042811461564    0.023770200519    0.000006343211    0.000004810559    0.022036501796    0.029502835692    0.000006791826    0.000005136627
            0.000006343211    0.000004810559    0.039402936695    0.022168016317    0.000006901441    0.000005450984    0.019800644704    0.027124538785
            0.022036501796    0.029502835692    0.000006901441    0.000005450985    0.042612198007    0.023633929542    0.000007373561    0.000005602394
            0.000006791826    0.000005136627    0.019800644704    0.027124538785    0.000007373561    0.000005602394    0.039342121951    0.022107494558
0.125     0.052452228119    0.022587229016    0.000008659718    0.000004378341    0.031666780582    0.031305573344    0.000009283981    0.000004677424
            0.000008659718    0.000004378341    0.048624962511    0.021537714754    0.000009421168    0.000005049928    0.028729293573    0.029226154037
            0.031666780582    0.031305573344    0.000009421168    0.000005049928    0.052208591921    0.022467456826    0.000010087776    0.000005119927
            0.000009283981    0.000004677424    0.028729294274    0.029226154750    0.000010087776    0.000005119927    0.048586479710    0.021474829043
0.150     0.061863422887    0.018264373254    0.000010923291    0.000003204297    0.041599325020    0.030194273385    0.000011728211    0.000003424693
            0.000010923291    0.000003204297    0.057914022933    0.018148506384    0.000011891249    0.000003848961    0.038208766464    0.028800269558
            0.041599325020    0.030194273385    0.000011891249    0.000003848961    0.061588887015    0.018184997088    0.000012758429    0.000003778844
            0.000011728211    0.000003424693    0.038208766464    0.028800269558    0.000012758429    0.000003778844    0.057911661395    0.018087892550
0.175     0.070110086759    0.010906299415    0.000012934395    0.000001314239    0.051037720018    0.026150976789    0.000013912263    0.000001402969
            0.000012934395    0.000001314239    0.066567383480    0.011989477412    0.000014098378    0.000001873830    0.047595277642    0.025756118852
            0.051037720018    0.026150976789    0.000014098378    0.000001873830    0.069826403567    0.010884676760    0.000015157732    0.000001602968
            0.000013912263    0.000001402969    0.047595277642    0.025756118852    0.000015157732    0.000001602968    0.066619042011    0.011929276797
0.200     0.076365514710    0.000875223152    0.000014507774    -0.000001213828    0.059210848243    0.019361496964    0.000015638593    -0.000001307805
            0.000014507774    -0.000001213828    0.073887962485    0.003238683751    0.000015843772    -0.000000794275    0.056247677911    0.020156429847
            0.059210848243    0.019361496964    0.000015843772    -0.000000794275    0.076101505635    0.000921617894    0.000017072751    -0.000001324711
            0.000015638593    -0.000001307805    0.056247677911    0.020156429847    0.000017072751    -0.000001324711    0.074013003475    0.003171812610
0.225     0.079914947685    -0.011281975386    0.000015480591    -0.000004261916    0.065409999211    0.010194737883    0.000016731836    -0.000004585321
            0.000015480591    -0.000004261916    0.079225611903    -0.007769171121    0.000016951442    -0.000004031591    0.063551213088    0.012206238484
            0.065409999211    0.010194737883    0.000016951442    -0.000004031591    0.079703986258    -0.011167188239    0.000018313031    -0.000004875868
            0.000016731836    -0.000004585321    0.063551213088    0.012206238484    0.000018313031    -0.000004875868    0.079444063516    -0.007855863593
0.250     0.080205217473    -0.024848268114    0.000015725389    -0.000007675619    0.069037130290    -0.000816290198    0.000017053704    -0.000008267994
            0.000015725389    -0.000007675619    0.082032080164    -0.020543076167    0.000017282957    -0.000007674950    0.068956072373    0.002245310987
            0.069037130290    -0.000816290198    0.000017282957    -0.000007674950    0.080082587171    -0.024675056105    0.000018727452    -0.000008879506
            0.000017053704    -0.000008267994    0.068956072373    0.002245310987    0.000018727452    -0.000008879506    0.082362371844    -0.020669237292
0.275     0.076858572369    -0.038984260822    0.000015150991    -0.000011275184    0.069628975142    -0.013001640036    0.000016503503    -0.000012166662
            0.000015150991    -0.000011275184    0.081874855285    -0.034479491075    0.000016737440    -0.000011533765    0.071994146171    -0.009268961670
            0.069628975142    -0.013001640036    0.000016737440    -0.000011533765    0.076858221315    -0.038774258307    0.000018203914    -0.000013134596
            0.000016503503    -0.000012166662    0.071994146171    -0.009268961670    0.000018203914    -0.000013134596    0.082332198297    -0.034670845859
0.300     0.069716638621    -0.052768077936    0.000013711485    -0.000014863614    0.066894188014    -0.025591064044    0.000015027967    -0.000016072982
            0.000013711485    -0.000014863614    0.078476188380    -0.048883780714    0.000015262234    -0.000015398210    0.072312272703    -0.021783943056
            0.066894188014    -0.025591064044    0.000015262234    -0.000015398210    0.069867570847    -0.052554719118    0.000016680978    -0.000017418499
            0.000015027967    -0.000016072982    0.072312272703    -0.021783943056    0.000016680978    -0.000017418499    0.079070434882    -0.049172522297
0.325     0.058839663143    -0.065244161503    0.000011403831    -0.000018234500    0.060726652130    -0.037747223903    0.000012619103    -0.000019767599
            0.000011403831    -0.000018234500    0.071711362334    -0.063008017012    0.000012850027    -0.000019047965    0.069680053306    -0.034673386708
            0.060726652130    -0.037747223903    0.000012850027    -0.000019047965    0.059162780778    -0.065070620583    0.000014144989    -0.000021496108
            0.000012619103    -0.000019767599    0.069680053306    -0.034673386708    0.000014144989    -0.000021496108    0.072445539926    -0.063430994313
0.350     0.044527291511    -0.075480869362    0.000008274043    -0.000021183646    0.051226397972    -0.048616101225    0.000009320683    -0.000023032298
            0.000008274043    -0.000021183646    0.061632266109    -0.076087665842    0.000009545487    -0.000022263799    0.064012439961    -0.047270792647
            0.051226397972    -0.048616101225    0.000009545487    -0.000022263799    0.045032111911    -0.075398726956    0.000010637796    -0.000025132223
            0.000009320683    -0.000023032298    0.064012439961    -0.047270792647    0.000010637796    -0.000025132223    0.062500532753    -0.076684952706
0.375     0.027301571689    -0.082618365349    0.000004413375    -0.000023515392    0.038699838598    -0.057365716918    0.000005224754    -0.000025656937
            0.000004413375    -0.000023515392    0.048455772607    -0.087372995864    0.000005441593    -0.000024834996    0.055369449098    -0.058892031652
            0.038699838598    -0.057365716918    0.000005441593    -0.000024834996    0.027983777150    -0.082683997743    0.000006252618    -0.000028099330
            0.000005224754    -0.000025656937    0.055369449098    -0.058892031652    0.000006252618    -0.000028099330    0.049442331920    -0.088186059378
0.400     0.007896938708    -0.085931854675    -0.000000040171    -0.000025057443    0.023658180998    -0.063247942362    0.000000473283    -0.000027454801
            -0.000000040171    -0.000025057443    0.032567774886    -0.096173679142    0.000000681225    -0.000026574428    0.043964291128    -0.068877801594
            0.023658180998    -0.063247942362    0.000000681225    -0.000026574428    0.008736559501    -0.086203329383    0.000001136526    -0.000030193730
            0.000000473283    -0.000027454801    0.043964291128    -0.068877801594    0.000001136526    -0.000030193730    0.033646207315    -0.097242649174
0.425     -0.012775766907    -0.084875016899    -0.000004908032    -0.000025667442    0.006797128431    -0.065637871240    -0.000004748306    -0.000028269875
            -0.000004908032    -0.000025667442    0.014502978778    -0.101885648497    -0.000004549230    -0.000027325782    0.030153349337    -0.076614666775
            0.006797128431    -0.065637871240    -0.000004549230    -0.000027325782    -0.011815045432    -0.085407262759    -0.000004516552    -0.000031243103
            -0.000004748306    -0.000028269875    0.030153349337    -0.076614666775    -0.000004516552    -0.000031243103    0.015636178258    -0.103246773920
0.450     -0.033674700032    -0.079134206884    -0.000009977588    -0.000025248341    -0.011036373969    -0.064093730634    -0.000010217056    -0.000027992940
            -0.000009977588    -0.000025248341    -0.005072752827    -0.104033197418    -0.000010026007    -0.000026979886    0.014426949687    -0.081579603507
            -0.011036373969    -0.064093730634    -0.000010026007    -0.000026979886    -0.032644895396    -0.079974482333    -0.000010471751    -0.000031123995
            -0.000010217056    -0.000027992940    0.014426949687    -0.081579603507    -0.000010471751    -0.000031123995    -0.003932474784    -0.105715543922
0.475     -0.053684188610    -0.068653876213    -0.000015012525    -0.000023752972    -0.028887971638    -0.058385269253    -0.000015684042    -0.000026566915
            -0.000015012525    -0.000023752972    -0.025392975442    -0.102287803892    -0.000015499367    -0.000025479225    -0.002611440139    -0.083356456665
            -0.028887971638    -0.058385269253    -0.000015499367    -0.000025479225    -0.052651160321    -0.069837424924    -0.000016465172    -0.000029767026
            -0.000015684042    -0.000026566915    -0.002611440139    -0.083356456665    -0.000016465172    -0.000029767026    -0.024301523626    -0.104311223225
0.500     -0.071688263765    -0.053661429606    -0.000019768088    -0.000021194986    -0.045761602340    -0.048531682241    -0.000020889510    -0.000023998367
            -0.000019768088    -0.000021194986    -0.045626303538    -0.096498953482    -0.000020708820    -0.000022830629    -0.020274376590    -0.081674342786
            -0.045761602340    -0.048531682241    -0.000020708820    -0.000022830629    -0.070728266477    -0.055207448583    -0.000022219441    -0.000027170345
            -0.000020889510    -0.000023998367    -0.020274376590    -0.081674342786    -0.000022219441    -0.000027170345    -0.044646455175    -0.098870999115
0.525     -0.086640330501    -0.034658992324    -0.000024005158    -0.000017646517    -0.060677460484    -0.034799394699    -0.000025577990    -0.000020355946
            -0.000024005158    -0.000017646517    -0.064914684792    -0.086699154477    -0.000025398001    -0.000019102450    -0.037818601440    -0.076412753869
            -0.060677460484    -0.034799394699    -0.000025398001    -0.000019102450    -0.085836343971    -0.036567885147    -0.000027459807    -0.000023397098
            -0.000025577990    -0.000020355946    -0.037818601440    -0.076412753869    -0.000027459807    -0.000023397098    -0.064113243691    -0.089413553569
0.550     -0.097643689474    -0.012401913909    -0.000027509888    -0.000013239367    -0.072752530888    -0.017698407948    -0.000029518737    -0.000015771345
            -0.000027509888    -0.000013239367    -0.082422109119    -0.073113974011    -0.000029335146    -0.000014426205    -0.054490287158    -0.067624061853
            -0.072752530888    -0.017698407948    -0.000029335146    -0.000014426205    -0.097079337894    -0.014653413082    -0.000031935021    -0.000018578210
            -0.000029518737    -0.000015771345    -0.054490287158    -0.067624061853    -0.000031935021    -0.000018578210    -0.081865875918    -0.076149054562
0.575     -0.104007952804    0.012149505644    -0.000030105682    -0.000008152806    -0.081249550510    0.002056686303    -0.000032518612    -0.000010427538
            -0.000030105682    -0.000008152806    -0.097372290144    -0.056148714265    -0.000032325722    -0.000008984934    -0.069554846985    -0.055521665194
            -0.081249550510    0.002056686303    -0.000032325722    -0.000008984934    -0.103762817157    0.009595976387    -0.000035431420    -0.000012899785
            -0.000032518612    -0.000010427538    -0.069554846985    -0.055521665194    -0.000035431420    -0.000012899785    -0.097125282676    -0.059467560006
0.600     -0.105304404458    0.037894811991    -0.000031669364    -0.000002602755    -0.085641185254    0.023594883792    -0.000034439185    -0.000004547721
            -0.000031669364    -0.000002602755    -0.109097201295    -0.036373014315    -0.000034229807    -0.000003002095    -0.082347555198    -0.040479949971
            -0.085641185254    0.023594883792    -0.000034229807    -0.000003002095    -0.105447901131    0.035098964469    -0.000037791071    -0.000006592750
            -0.000034439185    -0.000004547721    -0.082347555198    -0.040479949971    -0.000037791071    -0.000006592750    -0.109215881134    -0.039923962197
0.625     -0.101384678503    0.063666960357    -0.000032133359    0.000003176186    -0.085625503805    0.045951752083    -0.000035199667    0.000001623236
            -0.000032133359    0.000003176186    -0.117065336881    -0.014490221701    -0.000034964905    0.000003276793    -0.092294674665    -0.023006514024
            -0.085625503805    0.045951752083    -0.000034964905    0.000003276793    -0.101972138455    0.060704861484    -0.000038915304    0.000000086720
            -0.000035199667    0.000001623236    -0.092294674665    -0.023006514024    -0.000038915304    0.000000086720    -0.117595881469    -0.018208040795
0.650     -0.092389032420    0.088313745834    -0.000031491804    0.000008947137    -0.081150233678    0.068138663585    -0.000034783541    0.000007836079
            -0.000031491804    0.000008947137    -0.120914887504    0.008699551069    -0.000034512719    0.000009600992    -0.098955995266    -0.003719159532
            -0.081150233678    0.068138663585    -0.000034512719    0.000009600992    -0.093457428300    0.085272964760    -0.000038772822    0.000006874219
            -0.000034783541    0.000007836079    -0.098955995266    -0.003719159532    -0.000038772822    0.000006874219    -0.121889368971    0.004890277084
0.675     -0.078719740571    0.110766406025    -0.000029790951    0.000014487349    -0.072387539152    0.089201664925    -0.000033229553    0.000013853969
            -0.000029790951    0.000014487349    -0.120463937048    0.032340192348    -0.000032910336    0.000015732037    -0.102029212230    0.016689438671
            -0.072387539152    0.089201664925    -0.000032910336    0.000015732037    -0.080285911001    0.107741635801    -0.000037390415    0.000013515592
            -0.000033229553    0.000013853969    -0.102029212230    0.016689438671    -0.000037390415    0.000013515592    -0.121898435002    0.028522411878
0.700     -0.061005472407    0.130104618966    -0.000027124769    0.000019601925    -0.059719393042    0.108283404607    -0.000030627162    0.000019467398
            -0.000027124769    0.000019601925    -0.115721184290    0.055566458299    -0.000030246229    0.000021457755    -0.101375254216    0.037490411857
            -0.059719393042    0.108283404607    -0.000030246229    0.000021457755    -0.063064848865    0.127192383989    -0.000034850026    0.000019781748
            -0.000030627162    0.000019467398    -0.101375254216    0.037490411857    -0.000034850026    0.000019781748    -0.117614073275    0.051826522161
0.725     -0.040046729989    0.145595462099    -0.000023618829    0.000024130715    -0.043686644967    0.124652662191    -0.000027099913    0.000024501380
            -0.000023618829    0.000024130715    -0.106874554940    0.077543083726    -0.000026643456    0.000026600291    -0.097002514487    0.057950049150
            -0.043686644967    0.124652662191    -0.000026643456    0.000026600291    -0.042574201242    0.142889104346    -0.000031271102    0.000025477426
            -0.000027099913    0.000024501380    -0.097002514487    0.057950049150    -0.000031271102    0.000025477426    -0.109205735349    0.073966920689
0.750     -0.016758217066    0.156723058062    -0.000019420720    0.000027954444    -0.024952689677    0.137740434110    -0.000022796662    0.000028822480
            -0.000019420720    0.000027954444    -0.094278511056    0.097507655262    -0.000022251099    0.000031022979    -0.089074244630    0.077370759652
            -0.024952689677    0.137740434110    -0.000022251099    0.000031022979    -0.019709721693    0.154308064311    -0.000026802719    0.000030448930
            -0.000022796662    0.000028822480    -0.089074244630    0.077370759652    -0.000026802719    0.000030448930    -0.097010213030    0.094176299232
0.775     0.007888098907    0.163191920338    -0.000014685184    0.000030991241    -0.004254860863    0.147139353484    -0.000017875140    0.000032335661
            -0.000014685184    0.000030991241    -0.078427338434    0.114797207919    -0.000017228054    0.000034627609    -0.077876834085    0.095110010729
            -0.004254860863    0.147139353484    -0.000017228054    0.000034627609    0.004572985476    0.161142805905    -0.000021605895    0.000034581427
