# GHz S RI R 45
0.000     0.015269841948    0.001923274860    -0.000000011281    0.000000506446    0.000714375825    0.001644598786    -0.000000221692    0.000000113288
            -0.000000011279    0.000000506446    0.015833934589    0.001310997209    0.000000143939    0.000000797864    0.000756366090    0.001235892704
            0.000714375699    0.001644598731    0.000000143921    0.000000797864    0.015219020642    0.001910829412    -0.000000011144    0.000000516329
            -0.000000221692    0.000000113288    0.000756366090    0.001235892704    -0.000000011144    0.000000516329    0.015860805318    0.001322825771
0.025     0.019576552299    0.010732391554    0.000000170294    0.000001144227    0.002266196765    0.009589479868    -0.000000268538    0.000000287239
            0.000000170295    0.000001144229    0.019317953678    0.009928138877    0.000000497585    0.000001782414    0.001788126415    0.009197335446
            0.002263608237    0.009592239053    0.000000497583    0.000001782403    0.019501078008    0.010680279123    0.000000177137    0.000001169520
            -0.000000268539    0.000000287239    0.001788139854    0.009195622593    0.000000177136    0.000001169519    0.019245339538    0.009895773266
0.050     0.025817566678    0.017472768836    0.000000658046    0.000002135333    0.006684190793    0.018167317757    -0.000000221479    0.000000684399
            0.000000658046    0.000002135333    0.023643910132    0.016584589855    0.000001322173    0.000003218761    0.004883741097    0.017809801328
            0.006684156682    0.018167347356    0.000001322173    0.000003218761    0.025709861846    0.017366409021    0.000000681760    0.000002179022
            -0.000000221479    0.000000684399    0.004883796733    0.017809765333    0.000000681760    0.000002179022    0.023526100909    0.016557683360
0.075     0.033669396179    0.021955303461    0.000001389006    0.000002984405    0.013475595430    0.024988448775    -0.000000034910    0.000001073577
            0.000001389006    0.000002984406    0.028764436566    0.021857118929    0.000002467796    0.000004397483    0.009710669668    0.025306804140
            0.013475587900    0.024988449427    0.000002467796    0.000004397483    0.033518009178    0.021823670455    0.000001431124    0.000003032705
            -0.000000034910    0.000001073577    0.009710676676    0.025306807877    0.000001431124    0.000003032705    0.028587537580    0.021844054182
0.100     0.042811461564    0.023770200519    0.000002332970    0.000003648784    0.022036501796    0.029502835692    0.000000261649    0.000001410600
            0.000002332970    0.000003648784    0.034595139215    0.025577388444    0.000003894657    0.000005280863    0.015865564232    0.031344796327
            0.022036501796    0.029502835692    0.000003894657    0.000005280863    0.042612198007    0.023633929542    0.000002386550    0.000003689205
            0.000000261649    0.000001410600    0.015865563685    0.031344796604    0.000002386550    0.000003689205    0.034347212393    0.025607333440
0.125     0.052452228119    0.022587229016    0.000003449112    0.000004093719    0.031666780582    0.031305573344    0.000000641656    0.000001678635
            0.000003449112    0.000004093719    0.040727022095    0.027613799107    0.000005539887    0.000005824341    0.022903128843    0.035687239530
            0.031666780582    0.031305573344    0.000005539887    0.000005824341    0.052208591921    0.022467456826    0.000003499599    0.000004118701
            0.000000641656    0.000001678635    0.022903128220    0.035687239930    0.000003499599    0.000004118701    0.040405194120    0.027711978147
0.150     0.061863422887    0.018264373254    0.000004691019    0.000004292013    0.041599325020    0.030194273385    0.000001088122    0.000001861618
            0.000004691019    0.000004292013    0.046655231871    0.027953357970    0.000007332601    0.000006005478    0.030346226943    0.038226369619
            0.041599325020    0.030194273385    0.000007332601    0.000006005478    0.061588887015    0.018184997088    0.000004718619    0.000004303717
            0.000001088122    0.000001861618    0.030346226943    0.038226369619    0.000004718619    0.000004303717    0.046273880791    0.028166100312
0.175     0.070110086759    0.010906299415    0.000006012558    0.000004227215    0.051037720018    0.026150976789    0.000001580190    0.000001954602
            0.000006012558    0.000004227215    0.051932172007    0.026774610357    0.000009206306    0.000005810087    0.037712968470    0.038976636459
            0.051037720018    0.026150976789    0.000009206306    0.000005810087    0.069826403567    0.010884676760    0.000005997259    0.000004239076
            0.000001580190    0.000001954602    0.037712968470    0.038976636459    0.000005997259    0.000004239076    0.051519192368    0.027131982390
0.200     0.076365514710    0.000875223152    0.000007367244    0.000003889530    0.059210848243    0.019361496964    0.000002101924    0.000001953357
            0.000007367244    0.000003889530    0.056161469997    0.024365260124    0.000011096794    0.000005236453    0.044549904353    0.038081139821
            0.059210848243    0.019361496964    0.000011096794    0.000005236453    0.076101505635    0.000921617894    0.000007294089    0.000003926815
            0.000002101924    0.000001953357    0.044549904353    0.038081139821    0.000007294089    0.000003926815    0.055752310741    0.024887864829
0.225     0.079914947685    -0.011281975386    0.000008709886    0.000003276016    0.065409999211    0.010194737883    0.000002638930    0.000001858874
            0.000008709886    0.000003276016    0.059041177313    0.021100488738    0.000012946013    0.000004290232    0.050461532735    0.035790345215
            0.065409999211    0.010194737883    0.000012946013    0.000004290232    0.079703986258    -0.011167188239    0.000008574394    0.000003374073
            0.000002638930    0.000001858874    0.050461532735    0.035790345215    0.000008574394    0.000003374073    0.058678063824    0.021798614555
0.250     0.080205217473    -0.024848268114    0.000009995880    0.000002389024    0.069037130290    -0.000816290198    0.000003179621    0.000001670551
            0.000009995880    0.000002389024    0.060380217274    0.017437874721    0.000014701057    0.000002982878    0.055137378281    0.032452073033
            0.069037130290    -0.000816290198    0.000014701057    0.000002982878    0.080082587171    -0.024675056105    0.000009808907    0.000002589270
            0.000003179621    0.000001670551    0.055137378281    0.032452073033    0.000009808907    0.000002589270    0.060109278752    0.018310192272
0.275     0.076858572369    -0.038984260822    0.000011183059    0.000001235774    0.069628975142    -0.013001640036    0.000003715133    0.000001389494
            0.000011183059    0.000001235774    0.060122396311    0.013866230974    0.000016313843    0.000001327180    0.058370029176    0.028479024581
            0.069628975142    -0.013001640036    0.000016313843    0.000001327180    0.076858221315    -0.038774258307    0.000010974034    0.000001579654
            0.000003715133    0.000001389494    0.058370029176    0.028479024581    0.000010974034    0.000001579654    0.059990406698    0.014898230657
0.300     0.069716638621    -0.052768077936    0.000012229177    -0.000000172523    0.066894188014    -0.025591064044    0.000004236643    0.000001013209
            0.000012229177    -0.000000172523    0.058348302465    0.010886269126    0.000017738197    -0.000000662569    0.060072277391    0.024328893444
            0.066894188014    -0.025591064044    0.000017738197    -0.000000662569    0.069867570847    -0.052554719118    0.000012047058    0.000000348969
            0.000004236643    0.000001013209    0.060072277391    0.024328893444    0.000012047058    0.000000348969    0.058398818813    0.012049956261
0.325     0.058839663143    -0.065244161503    0.000013093888    -0.000001820760    0.060726652130    -0.037747223903    0.000004736101    0.000000538511
            0.000013093888    -0.000001820760    0.055276223572    0.008959626398    0.000018927616    -0.000002972380    0.060282086911    0.020466166340
            0.060726652130    -0.037747223903    0.000018927616    -0.000002972380    0.059162780778    -0.065070620583    0.000013005091    -0.000001102969
            0.000004736101    0.000000538511    0.060282086911    0.020466166340    0.000013005091    -0.000001102969    0.055545582586    0.010214717904
0.350     0.044527291511    -0.075480869362    0.000013735142    -0.000003689057    0.051226397972    -0.048616101225    0.000005201403    -0.000000041146
            0.000013735142    -0.000003689057    0.051250753422    0.008487440163    0.000019831199    -0.000005585625    0.059168359017    0.017336879206
            0.051226397972    -0.048616101225    0.000019831199    -0.000005585625    0.045032111911    -0.075398726956    0.000013818779    -0.000002779161
            0.000005201403    -0.000000041146    0.059168359017    0.017336879206    0.000013818779    -0.000002779161    0.051764612254    0.009783328785
0.375     0.027301571689    -0.082618365349    0.000014111989    -0.000005752240    0.038699838598    -0.057365716918    0.000005618067    -0.000000732397
            0.000014111989    -0.000005752240    0.046724432646    0.009766161077    0.000020393851    -0.000008481398    0.057019120528    0.015326663275
            0.038699838598    -0.057365716918    0.000020393851    -0.000008481398    0.027983777150    -0.082683997743    0.000014452104    -0.000004682966
            0.000005618067    -0.000000732397    0.057019120528    0.015326663275    0.000014452104    -0.000004682966    0.047494614755    0.011044869489
0.400     0.007896938708    -0.085931854675    0.000014182453    -0.000007977469    0.023658180998    -0.063247942362    0.000005964004    -0.000001541489
            0.000014182453    -0.000007977469    0.042232460225    0.012969411769    0.000020553393    -0.000011629060    0.054230696434    0.014736197046
            0.023658180998    -0.063247942362    0.000020553393    -0.000011629060    0.008736559501    -0.086203329383    0.000014857151    -0.000006812971
            0.000005964004    -0.000001541489    0.054230696434    0.014736197046    0.000014857151    -0.000006812971    0.043254939664    0.014169810931
0.425     -0.012775766907    -0.084875016899    0.000013907296    -0.000010324002    0.006797128431    -0.065637871240    0.000006213236    -0.000002470939
            0.000013907296    -0.000010324002    0.038355938366    0.018116761666    0.000020244434    -0.000014985272    0.051278106487    0.015743621252
            0.006797128431    -0.065637871240    0.000020244434    -0.000014985272    -0.011815045432    -0.085407262759    0.000014977792    -0.000009159113
            0.000006213236    -0.000002470939    0.051278106487    0.015743621252    0.000014977792    -0.000009159113    0.039610345376    0.019178872949
0.450     -0.033674700032    -0.079134206884    0.000013249465    -0.000012740227    -0.011036373969    -0.064093730634    0.000006331934    -0.000003516606
            0.000013249465    -0.000012740227    0.035684791543    0.025068536116    0.000019399678    -0.000018487862    0.048685541044    0.018390015520
            -0.011036373969    -0.064093730634    0.000019399678    -0.000018487862    -0.032644895396    -0.079974482333    0.000014748294    -0.000011695147
            0.000006331934    -0.000003516606    0.048685541044    0.018390015520    0.000014748294    -0.000011695147    0.037134191183    0.025938532230
0.475     -0.053684188610    -0.068653876213    0.000012179795    -0.000015165318    -0.028887971638    -0.058385269253    0.000006284916    -0.000004665511
            0.000012179795    -0.000015165318    0.034767731825    0.033516387963    0.000017957862    -0.000022055021    0.046980233084    0.022558302112
            -0.028887971638    -0.058385269253    0.000017957862    -0.000022055021    -0.052651160321    -0.069837424924    0.000014101140    -0.000014376044
            0.000006284916    -0.000004665511    0.046980233084    0.022558302112    0.000014101140    -0.000014376044    0.036361143572    0.034150897308
0.500     -0.071688263765    -0.053661429606    0.000010677762    -0.000017526998    -0.045761602340    -0.048531682241    0.000006034020    -0.000005892016
            0.000010677762    -0.000017526998    0.036070061490    0.043001226502    0.000015868918    -0.000025581645    0.046652007593    0.027981801150
            -0.045761602340    -0.048531682241    0.000015868919    -0.000025581644    -0.070728266477    -0.055207448583    0.000012971428    -0.000017132135
            0.000006034020    -0.000005892016    0.046652007593    0.027981801150    0.000012971428    -0.000017132135    0.037745066071    0.043371515873
0.525     -0.086640330501    -0.034658992324    0.000008737487    -0.000019746191    -0.060677460484    -0.034799394699    0.000005546861    -0.000007159028
            0.000008737487    -0.000019746191    0.039924828207    0.052932460858    0.000013103924    -0.000028944272    0.048102274116    0.034250382823
            -0.060677460484    -0.034799394699    0.000013103924    -0.000028944272    -0.085836343971    -0.036567885147    0.000011307732    -0.000019871799
            0.000005546861    -0.000007159028    0.048102274116    0.034250382823    0.000011307732    -0.000019871799    0.041612379549    0.053027740162
0.550     -0.097643689474    -0.012401913909    0.000006368732    -0.000021736755    -0.072752530888    -0.017698407948    0.000004797262    -0.000008415270
            0.000006368732    -0.000021736755    0.046503340542    0.062633599181    0.000009661264    -0.000032002538    0.051611367061    0.040847672453
            -0.072752530888    -0.017698407948    0.000009661264    -0.000032002538    -0.097079337894    -0.014653413082    0.000009078582    -0.000022480283
            0.000004797262    -0.000008415270    0.051611367061    0.040847672453    0.000009078582    -0.000022480283    0.048132697104    0.062462097506
0.575     -0.104007952804    0.012149505644    0.000003601289    -0.000023413678    -0.081249550510    0.002056686303    0.000003773993    -0.000009601809
            0.000003601289    -0.000023413678    0.055786665884    0.071385795248    0.000005573935    -0.000034611317    0.057301847670    0.047183238702
            -0.081249550510    0.002056686303    0.000005573935    -0.000034611317    -0.103762817157    0.009595976387    0.000006282698    -0.000024830850
            0.000003773993    -0.000009601809    0.057301847670    0.047183238702    0.000006282698    -0.000024830850    0.057290947758    0.070975231699
0.600     -0.105304404458    0.037894811991    0.000000484433    -0.000024693777    -0.085641185254    0.023594883792    0.000002480798    -0.000010651207
            0.000000484433    -0.000024693777    0.067566340777    0.078487604866    0.000000911537    -0.000036626441    0.065133022669    0.052649768140
            -0.085641185254    0.023594883792    0.000000911537    -0.000036626441    -0.105447901131    0.035098964469    0.000002952743    -0.000026788824
            0.000002480798    -0.000010651207    0.065133022669    0.052649768140    0.000002952743    -0.000026788824    0.068888069330    0.077883287033
0.625     -0.101384678503    0.063666960357    -0.000002913064    -0.000025506698    -0.085625503805    0.045951752083    0.000000941586    -0.000011499097
            -0.000002913064    -0.000025506698    0.081448193785    0.083304833582    -0.000004219751    -0.000037920980    0.074892998973    0.056662457712
            -0.085625503805    0.045951752083    -0.000004219751    -0.000037920980    -0.101972138455    0.060704861484    -0.000000842141    -0.000028228438
            0.000000941586    -0.000011499097    0.074892998973    0.056662457712    -0.000000842141    -0.000028228438    0.082544337148    0.082566650386
0.650     -0.092389032420    0.088313745834    -0.000006506091    -0.000025794855    -0.081150233678    0.068138663585    -0.000000802095    -0.000012084246
            -0.000006506091    -0.000025794855    0.096888734341    0.085321298534    -0.000009681984    -0.000038391057    0.086226487698    0.058714338599
            -0.081150233678    0.068138663585    -0.000009681984    -0.000038391057    -0.093457428300    0.085272964760    -0.000004998448    -0.000029038717
            -0.000000802095    -0.000012084246    0.086226487698    0.058714338599    -0.000004998448    -0.000029038717    0.097733140893    0.084519587312
0.675     -0.078719740571    0.110766406025    -0.000010198206    -0.000025523594    -0.072387539152    0.089201664925    -0.000002692385    -0.000012360830
            -0.000010198206    -0.000025523594    0.113224287710    0.084171676224    -0.000015314430    -0.000037969401    0.098652316337    0.058403074122
            -0.072387539152    0.089201664925    -0.000015314430    -0.000037969401    -0.080285911001    0.107741635801    -0.000009385809    -0.000029139006
            -0.000002692385    -0.000012360830    0.098652316337    0.058403074122    -0.000009385809    -0.000029139006    0.113811342332    0.083381281444
0.700     -0.061005472407    0.130104618966    -0.000013886606    -0.000024677515    -0.059719393042    0.108283404607    -0.000004660019    -0.000012296640
            -0.000013886606    -0.000024677515    0.129728377078    0.079664083156    -0.000020942828    -0.000036625654    0.111612236022    0.055463237659
            -0.059719393042    0.108283404607    -0.000020942828    -0.000036625654    -0.063064848865    0.127192383989    -0.000013854700    -0.000028480818
            -0.000004660019    -0.000012296640    0.111612236022    0.055463237659    -0.000013854700    -0.000028480818    0.130071936792    0.078960112753
0.725     -0.040046729989    0.145595462099    -0.000017470607    -0.000023267024    -0.043686644967    0.124652662191    -0.000006631072    -0.000011881852
            -0.000017470607    -0.000023267024    0.145648825186    0.071786246477    -0.000026393162    -0.000034372917    0.124497703991    0.049769965232
            -0.043686644967    0.124652662191    -0.000026393162    -0.000034372917    -0.042574201242    0.142889104346    -0.000018250220    -0.000027056494
            -0.000006631072    -0.000011881852    0.124497703991    0.049769965232    -0.000018250220    -0.000027056494    0.145783116581    0.071237234151
0.750     -0.016758217066    0.156723058062    -0.000020854639    -0.000021320741    -0.024952689677    0.137740434110    -0.000008531262    -0.000011123044
            -0.000020854639    -0.000021320741    0.160262225870    0.060696592176    -0.000031499791    -0.000031260341    0.136699839095    0.041345352452
            -0.024952689677    0.137740434110    -0.000031499791    -0.000031260341    -0.019709721693    0.154308064311    -0.000022419620    -0.000024893350
            -0.000008531262    -0.000011123044    0.136699839095    0.041345352452    -0.000022419620    -0.000024893350    0.160238150908    0.060361377040
0.775     0.007888098907    0.163191920338    -0.000023957185    -0.000018887176    -0.004254860863    0.147139353484    -0.000010294284    -0.000010047332
            -0.000023957185    -0.000018887176    0.172902781773    0.046709701947    -0.000036118573    -0.000027372233    0.147629590873    0.030343369896
            -0.004254860863    0.147139353484    -0.000036118573    -0.000027372233    0.004572985476    0.161142805905    -0.000026226594    -0.000022055029
            -0.000010294284    -0.000010047332    0.147629590873    0.030343369896    -0.000026226594    -0.000022055029    0.172785442754    0.046632834535
