# GHz S RI R 45
0.000     0.015269841948    0.001923274860    0.984424195204    -0.008442929831    0.000714375825    0.001644598786    -0.000702281862    -0.000577945276
            0.984424195204    -0.008442929831    0.015328041668    0.001817166579    -0.000702101901    -0.000577905088    0.000713062462    0.001660306217
            0.000714375699    0.001644598731    -0.000702102009    -0.000577905176    0.015219020642    0.001910829412    0.984465555846    -0.008446529824
            -0.000702282048    -0.000577945223    0.000713062249    0.001660306199    0.984465555846    -0.008446529824    0.015287566449    0.001805011532
0.025     0.019576552299    0.010732391554    0.973714280637    -0.126590580930    0.002266196765    0.009589479868    -0.001136570671    -0.002173344971
            0.973714253045    -0.126590715597    0.018920722773    0.010696620583    -0.001133559608    -0.002172586715    0.001810145933    0.009738719554
            0.002263608237    0.009592239053    -0.001133238394    -0.002173469308    0.019501078008    0.010680279123    0.973821249340    -0.126244009065
            -0.001137905112    -0.002172655396    0.001802241117    0.009736534348    0.973821288121    -0.126243787698    0.018853685277    0.010618341151
0.050     0.025817566678    0.017472768836    0.947773367581    -0.247730436268    0.006684190793    0.018167317757    -0.002329825267    -0.003984131447
            0.947773367581    -0.247730436268    0.023413117583    0.017940577050    -0.002328080001    -0.003984184683    0.004923670164    0.018829158030
            0.006684156682    0.018167347356    -0.002328052929    -0.003984214979    0.025709861846    0.017366409021    0.948015974782    -0.247070329034
            -0.002329828678    -0.003984148451    0.004923730395    0.018829091632    0.948015974782    -0.247070329034    0.023301333747    0.017834026775
0.075     0.033669396179    0.021955303461    0.907349509763    -0.364052203630    0.013475595430    0.024988448775    -0.004046271400    -0.005271189790
            0.907349509763    -0.364052203630    0.028638908159    0.023784581606    -0.004042629857    -0.005271629019    0.009752423441    0.026854042414
            0.013475587900    0.024988449427    -0.004042628010    -0.005271632326    0.033518009178    0.021823670455    0.907804637675    -0.363113299808
            -0.004046266509    -0.005271189132    0.009752421078    0.026854094339    0.907804637675    -0.363113299808    0.028475819993    0.023651343276
0.100     0.042811461564    0.023770200519    0.852915284806    -0.473883181297    0.022036501796    0.029502835692    -0.006079518245    -0.005968717857
            0.852915284806    -0.473883181297    0.034553357649    0.028140028509    -0.006073086861    -0.005970458663    0.015920740391    0.033507402156
            0.022036501796    0.029502835692    -0.006073084135    -0.005970460152    0.042612198007    0.023633929542    0.853653302341    -0.472714652114
            -0.006079515976    -0.005968721881    0.015920740391    0.033507402156    0.853653302341    -0.472714652114    0.034329992854    0.028000733735
0.125     0.052452228119    0.022587229016    0.785482662657    -0.575579838158    0.031666780582    0.031305573344    -0.008242461558    -0.006057283908
            0.785482662657    -0.575579838158    0.040800746703    0.030933743059    -0.008232663641    -0.006061571542    0.023027756629    0.038569689028
            0.031666780582    0.031305573344    -0.008232664446    -0.006061572135    0.052208591921    0.022467456826    0.786564165433    -0.574243333676
            -0.008242461558    -0.006057283908    0.023027756629    0.038569689028    0.786564165433    -0.574243333676    0.040514232587    0.030809702515
0.150     0.061863422887    0.018264373254    0.706209794996    -0.667662089250    0.041599325020    0.030194273385    -0.010368189804    -0.005581836051
            0.706209794996    -0.667662089250    0.046927445160    0.032130222530    -0.010354299897    -0.005590029766    0.030645826191    0.041943057176
            0.041599325020    0.030194273385    -0.010354299897    -0.005590029766    0.061588887015    0.018184997088    0.707681641663    -0.666230600731
            -0.010368189804    -0.005581836051    0.030645826191    0.041943057176    0.707681641663    -0.666230600731    0.046586942914    0.032047375264
0.175     0.070110086759    0.010906299415    0.616475600276    -0.748848338543    0.051037720018    0.026150976789    -0.012329057834    -0.004619007405
            0.616475600276    -0.748848338543    0.052547749480    0.031915329249    -0.012310940543    -0.004633298960    0.038345241598    0.043627870259
            0.051037720018    0.026150976789    -0.012310940543    -0.004633298960    0.069826403567    0.010884676760    0.618371313464    -0.747401688753
            -0.012329057834    -0.004619007405    0.038345241598    0.043627870259    0.618371313464    -0.747401688753    0.052170195190    0.031894101030
0.200     0.076365514710    0.000875223152    0.517750325578    -0.818054415912    0.059210848243    0.019361496964    -0.014043384214    -0.003272765277
            0.517750325578    -0.818054415912    0.057320835917    0.030559038425    -0.014021663752    -0.003295811169    0.045721824855    0.043739939080
            0.059210848243    0.019361496964    -0.014021663752    -0.003295811169    0.076101505635    0.000921617894    0.520092070623    -0.816679116586
            -0.014043384214    -0.003272765277    0.045721824855    0.043739939080    0.520092070623    -0.816679116586    0.056929133441    0.030612954023
0.225     0.079914947685    -0.011281975386    0.411588996456    -0.874374310818    0.065409999211    0.010194737883    -0.015477145149    -0.001649557316
            0.411588996456    -0.874374310818    0.060995475138    0.028396249875    -0.015453501514    -0.001683942714    0.052422991556    0.042486527772
            0.065409999211    0.010194737883    -0.015453501514    -0.001683942714    0.079703986258    -0.011167188239    0.414379889094    -0.873158185717
            -0.015477145149    -0.001649557316    0.052422991556    0.042486527772    0.414379889094    -0.873158185717    0.060616820773    0.028530371794
0.250     0.080205217473    -0.024848268114    0.299607270873    -0.917087318184    0.069037130290    -0.000816290198    -0.016641145323    0.000159219780
            0.299607270873    -0.917087318184    0.063421928828    0.025829130961    -0.016618236509    0.000110818350    0.058172347193    0.040159660966
            0.069037130290    -0.000816290198    -0.016618236509    0.000110818350    0.080082587171    -0.024675056105    0.302839879124    -0.916122448883
            -0.016641145323    0.000159219780    0.058172347193    0.040159660966    0.302839879124    -0.916122448883    0.063084855424    0.026039573713
0.275     0.076858572369    -0.038984260822    0.183477736647    -0.945645155539    0.069628975142    -0.013001640036    -0.017575439916    0.002094282120
            0.183477736647    -0.945645155539    0.064571070385    0.023275859617    -0.017557094897    0.002030083705    0.062782838579    0.037103786203
            0.069628975142    -0.013001640036    -0.017557094897    0.002030083705    0.076858221315    -0.038774258307    0.187130830904    -0.945022103555
            -0.017575439916    0.002094282120    0.062782838579    0.037103786203    0.187130830904    -0.945022103555    0.064303121480    0.023549334789
0.300     0.069716638621    -0.052768077936    0.064911922359    -0.959681956580    0.066894188014    -0.025591064044    -0.018333550706    0.004137824478
            0.064911922359    -0.959681956580    0.064534286425    0.021157558869    -0.018324604192    0.004056420870    0.066172668207    0.033699891101
            0.066894188014    -0.025591064044    -0.018324604192    0.004056420870    0.069867570847    -0.052554719118    0.068943680608    -0.959489169734
            -0.018333550706    0.004137824478    0.066172668207    0.033699891101    0.068943680608    -0.959489169734    0.064359090385    0.021471658413
0.325     0.058839663143    -0.065244161503    -0.054338960623    -0.959004110263    0.060726652130    -0.037747223903    -0.018959172873    0.006313916124
            -0.054338960623    -0.959004110263    0.063520499521    0.019848884882    -0.018965250576    0.006215876673    0.068365262207    0.030329609340
            0.060726652130    -0.037747223903    -0.018965250576    0.006215876673    0.059162780778    -0.065070620583    -0.049979355993    -0.959326810931
            -0.018959172873    0.006313916124    0.068365262207    0.030329609340    -0.049979355993    -0.959326810931    0.063454658106    0.020173251022
0.350     0.044527291511    -0.075480869362    -0.172498957320    -0.943612341035    0.051226397972    -0.048616101225    -0.019468398815    0.008681882791
            -0.172498957320    -0.943612341035    0.061843797204    0.019662677593    -0.019495509782    0.008569019992    0.069494559750    0.027355672818
            0.051226397972    -0.048616101225    -0.019495509782    0.008569019992    0.045032111911    -0.075398726956    -0.167881862780    -0.944529473511
            -0.019468398815    0.008681882791    0.069494559750    0.027355672818    -0.167881862780    -0.944529473511    0.061894958291    0.019961215443
0.375     0.027301571689    -0.082618365349    -0.287774821425    -0.913701486284    0.038699838598    -0.057365716918    -0.019831792852    0.011318980290
            -0.287774821425    -0.913701486284    0.059901869728    0.020809287448    -0.019885763094    0.011195547000    0.069789492714    0.025083890696
            0.038699838598    -0.057365716918    -0.019885763094    0.011195547000    0.027983777150    -0.082683997743    -0.282981740531    -0.915284192489
            -0.019831792852    0.011318980290    0.069789492714    0.025083890696    -0.282981740531    -0.915284192489    0.060066944180    0.021042764465
0.400     0.007896938708    -0.085931854675    -0.398374348372    -0.869685877305    0.023658180998    -0.063247942362    -0.019967470179    0.014300529030
            -0.398374348372    -0.869685877305    0.058152147686    0.023386622587    -0.020053579288    0.014172054038    0.069566088807    0.023746738322
            0.023658180998    -0.063247942362    -0.020053579288    0.014172054038    0.008736559501    -0.086203329383    -0.393505303437    -0.871993175587
            -0.019967470179    0.014300529030    0.069566088807    0.023746738322    -0.393505303437    -0.871993175587    0.058415993026    0.023515763706
0.425     -0.012775766907    -0.084875016899    -0.502531681226    -0.812210445948    0.006797128431    -0.065637871240    -0.019741200026    0.017672257263
            -0.502531681226    -0.812210445948    0.057074966827    0.027353783571    -0.019862938117    0.017546525105    0.069196235771    0.023470638352
            0.006797128431    -0.065637871240    -0.019862938117    0.017546525105    -0.011815045432    -0.085407262759    -0.497699691430    -0.815287149172
            -0.019741200026    0.017672257263    0.069196235771    0.023470638352    -0.497699691430    -0.815287149172    0.057410609760    0.027342914094
0.450     -0.033674700032    -0.079134206884    -0.598551357369    -0.742159584372    -0.011036373969    -0.064093730634    -0.018978721637    0.021428629333
            -0.598551357369    -0.742159584372    0.057141041595    0.032534473803    -0.019137796887    0.021314749990    0.069085929291    0.024270022124
            -0.011036373969    -0.064093730634    -0.019137796887    0.021314749990    -0.032644895396    -0.079974482333    -0.593879818619    -0.746032861892
            -0.018978721637    0.021428629333    0.069085929291    0.024270022124    -0.593879818619    -0.746032861892    0.057510454952    0.032354840433
0.475     -0.053684188610    -0.068653876213    -0.684838920965    -0.660664784911    -0.028887971638    -0.058385269253    -0.017486880348    0.025492264283
            -0.684838920965    -0.660664784911    0.058766207299    0.038612192694    -0.017682336355    0.025399950943    0.069631311312    0.026030368290
            -0.028887971638    -0.058385269253    -0.017682336355    0.025399950943    -0.052651160321    -0.069837424924    -0.680460015757    -0.665341137878
            -0.017486880348    0.025492264283    0.069631311312    0.026030368290    -0.680460015757    -0.665341137878    0.059122348905    0.038245468638
0.500     -0.071688263765    -0.053661429606    -0.759959215329    -0.569093498578    -0.045761602340    -0.048531682241    -0.015084067257    0.029705639844
            -0.759959215329    -0.569093498578    0.062279165682    0.045153690492    -0.015312310096    0.029644774221    0.071191969779    0.028521919661
            -0.045761602340    -0.048531682241    -0.015312310096    0.029644774221    -0.070728266477    -0.055207448583    -0.756008916431    -0.574557950857
            -0.015084067257    0.029705639844    0.071191969779    0.028521919661    -0.756008916431    -0.574557950857    0.062568749759    0.044594256214
0.525     -0.086640330501    -0.034658992324    -0.822676774128    -0.469031534181    -0.060677460484    -0.034799394699    -0.011631332119    0.033833179251
            -0.822676774128    -0.469031534181    0.067880100564    0.051629376944    -0.011885977289    0.033812570580    0.074044523220    0.031405554748
            -0.060677460484    -0.034799394699    -0.011885977289    0.033812570580    -0.085836343971    -0.036567885147    -0.819294019152    -0.475241304032
            -0.011631332119    0.033833179251    0.074044523220    0.031405554748    -0.819294019152    -0.475241304032    0.068048105051    0.050886504507
0.550     -0.097643689474    -0.012401913909    -0.872013534175    -0.362232487763    -0.072752530888    -0.017698407948    -0.007064436678    0.037578696919
            -0.872013534175    -0.362232487763    0.075624544195    0.057457020863    -0.007336368962    0.037605700575    0.078365288413    0.034267780427
            -0.072752530888    -0.017698407948    -0.007336368962    0.037605700575    -0.097079337894    -0.014653413082    -0.869329417127    -0.369122872216
            -0.007064436678    0.037578696919    0.078365288413    0.034267780427    -0.869329417127    -0.369122872216    0.075617280762    0.056554791015
0.575     -0.104007952804    0.012149505644    -0.907265833967    -0.250584735032    -0.081249550510    0.002056686303    -0.001416288412    0.040611372554
            -0.907265833967    -0.250584735032    0.085401002999    0.062039897935    -0.001695185580    0.040690379085    0.084197989628    0.036646977653
            -0.081249550510    0.002056686303    -0.001695185580    0.040690379085    -0.103762817157    0.009595976387    -0.905405877461    -0.258066271067
            -0.001416288412    0.040611372554    0.084197989628    0.036646977653    -0.905405877461    -0.258066271067    0.085170996188    0.061017318900
0.600     -0.105304404458    0.037894811991    -0.928042056668    -0.136036698924    -0.085641185254    0.023594883792    0.005170868599    0.042604153859
            -0.928042056668    -0.136036698924    0.096941140858    0.064818863732    0.004897104251    0.042736983666    0.091459462528    0.038080786987
            -0.085641185254    0.023594883792    0.004897104251    0.042736983666    -0.105447901131    0.035098964469    -0.927112693516    -0.143998536837
            0.005170868599    0.042604153859    0.091459462528    0.038080786987    -0.927112693516    -0.143998536837    0.096450986359    0.063727024695
0.625     -0.101384678503    0.063666960357    -0.934248731213    -0.020546557622    -0.085625503805    0.045951752083    0.012448596225    0.043269964534
            -0.934248731213    -0.020546557622    0.109825859230    0.065311953442    0.012191494778    0.043455311303    0.099929955569    0.038136577161
            -0.085625503805    0.045951752083    0.012191495048    0.043455312266    -0.101972138455    0.060704861484    -0.934341024274    -0.028856015607
            0.012448596225    0.043269964534    0.099929955569    0.038136577161    -0.934341024274    -0.028856015607    0.109051843869    0.064211618063
0.650     -0.092389032420    0.088313745834    -0.926089651651    0.093988576402    -0.081150233678    0.068138663585    0.020079345169    0.042400677098
            -0.926089651651    0.093988576402    0.123523030822    0.063154844177    0.019850335279    0.042634019457    0.109285007963    0.036453490127
            -0.081150233678    0.068138663585    0.019850334957    0.042634020710    -0.093457428300    0.085272964760    -0.927270232462    0.085476562351
            0.020079345169    0.042400677098    0.109285007963    0.036453490127    -0.927270232462    0.085476562351    0.122456362770    0.062112426638
0.675     -0.078719740571    0.110766406025    -0.904024980482    0.205775250848    -0.072387539152    0.089201664925    0.027664974155    0.039891073994
            -0.904024980482    0.205775250848    0.137413572663    0.058124807178    0.027473427216    0.040165403402    0.119104670845    0.032763233350
            -0.072387539152    0.089201664925    0.027473427216    0.040165403402    -0.080285911001    0.107741635801    -0.906338877379    0.197213689837
            0.027664974155    0.039891073994    0.119104670845    0.032763233350    -0.906338877379    0.197213689837    0.136062127747    0.057208634601
0.700     -0.061005472407    0.130104618966    -0.868739922262    0.313163722204    -0.059719393042    0.108283404607    0.034784719290    0.035757448095
            -0.868739922262    0.313163722204    0.150842159622    0.050156122522    0.034637990775    0.036063435889    0.128920252876    0.026911116090
            -0.059719393042    0.108283404607    0.034637990775    0.036063435889    -0.063064848865    0.127192383989    -0.872206090072    0.304714224083
            0.034784719290    0.035757448095    0.128920252876    0.026911116090    -0.872206090072    0.304714224083    0.149230569636    0.049431371269
0.725     -0.040046729989    0.145595462099    -0.821100420694    0.414672517857    -0.043686644967    0.124652662191    0.041032942033    0.030136726670
            -0.821100420694    0.414672517857    0.163150458801    0.039342083235    0.040935145975    0.030464138860    0.138227901660    0.018860514255
            -0.043686644967    0.124652662191    0.040935145975    0.030464138860    -0.042574201242    0.142889104346    -0.825712897925    0.406496252767
            0.041032941507    0.030136727386    0.138227901660    0.018860514255    -0.825712897925    0.406496252767    0.161317950707    0.038867008151
0.750     -0.016758217066    0.156723058062    -0.762100403799    0.509004908089    -0.024952689677    0.137740434110    0.046057484213    0.023276956077
            -0.762100403799    0.509004908089    0.173722565472    0.025922790643    0.046010067705    0.023615093221    0.146537652040    0.008692469235
            -0.024952689677    0.137740434110    0.046010067705    0.023615093221    -0.019709721693    0.154308064311    -0.767831871904    0.501257611181
            0.046057484213    0.023276956077    0.146537652040    0.008692469235    -0.767831871904    0.501257611181    0.171721481838    0.025746137049
0.775     0.007888098907    0.163191920338    -0.692833143965    0.595035902837    -0.004254860863    0.147139353484    0.049588102367    0.015514422475
            -0.692833143965    0.595035902837    0.182009393967    0.010271961866    0.049589788034    0.015853284607    0.153381359418    -0.003404570666
            -0.004254860863    0.147139353484    0.049589788034    0.015853284607    0.004572985476    0.161142805905    -0.699636190623    0.587869383682
            0.049588102367    0.015514422475    0.153381359418    -0.003404570666    -0.699636190623    0.587869383682    0.179902561353    0.010429452916
