# GHz S RI R 45
0.000     0.015269841948    0.001923274860    -0.000009056072    -0.000021229744    0.000714375825    0.001644598786    -0.000021073686    -0.000022098808
            -0.000009055863    -0.000021229746    0.015109843724    0.001321287337    -0.000007991426    -0.000019129246    0.000641825640    0.001241712935
            0.000714375699    0.001644598731    -0.000007989424    -0.000019129260    0.015219020642    0.001910829412    -0.000009378076    -0.000021764032
            -0.000021073555    -0.000022098809    0.000641825529    0.001241712880    -0.000009378049    -0.000021764032    0.015104991011    0.001334036133
0.025     0.019576552299    0.010732391554    -0.000021461853    -0.000051480289    0.002266196765    0.009589479868    -0.000034820247    -0.000052176326
            -0.000021461529    -0.000051480475    0.018381435300    0.009565210143    -0.000019134141    -0.000047516174    0.001582266024    0.008709136828
            0.002263608237    0.009592239053    -0.000019134176    -0.000047516191    0.019501078008    0.010680279123    -0.000022365274    -0.000052971292
            -0.000034820335    -0.000052176379    0.001578999156    0.008709415883    -0.000022365088    -0.000052971188    0.018316407119    0.009575867512
0.050     0.025817566678    0.017472768836    -0.000048235999    -0.000090928186    0.006684190793    0.018167317757    -0.000065952938    -0.000094514565
            -0.000048235999    -0.000090928186    0.022376807080    0.015982038305    -0.000043407488    -0.000084142152    0.004304018707    0.016894425914
            0.006684156682    0.018167347356    -0.000043407483    -0.000084142143    0.025709861846    0.017366409021    -0.000050504480    -0.000093186095
            -0.000065952938    -0.000094514565    0.004304064130    0.016894382352    -0.000050504475    -0.000093186086    0.022281972200    0.016023352729
0.075     0.033669396179    0.021955303461    -0.000084184346    -0.000120773062    0.013475595430    0.024988448775    -0.000107707983    -0.000123007671
            -0.000084184346    -0.000120773062    0.027000402862    0.021184194213    -0.000076111538    -0.000112207673    0.008547449383    0.024153079869
            0.013475587900    0.024988449427    -0.000076111532    -0.000112207665    0.033518009178    0.021823670455    -0.000088135748    -0.000122945338
            -0.000107707983    -0.000123007671    0.008547453440    0.024153075251    -0.000088135748    -0.000122945338    0.026881136564    0.021270389079
0.100     0.042811461564    0.023770200519    -0.000127417069    -0.000140238365    0.022036501796    0.029502835692    -0.000156010054    -0.000137508799
            -0.000127417069    -0.000140238365    0.032245173549    0.025073494306    -0.000115610450    -0.000130995752    0.013990723397    0.030213373111
            0.022036501796    0.029502835692    -0.000115610450    -0.000130995752    0.042612198007    0.023633929542    -0.000132979405    -0.000141395781
            -0.000156010054    -0.000137508799    0.013990723290    0.030213374263    -0.000132979405    -0.000141395781    0.032102364962    0.025218525463
0.125     0.052452228119    0.022587229016    -0.000175460520    -0.000148296214    0.031666780582    0.031305573344    -0.000206982438    -0.000137982774
            -0.000175460520    -0.000148296214    0.037799634960    0.027546414679    -0.000159755668    -0.000139571044    0.020288225640    0.034876098204
            0.031666780582    0.031305573344    -0.000159755668    -0.000139571044    0.052208591921    0.022467456826    -0.000182141340    -0.000147573171
            -0.000206982438    -0.000137982774    0.020288225640    0.034876098204    -0.000182141340    -0.000147573171    0.037642719382    0.027759767460
0.150     0.061863422887    0.018264373254    -0.000225702518    -0.000144713157    0.041599325020    0.030194273385    -0.000257244489    -0.000125334161
            -0.000225702518    -0.000144713157    0.043263800596    0.028594165524    -0.000206223803    -0.000137613184    0.027069061677    0.038037825044
            0.041599325020    0.030194273385    -0.000206223803    -0.000137613184    0.061588887015    0.018184997088    -0.000232639787    -0.000141465227
            -0.000257244489    -0.000125334161    0.027069061677    0.038037825044    -0.000232639787    -0.000141465227    0.043099580398    0.028898471679
0.175     0.070110086759    0.010906299415    -0.000275750317    -0.000129678136    0.051037720018    0.026150976789    -0.000304070912    -0.000100915270
            -0.000275750317    -0.000129678136    0.048287866122    0.028346906083    -0.000252891316    -0.000125236214    0.033954142737    0.039683574196
            0.051037720018    0.026150976789    -0.000252891316    -0.000125236214    0.069826403567    0.010884676760    -0.000281788310    -0.000123639174
            -0.000304070912    -0.000100915270    0.033954142737    0.039683574196    -0.000281788310    -0.000123639174    0.048137219188    0.028755651930
0.200     0.076365514710    0.000875223152    -0.000323533040    -0.000103886556    0.059210848243    0.019361496964    -0.000345415700    -0.000066544715
            -0.000323533040    -0.000103886556    0.052553385554    0.027020408054    -0.000297924334    -0.000102985529    0.040580042952    0.039896254845
            0.059210848243    0.019361496964    -0.000297924334    -0.000102985529    0.076101505635    0.000921617894    -0.000327383745    -0.000095259337
            -0.000345415700    -0.000066544715    0.040580042952    0.039896254845    -0.000327383745    -0.000095259337    0.052441382690    0.027539571371
0.225     0.079914947685    -0.011281975386    -0.000367320036    -0.000068232533    0.065409999211    0.010194737883    -0.000379882764    -0.000024161741
            -0.000367320036    -0.000068232533    0.055811628815    0.024895858666    -0.000339782421    -0.000071551238    0.046621372139    0.038840889189
            0.065409999211    0.010194737883    -0.000339782421    -0.000071551238    0.079703986258    -0.011167188239    -0.000367737892    -0.000057736216
            -0.000379882764    -0.000024161741    0.046621372139    0.038840889189    -0.000367737892    -0.000057736216    0.055765781401    0.025524145546
0.250     0.080205217473    -0.024848268114    -0.000405765489    -0.000023760537    0.069037130290    -0.000816290198    -0.000406756913    0.000024268832
            -0.000405765489    -0.000023760537    0.057894527609    0.022322302673    -0.000377236687    -0.000031765106    0.051810782830    0.036760347479
            0.069037130290    -0.000816290198    -0.000377236681    -0.000031765172    0.080082587171    -0.024675056105    -0.000401735828    -0.000012641972
            -0.000406756913    0.000024268832    0.051810782830    0.036760347479    -0.000401735828    -0.000012641972    0.057942754463    0.023051361642
0.275     0.076858572369    -0.038984260822    -0.000437778446    0.000028499228    0.069628975142    -0.013001640036    -0.000425841723    0.000077017085
            -0.000437778446    0.000028499228    0.058735949440    0.019674871026    -0.000409260376    0.000015600661    0.055953423017    0.033950767783
            0.069628975142    -0.013001640036    -0.000409260376    0.000015600661    0.076858221315    -0.038774258307    -0.000428714918    0.000038574955
            -0.000425841723    0.000077017085    0.055953423017    0.033950767783    -0.000428714918    0.000038574955    0.058904972972    0.020488755369
0.300     0.069716638621    -0.052768077936    -0.000462501252    0.000087574209    0.066894188014    -0.025591064044    -0.000437375428    0.000132687889
            -0.000462501252    0.000087574209    0.058373050576    0.017344269254    -0.000434986821    0.000069802944    0.058940776228    0.030749639497
            0.066894188014    -0.025591064044    -0.000434986821    0.000069802944    0.069867570847    -0.052554719118    -0.000448398640    0.000094655080
            -0.000437375428    0.000132687889    0.058940776228    0.030749639497    -0.000448398640    0.000094655080    0.058686322925    0.018219398292
0.325     0.058839663143    -0.065244161503    -0.000479120568    0.000152612453    0.060726652130    -0.037747223903    -0.000441766858    0.000190345637
            -0.000479120568    0.000152612453    0.056948996215    0.015694915778    -0.000453543314    0.000130202753    0.060754911301    0.027506787070
            0.060726652130    -0.037747223903    -0.000453543314    0.000130202753    0.059162780778    -0.065070620583    -0.000460674588    0.000154642536
            -0.000441766858    0.000190345637    0.060754911301    0.027506787070    -0.000460674588    0.000154642536    0.057424116651    0.016601013838
0.350     0.044527291511    -0.075480869362    -0.000486840739    0.000222800802    0.051226397972    -0.048616101225    -0.000439456388    0.000249477998
            -0.000486840739    0.000222800802    0.054704747877    0.015051778177    -0.000464024819    0.000196168773    0.061474771554    0.024568585468
            0.051226397972    -0.048616101225    -0.000464024819    0.000196168773    0.045032111911    -0.075398726956    -0.000465485082    0.000217882831
            -0.000439456388    0.000249477998    0.061474771554    0.024568585468    -0.000465485082    0.000217882831    0.055351927524    0.015953280923
0.375     0.027301571689    -0.082618365349    -0.000484719386    0.000297319155    0.038699838598    -0.057365716918    -0.000430630117    0.000309972810
            -0.000484719386    0.000297319155    0.051965877177    0.015664017492    -0.000465344930    0.000267033448    0.061268457161    0.022245733763
            0.038699838598    -0.057365716918    -0.000465344930    0.000267033448    0.027983777150    -0.082683997743    -0.000462592702    0.000283972833
            -0.000430630117    0.000309972810    0.061268457161    0.022245733763    -0.000462592702    0.000283972833    0.052786432081    0.016522295805
0.400     0.007896938708    -0.085931854675    -0.000471708213    0.000375218494    0.023658180998    -0.063247942362    -0.000415141768    0.000371912951
            -0.000471708213    0.000375218494    0.049125763199    0.017694424618    -0.000456298358    0.000341920270    0.060388921861    0.020798595779
            0.023658180998    -0.063247942362    -0.000456298358    0.000341920270    0.008736559501    -0.086203329383    -0.000451527925    0.000352606689
            -0.000415141768    0.000371912951    0.060388921861    0.020798595779    -0.000451527925    0.000352606689    0.050110578303    0.018470032491
0.425     -0.012775766907    -0.084875016899    -0.000446603027    0.000455261834    0.006797128431    -0.065637871240    -0.000392356817    0.000435379255
            -0.000446603027    0.000455261834    0.046618426231    0.021192987109    -0.000435526939    0.000419633917    0.059153833190    0.020406279010
            0.006797128431    -0.065637871240    -0.000435526939    0.000419633917    -0.011815045432    -0.085407262759    -0.000431455038    0.000423414851
            -0.000392356817    0.000435379255    0.059153833190    0.020406279010    -0.000431455038    0.000423414851    0.047748151826    0.021848577236
0.450     -0.033674700032    -0.079134206884    -0.000408202821    0.000535819516    -0.011036373969    -0.064093730634    -0.000361226311    0.000500209222
            -0.000408202821    0.000535819516    0.044893694547    0.026094441495    -0.000401677543    0.000498551976    0.057928799170    0.021158381468
            -0.011036373969    -0.064093730634    -0.000401677543    0.000498551976    -0.032644895396    -0.079974482333    -0.000401280196    0.000495741066
            -0.000361226311    0.000500209222    0.057928799170    0.021158381468    -0.000401280196    0.000495741066    0.046139273463    0.026597588541
0.475     -0.053684188610    -0.068653876213    -0.000355414187    0.000614737067    -0.028887971638    -0.058385269253    -0.000320320382    0.000565768927
            -0.000355414187    0.000614737067    0.044381469505    0.032207007978    -0.000353533239    0.000576485971    0.057096201995    0.023034066385
            -0.028887971638    -0.058385269253    -0.000353533239    0.000576485971    -0.052651160321    -0.069837424924    -0.000359668640    0.000568484042
            -0.000320320382    0.000565768927    0.057096201995    0.023034066385    -0.000359668640    0.000568484042    0.045705017818    0.032533074319
0.500     -0.071688263765    -0.053661429606    -0.000287506619    0.000689362580    -0.045761602340    -0.048531682241    -0.000268125319    0.000630767562
            -0.000287506619    0.000689362580    0.045462575351    0.039224639699    -0.000290269829    0.000650731252    0.057030158738    0.025906665736
            -0.045761602340    -0.048531682241    -0.000290269829    0.000650731252    -0.070728266477    -0.055207448583    -0.000305330544    0.000639945053
            -0.000268125319    0.000630767562    0.057030158738    0.025906665736    -0.000305330544    0.000639945053    0.046820134623    0.039358893518
0.525     -0.086640330501    -0.034658992324    -0.000204303117    0.000756549928    -0.060677460484    -0.034799394699    -0.000203269098    0.000693154606
            -0.000204303117    0.000756549928    0.048432455862    0.046734942443    -0.000211659344    0.000718078501    0.058059679590    0.029539980427
            -0.060677460484    -0.034799394699    -0.000211659344    0.000718078501    -0.085836343971    -0.036567885147    -0.000237222542    0.000707768502
            -0.000203269098    0.000693154606    0.058059679590    0.029539980427    -0.000237222542    0.000707768502    0.049776014266    0.046674627407
0.550     -0.097643689474    -0.012401913909    -0.000106443429    0.000812886150    -0.072752530888    -0.017698407948    -0.000124863006    0.000750207094
            -0.000106443429    0.000812886150    0.053478591540    0.054249100555    -0.000118283087    0.000775071328    0.060445662410    0.033611005838
            -0.072752530888    -0.017698407948    -0.000118283087    0.000775071328    -0.097079337894    -0.014653413082    -0.000154848711    0.000769048112
            -0.000124863006    0.000750207094    0.060445662410    0.033611005838    -0.000154848711    0.000769048112    0.054760509488    0.054003919468
0.575     -0.104007952804    0.012149505644    0.000004532473    0.000854893055    -0.081249550510    0.002056686303    -0.000032796501    0.000798642725
            0.000004532473    0.000854893055    0.060654732452    0.061227604579    -0.000011685596    0.000818185125    0.064349656425    0.037723890462
            -0.081249550510    0.002056686303    -0.000011685596    0.000818185125    -0.103762817157    0.009595976387    -0.000058502997    0.000820457827
            -0.000032796501    0.000798642725    0.064349656425    0.037723890462    -0.000058502997    0.000820457827    0.061829741577    0.060820114090
0.600     -0.105304404458    0.037894811991    0.000126096992    0.000879399219    -0.085641185254    0.023594883792    0.000072102204    0.000834968624
            0.000126096992    0.000879399219    0.069876248474    0.067121929942    0.000105628852    0.000844229451    0.069825848776    0.041448309233
            -0.085641185254    0.023594883792    0.000105628851    0.000844229442    -0.105447901131    0.035098964469    0.000050590688    0.000858584775
            0.000072102204    0.000834968624    0.069825848776    0.041448309233    0.000050590688    0.000858584775    0.070905790605    0.066586243295
0.625     -0.101384678503    0.063666960357    0.000254856011    0.000883794753    -0.085625503805    0.045951752083    0.000187931240    0.000855759476
            0.000254856011    0.000883794753    0.080913865865    0.071409499210    0.000230285424    0.000850588169    0.076804798939    0.044343097972
            -0.085625503805    0.045951752083    0.000230285427    0.000850588179    -0.101972138455    0.060704861484    0.000170216645    0.000880205421
            0.000187931240    0.000855759476    0.076804798939    0.044343097972    0.000170216645    0.000880205421    0.081769362105    0.070789491801
0.650     -0.092389032420    0.088313745834    0.000386740385    0.000866369364    -0.081150233678    0.068138663585    0.000311820888    0.000858072396
            0.000386740385    0.000866369364    0.093413404169    0.073633560843    0.000358217811    0.000835556641    0.085107208272    0.045998148999
            -0.081150233678    0.068138663585    0.000358217811    0.000835556641    -0.093457428300    0.085272964760    0.000297254887    0.000882662027
            0.000311820888    0.000858072396    0.085107208272    0.045998148999    0.000297254887    0.000882662027    0.094077780054    0.072980152827
0.675     -0.078719740571    0.110766406025    0.000517257892    0.000826442288    -0.072387539152    0.089201664925    0.000440063519    0.000839697966
            0.000517257892    0.000826442288    0.106909043156    0.073432211505    0.000484990814    0.000798456450    0.094446154454    0.046055148690
            -0.072387539152    0.089201664925    0.000484990828    0.000798456441    -0.080285911001    0.107741635801    0.000427921726    0.000864069191
            0.000440063519    0.000839697966    0.094446154454    0.046055148690    0.000427921726    0.000864069191    0.107379256298    0.072799968831
0.700     -0.061005472407    0.130104618966    0.000641915939    0.000764464703    -0.059719393042    0.108283404607    0.000568455152    0.000799429328
            0.000641915939    0.000764464703    0.120861565176    0.070563295851    0.000606153220    0.000739742303    0.104458247194    0.044239395055
            -0.059719393042    0.108283404607    0.000606153220    0.000739742303    -0.063064848865    0.127192383989    0.000558004357    0.000823551968
            0.000568455152    0.000799429328    0.104458247194    0.044239395055    0.000558004357    0.000823551968    0.121147730944    0.070007233805
0.725     -0.040046729989    0.145595462099    0.000756460884    0.000681930442    -0.043686644967    0.124652662191    0.000692544587    0.000737083119
            0.000756460884    0.000681930442    0.134682161469    0.064917819419    0.000717501444    0.000660901148    0.114716791116    0.040367847783
            -0.043686644967    0.124652662191    0.000717501444    0.000660901148    -0.042574201242    0.142889104346    0.000683172314    0.000761231481
            0.000692544587    0.000737083119    0.114716791116    0.040367847783    0.000683172314    0.000761231481    0.134809577350    0.064488774530
0.750     -0.016758217066    0.156723058062    0.000857195037    0.000581261253    -0.024952689677    0.137740434110    0.000807994633    0.000653584232
            0.000857195037    0.000581261253    0.147776377949    0.056522582618    0.000815421710    0.000564319363    0.124769741538    0.034364358279
            -0.024952689677    0.137740434110    0.000815421700    0.000564319378    -0.019709721693    0.154308064311    0.000799319403    0.000678242888
            0.000807994633    0.000653584232    0.124769741538    0.034364358279    0.000799319403    0.000678242888    0.147781949620    0.056265563616
0.775     0.007888098907    0.163191920338    0.000941149902    0.000465551191    -0.004254860863    0.147139353484    0.000910824741    0.000550763792
            0.000941149902    0.000465551191    0.159567612421    0.045537529624    0.000896979585    0.000453071231    0.134153594302    0.026253297408
            -0.004254860863    0.147139353484    0.000896979585    0.000453071231    0.004572985476    0.161142805905    0.000902727140    0.000576571115
            0.000910824741    0.000550763792    0.134153594302    0.026253297408    0.000902727140    0.000576571115    0.159499549676    0.045487523596
