# GHz S RI R 45
0.000     0.015269841948    0.001923274860    0.000000593553    0.000001162825    0.000714375825    0.001644598786    0.000000668369    0.000001294678
            0.000000593553    0.000001162825    0.014603200501    0.001749471523    0.000000676850    0.000001298793    0.000653610883    0.001475269248
            0.000714375699    0.001644598731    0.000000676848    0.000001298793    0.015219020642    0.001910829412    0.000000767990    0.000001458598
            0.000000668370    0.000001294678    0.000653611571    0.001475269271    0.000000768001    0.000001458598    0.014524921835    0.001764128484
0.025     0.019576552299    0.010732391554    0.000001360907    0.000002456619    0.002266196765    0.009589479868    0.000001522768    0.000002737547
            0.000001360907    0.000002456619    0.018409660328    0.009598719555    0.000001534838    0.000002745358    0.001981085140    0.008499943349
            0.002263608237    0.009592239053    0.000001534839    0.000002745359    0.019501078008    0.010680279123    0.000001731696    0.000003085113
            0.000001522768    0.000002737547    0.001978800690    0.008498208925    0.000001731698    0.000003085117    0.018332729858    0.009595305100
0.050     0.025817566678    0.017472768836    0.000003016713    0.000004109990    0.006684190793    0.018167317757    0.000003362947    0.000004580068
            0.000003016713    0.000004109990    0.023940603590    0.015624489569    0.000003380288    0.000004591617    0.005768728721    0.016190936712
            0.006684156682    0.018167347356    0.000003380288    0.000004591618    0.025709861846    0.017366409021    0.000003799861    0.000005159589
            0.000003362947    0.000004580068    0.005768709787    0.016190926473    0.000003799861    0.000005159589    0.023879951759    0.015639637780
0.075     0.033669396179    0.021955303461    0.000005206152    0.000005060059    0.013475595430    0.024988448775    0.000005792899    0.000005644326
            0.000005206152    0.000005060059    0.030903014008    0.019773089307    0.000005815724    0.000005657177    0.011655190583    0.022457529961
            0.013475587900    0.024988449427    0.000005815724    0.000005657177    0.033518009178    0.021823670455    0.000006525041    0.000006363439
            0.000005792899    0.000005644326    0.011655182861    0.022457529462    0.000006525041    0.000006363439    0.030860718707    0.019805382181
0.100     0.042811461564    0.023770200519    0.000007751580    0.000005223048    0.022036501796    0.029502835692    0.000008619576    0.000005839658
            0.000007751580    0.000005223048    0.039109940075    0.021696306473    0.000008647709    0.000005852121    0.019168317618    0.026840903468
            0.022036501796    0.029502835692    0.000008647709    0.000005852121    0.042612198007    0.023633929542    0.000009696065    0.000006598868
            0.000008619576    0.000005839658    0.019168317618    0.026840903468    0.000009696065    0.000006598868    0.039099375352    0.021745644879
0.125     0.052452228119    0.022587229016    0.000010427155    0.000004515025    0.031666780582    0.031305573344    0.000011595702    0.000005072251
            0.000010427155    0.000004515025    0.047944089675    0.021081401525    0.000011628766    0.000005082684    0.027771261752    0.028984201850
            0.031666780582    0.031305573344    0.000011628766    0.000005082684    0.052208591921    0.022467456826    0.000013040284    0.000005760013
            0.000011595702    0.000005072251    0.027771261752    0.028984201850    0.000013040284    0.000005760013    0.047980566462    0.021146818202
0.150     0.061863422887    0.018264373254    0.000012987462    0.000002935239    0.041599325020    0.030194273385    0.000014451251    0.000003339676
            0.000012987462    0.000002935239    0.056845955796    0.017756634063    0.000014488435    0.000003346906    0.036869216172    0.028669243840
            0.041599325020    0.030194273385    0.000014488435    0.000003346906    0.061588887015    0.018184997088    0.000016257986    0.000003842720
            0.000014451251    0.000003339676    0.036869216172    0.028669243840    0.000016257986    0.000003842720    0.056946349773    0.017831275832
0.175     0.070110086759    0.010906299415    0.000015198250    0.000000526026    0.051037720018    0.026150976789    0.000016928310    0.000000686226
            0.000015198250    0.000000526026    0.065052331463    0.011726051388    0.000016968569    0.000000689281    0.045830033698    0.025819280115
            0.051037720018    0.026150976789    0.000016968569    0.000000689281    0.069826403567    0.010884676760    0.000019062569    0.000000893192
            0.000016928310    0.000000686226    0.045830033698    0.025819280115    0.000019062569    0.000000893192    0.065234404125    0.011800272574
0.200     0.076365514710    0.000875223152    0.000016843821    -0.000002609238    0.059210848243    0.019361496964    0.000018788205    -0.000002776825
            0.000016843821    -0.000002609238    0.071867731984    0.003202433880    0.000018830389    -0.000002778625    0.054025815618    0.020508671190
            0.059210848243    0.019361496964    0.000018830389    -0.000002778625    0.076101505635    0.000921617894    0.000021187825    -0.000002967876
            0.000018788205    -0.000002776825    0.054025815618    0.020508671190    0.000021187825    -0.000002967876    0.072149174474    0.003261769523
0.225     0.079914947685    -0.011281975386    0.000017735573    -0.000006320881    0.065409999211    0.010194737883    0.000019821280    -0.000006887097
            0.000017735573    -0.000006320881    0.076663535264    -0.007456311561    0.000019864162    -0.000006894036    0.060857558203    0.012952505310
            0.065409999211    0.010194737883    0.000019864162    -0.000006894036    0.079703986258    -0.011167188239    0.000022398499    -0.000007563000
            0.000019821280    -0.000006887097    0.060857558203    0.012952505310    0.000022398499    -0.000007563000    0.077060964146    -0.007432726144
0.250     0.080205217473    -0.024848268114    0.000017728633    -0.000010416184    0.069037130290    -0.000816290198    0.000019865197    -0.000011434275
            0.000017728633    -0.000010416184    0.078917094835    -0.019747467601    0.000019907539    -0.000011446151    0.065792834893    0.003498599820
            0.069037130290    -0.000816290198    0.000019907539    -0.000011446151    0.080082587171    -0.024675056105    0.000022510910    -0.000012660688
            0.000019865197    -0.000011434275    0.065792834893    0.003498599820    0.000022510910    -0.000012660688    0.079443462034    -0.019786115977
0.275     0.076858572369    -0.038984260822    0.000016722242    -0.000014672787    0.069628975142    -0.013001640036    0.000018805455    -0.000016175006
            0.000016722242    -0.000014672787    0.078221794135    -0.033059508008    0.000018846194    -0.000016191103    0.068383494115    -0.007390170670
            0.069628975142    -0.013001640036    0.000018846194    -0.000016191103    0.076858221315    -0.038774258307    0.000021393841    -0.000017991986
            0.000018805455    -0.000016175006    0.068383494115    -0.007390170670    0.000021393841    -0.000017991986    0.078885140325    -0.033192416620
0.300     0.069716638621    -0.052768077936    0.000014671207    -0.000018847890    0.066894188014    -0.025591064044    0.000016588062    -0.000020842103
            0.000014671207    -0.000018847890    0.074325749180    -0.046693989668    0.000016626958    -0.000020861552    0.068296876528    -0.019158045104
            0.066894188014    -0.025591064044    0.000016626958    -0.000020861552    0.069867570847    -0.052554719118    0.000018983040    -0.000023260780
            0.000016588062    -0.000020842103    0.068296876528    -0.019158045104    0.000018983040    -0.000023260780    0.075127220679    -0.046957860396
0.325     0.058839663143    -0.065244161503    0.000011583840    -0.000022688391    0.060726652130    -0.037747223903    0.000013217715    -0.000025156445
            0.000011583840    -0.000022688391    0.067132514430    -0.059901265747    0.000013254984    -0.000025178284    0.065325894028    -0.031178699565
            0.060726652130    -0.037747223903    0.000013254984    -0.000025178284    0.059162780778    -0.065070620583    0.000015279004    -0.000028156553
            0.000013217715    -0.000025156445    0.065325894028    -0.031178699565    0.000015279004    -0.000028156553    0.068064774189    -0.060335804441
0.350     0.044527291511    -0.075480869362    0.000007529154    -0.000025944278    0.051226397972    -0.048616101225    0.000008766024    -0.000028840895
            0.000007529154    -0.000025944278    0.056724040775    -0.071919298847    0.000008802631    -0.000028864888    0.059408963576    -0.042788260824
            0.051226397972    -0.048616101225    0.000008802631    -0.000028864888    0.045032111911    -0.075398726956    0.000010356346    -0.000032370385
            0.000008766024    -0.000028840895    0.059408963576    -0.042788260824    0.000010356346    -0.000032370385    0.057769989497    -0.072565388689
0.375     0.027301571689    -0.082618365349    0.000002633707    -0.000028378765    0.038699838598    -0.057365716918    0.000003367804    -0.000031631952
            0.000002633707    -0.000028378765    0.043349994694    -0.082006303339    0.000003404958    -0.000031658367    0.050632094655    -0.053309561010
            0.038699838598    -0.057365716918    0.000003404958    -0.000031658367    0.027983777150    -0.082683997743    0.000004359549    -0.000035607355
            0.000003367804    -0.000031631952    0.050632094655    -0.053309561010    0.000004359549    -0.000035607355    0.044481918498    -0.082903739536
0.400     0.007896938708    -0.085931854675    -0.000002917703    -0.000029785414    0.023658180998    -0.063247942362    -0.000002777318    -0.000033298026
            -0.000002917703    -0.000029785414    0.027429998769    -0.089485713639    -0.000002738408    -0.000033328522    0.039235268972    -0.062093799890
            0.023658180998    -0.063247942362    -0.000002738408    -0.000033328522    0.008736559501    -0.086203329383    -0.000002494769    -0.000037606935
            -0.000002777318    -0.000033298026    0.039235268972    -0.062093799890    -0.000002494769    -0.000037606935    0.028609698877    -0.090670203930
0.425     -0.012775766907    -0.084875016899    -0.000008889367    -0.000029999060    0.006797128431    -0.065637871240    -0.000009413104    -0.000033651878
            -0.000008889367    -0.000029999060    0.009533373181    -0.093775794871    -0.000009371934    -0.000033689094    0.025603012153    -0.068544559374
            0.006797128431    -0.065637871240    -0.000009371934    -0.000033689094    -0.011815045432    -0.085407262759    -0.000009927230    -0.000038156131
            -0.000009413104    -0.000033651878    0.025603012153    -0.068544559374    -0.000009927230    -0.000038156131    0.010711968593    -0.095276274519
0.450     -0.033674700032    -0.079134206884    -0.000015003653    -0.000028914058    -0.011036373969    -0.064093730634    -0.000016235824    -0.000032570702
            -0.000015003653    -0.000028914058    -0.009641467379    -0.094431072383    -0.000016193416    -0.000032618280    0.010253252043    -0.072161809145
            -0.011036373969    -0.064093730634    -0.000016193416    -0.000032618280    -0.032644895396    -0.079974482333    -0.000017605289    -0.000037111834
            -0.000016235824    -0.000032570702    0.010253252043    -0.072161809145    -0.000017605289    -0.000037111834    -0.008521719686    -0.096267008444
0.475     -0.053684188610    -0.068653876213    -0.000020955874    -0.000026492352    -0.028887971638    -0.058385269253    -0.000022910615    -0.000030005143
            -0.000020955874    -0.000026492352    -0.029298569522    -0.091164097591    -0.000022869784    -0.000030066568    -0.006184343732    -0.072561320513
            -0.028887971638    -0.058385269253    -0.000022869784    -0.000030066568    -0.052651160321    -0.069837424924    -0.000025160493    -0.000034410157
            -0.000022910615    -0.000030005143    -0.006184343732    -0.072561320513    -0.000025160493    -0.000034410157    -0.028302562233    -0.093342564606
0.500     -0.071688263765    -0.053661429606    -0.000026434165    -0.000022774779    -0.045761602340    -0.048531682241    -0.000029092679    -0.000025992156
            -0.000026434165    -0.000022774779    -0.048584395482    -0.083873705133    -0.000029058392    -0.000026070417    -0.023000309651    -0.069511958584
            -0.045761602340    -0.048531682241    -0.000029058392    -0.000026070417    -0.070728266477    -0.055207448583    -0.000032211482    -0.000030081626
            -0.000029092679    -0.000025992156    -0.023000309651    -0.069511958584    -0.000032211482    -0.000030081626    -0.047781044695    -0.086387505423
0.525     -0.086640330501    -0.034658992324    -0.000031139853    -0.000017879924    -0.060677460484    -0.034799394699    -0.000034449438    -0.000020654091
            -0.000031139853    -0.000017879924    -0.066628676130    -0.072651625954    -0.000034428484    -0.000020750269    -0.039436879709    -0.062942496449
            -0.060677460484    -0.034799394699    -0.000034428484    -0.000020750269    -0.085836343971    -0.036567885147    -0.000038387513    -0.000024249727
            -0.000034449438    -0.000020654091    -0.039436879709    -0.062942496449    -0.000038387513    -0.000024249727    -0.066087736350    -0.075477829523
0.550     -0.097643689474    -0.012401913909    -0.000034812045    -0.000012000988    -0.072752530888    -0.017698407948    -0.000038687669    -0.000014196385
            -0.000034812045    -0.000012000988    -0.082595505685    -0.057788419564    -0.000038688011    -0.000014308934    -0.054735686786    -0.052960735024
            -0.072752530888    -0.017698407948    -0.000038688011    -0.000014308934    -0.097079337894    -0.014653413082    -0.000043357761    -0.000017129649
            -0.000038687669    -0.000014196385    -0.054735686786    -0.052960735024    -0.000043357761    -0.000017129649    -0.082383947928    -0.060887582150
0.575     -0.104007952804    0.012149505644    -0.000037244743    -0.000005391005    -0.081249550510    0.002056686303    -0.000041572665    -0.000006891427
            -0.000037244743    -0.000005391005    -0.095725782377    -0.039758557430    -0.000041602241    -0.000007015530    -0.068171716204    -0.039841809371
            -0.081249550510    0.002056686303    -0.000041602241    -0.000007015530    -0.103762817157    0.009595976387    -0.000046852002    -0.000009011750
            -0.000041572665    -0.000006891427    -0.068171716204    -0.039841809371    -0.000046852002    -0.000009011750    -0.095903302023    -0.043075687613
0.600     -0.105304404458    0.037894811991    -0.000038305374    0.000001654893    -0.085641185254    0.023594883792    -0.000042948312    0.000000939573
            -0.000038305374    0.000001654893    -0.105385543109    -0.019199095554    -0.000043013558    0.000000812159    -0.079104538923    -0.024020842713
            -0.085641185254    0.023594883792    -0.000043013558    0.000000812159    -0.105447901131    0.035098964469    -0.000048683407    -0.000000242774
            -0.000042948312    0.000000939573    -0.079104538923    -0.024020842713    -0.000048683407    -0.000000242774    -0.106000621480    -0.022664564097
0.625     -0.101384678503    0.063666960357    -0.000037938635    0.000008822964    -0.085625503805    0.045951752083    -0.000042742453    0.000008952699
            -0.000037938635    0.000008822964    -0.111095481868    0.003124833831    -0.000042847104    0.000008832810    -0.087002300892    -0.006064414883
            -0.085625503805    0.045951752083    -0.000042847104    0.000008832810    -0.101972138455    0.060704861484    -0.000048754577    0.000008801431
            -0.000042742453    0.000008952699    -0.087002300892    -0.006064414883    -0.000048754577    0.000008801431    -0.112182389350    -0.000407647412
0.650     -0.092389032420    0.088313745834    -0.000036169249    0.000015804535    -0.081150233678    0.068138663585    -0.000040970784    0.000016806217
            -0.000036169249    0.000015804535    -0.112562444272    0.026363521858    -0.000041114751    0.000016706439    -0.091481121200    0.013360784873
            -0.081150233678    0.068138663585    -0.000041114751    0.000016706439    -0.093457428300    0.085272964760    -0.000047063961    0.000017742444
            -0.000040970784    0.000016806217    -0.091481121200    0.013360784873    -0.000047063961    0.000017742444    -0.114137860371    0.022853382260
0.675     -0.078719740571    0.110766406025    -0.000033091023    0.000022316076    -0.072387539152    0.089201664925    -0.000037725401    0.000024183365
            -0.000033091023    0.000022316076    -0.109687094419    0.049627155773    -0.000037904205    0.000024116255    -0.092309627081    0.033526251929
            -0.072387539152    0.089201664925    -0.000037904205    0.000024116255    -0.080285911001    0.107741635801    -0.000043693717    0.000026223888
            -0.000037725401    0.000024183365    -0.092309627081    0.033526251929    -0.000043693717    0.000026223888    -0.111748590279    0.046233316337
0.700     -0.061005472407    0.130104618966    -0.000028855256    0.000028117135    -0.059719393042    0.108283404607    -0.000033163522    0.000030811687
            -0.000028855256    0.000028117135    -0.102568213770    0.072037217655    -0.000033368210    0.000030788225    -0.089427457339    0.053684165463
            -0.059719393042    0.108283404607    -0.000033368210    0.000030788225    -0.063064848865    0.127192383989    -0.000038800413    0.000033932914
            -0.000033163522    0.000030811687    -0.089427457339    0.053684165463    -0.000038800413    0.000033932914    -0.105093401747    0.068852931689
0.725     -0.040046729989    0.145595462099    -0.000023651792    0.000033017854    -0.043686644967    0.124652662191    -0.000027486454    0.000036472339
            -0.000023651792    0.000033017854    -0.091487320081    0.092767054214    -0.000027704573    0.000036500459    -0.082927519928    0.073101363593
            -0.043686644967    0.124652662191    -0.000027704573    0.000036500459    -0.042574201242    0.142889104346    -0.000032592117    0.000040611071
            -0.000027486454    0.000036472339    -0.082927519928    0.073101363593    -0.000032592117    0.000040611071    -0.094434061076    0.089881335769
0.750     -0.016758217066    0.156723058062    -0.000017692882    0.000036884517    -0.024952689677    0.137740434110    -0.000020923001    0.000041006643
            -0.000017692882    0.000036884517    -0.076888477514    0.111084636424    -0.000021139800    0.000041090109    -0.073053608874    0.091100275717
            -0.024952689677    0.137740434110    -0.000021139800    0.000041090109    -0.019709721693    0.154308064311    -0.000025312966    0.000046062851
            -0.000020923001    0.000041006643    -0.073053608874    0.091100275717    -0.000025312966    0.000046062851    -0.080196636065    0.108577131766
0.775     0.007888098907    0.163191920338    -0.000011195861    0.000039634686    -0.004254860863    0.147139353484    -0.000013710634    0.000044311915
            -0.000011195861    0.000039634686    -0.059347584240    0.126378553699    -0.000013910635    0.000044449265    -0.060169629176    0.107077559364
            -0.004254860863    0.147139353484    -0.000013910635    0.000044449265    0.004572985476    0.161142805905    -0.000017221291    0.000050152501
