# GHz S RI R 45
0.000     0.015269841948    0.001923274860    0.000000383289    0.000000409340    0.000714375825    0.001644598786    0.000000226881    0.000000447850
            0.000000383289    0.000000409340    0.013811936401    0.001756581039    0.000012457647    0.000000411633    0.000576705642    0.001482190395
            0.000714375699    0.001644598731    0.000012457647    0.000000411633    0.015219020642    0.001910829412    0.000000414513    0.000000458334
            0.000000226881    0.000000447850    0.000576705859    0.001482190418    0.000000414514    0.000000458334    0.013763365657    0.001769796633
0.025     0.019576552299    0.010732391554    0.000000817632    0.000001406108    0.002266196765    0.009589479868    0.000000529689    0.000000950783
            0.000000817674    0.000001406075    0.017557723803    0.009013024456    0.000018055783    0.000056213173    0.001828320041    0.007913942934
            0.002263608237    0.009592239053    0.000018055786    0.000056213174    0.019501078008    0.010680279123    0.000000865822    0.000001523212
            0.000000529693    0.000000950785    0.001826788703    0.007912465637    0.000000865840    0.000001523237    0.017496501328    0.008989918604
0.050     0.025817566678    0.017472768836    0.000001739751    0.000002556051    0.006684190793    0.018167317757    0.000001169727    0.000001572963
            0.000001739752    0.000002556050    0.022842367524    0.014634842371    0.000034411463    0.000113920183    0.005408686185    0.015079904750
            0.006684156682    0.018167347356    0.000034411463    0.000113920183    0.025709861846    0.017366409021    0.000001813542    0.000002779162
            0.000001169727    0.000001572963    0.005408663669    0.015079854395    0.000001813542    0.000002779163    0.022788541387    0.014596963897
0.075     0.033669396179    0.021955303461    0.000002917975    0.000003190824    0.013475595430    0.024988448775    0.000001980625    0.000001901230
            0.000002917975    0.000003190824    0.029505719397    0.018524949106    0.000060321332    0.000165887300    0.010964844176    0.020955621373
            0.013475587900    0.024988449427    0.000060321332    0.000165887300    0.033518009178    0.021823670455    0.000003035029    0.000003521349
            0.000001980625    0.000001901230    0.010964836470    0.020955620891    0.000003035029    0.000003521349    0.029465625235    0.018472877223
0.100     0.042811461564    0.023770200519    0.000004124464    0.000003366369    0.022036501796    0.029502835692    0.000002866603    0.000001928954
            0.000004124464    0.000003366369    0.037420444356    0.020377186410    0.000093743485    0.000211753309    0.018101898692    0.025128973769
            0.022036501796    0.029502835692    0.000093743485    0.000211753309    0.042612198007    0.023633929542    0.000004315554    0.000003795330
            0.000002866603    0.000001928954    0.018101898254    0.025128974085    0.000004315554    0.000003795330    0.037402427229    0.020312352031
0.125     0.052452228119    0.022587229016    0.000005206957    0.000003194963    0.031666780582    0.031305573344    0.000003731028    0.000001669364
            0.000005206957    0.000003194963    0.046033817635    0.019886143515    0.000133203060    0.000251350210    0.026356623129    0.027262764091
            0.031666780582    0.031305573344    0.000133203060    0.000251350210    0.052208591921    0.022467456826    0.000005505238    0.000003691658
            0.000003731028    0.000001669364    0.026356632903    0.027262753251    0.000005505237    0.000003691658    0.046056913766    0.019807783992
0.150     0.061863422887    0.018264373254    0.000006101161    0.000002823663    0.041599325020    0.030194273385    0.000004496633    0.000001174130
            0.000006101161    0.000002823663    0.054903030855    0.016870844431    0.000177878322    0.000284524773    0.035213005788    0.027134877223
            0.041599325020    0.030194273385    0.000177878322    0.000284524773    0.061588887015    0.018184997088    0.000006529142    0.000003335260
            0.000004496633    0.000001174130    0.035213005788    0.027134877223    0.000006529142    0.000003335260    0.054969196811    0.016776092115
0.175     0.070110086759    0.010906299415    0.000006816110    0.000002381772    0.051037720018    0.026150976789    0.000005120551    0.000000505899
            0.000006816110    0.000002381772    0.063323284888    0.011279218722    0.000226955097    0.000310999041    0.044113348742    0.024639240173
            0.051037720018    0.026150976789    0.000226955097    0.000310999041    0.069826403567    0.010884676760    0.000007373324    0.000002835748
            0.000005120551    0.000000505899    0.044113348742    0.024639240173    0.000007373324    0.000002835748    0.063448363019    0.011165435142
0.200     0.076365514710    0.000875223152    0.000007419921    0.000001966986    0.059210848243    0.019361496964    0.000005594128    -0.000000270896
            0.000007419921    0.000001966986    0.070657449172    0.003256129446    0.000279677069    0.000330453323    0.052495013858    0.019799307191
            0.059210848243    0.019361496964    0.000279677069    0.000330453323    0.076101505635    0.000921617894    0.000008071610    0.000002281046
            0.000005594128    -0.000000270896    0.052495013858    0.019799307191    0.000008071610    0.000002281046    0.070859537150    0.003113425591
0.225     0.079914947685    -0.011281975386    0.000008019392    0.000001621978    0.065409999211    0.010194737883    0.000005936520    -0.000001109488
            0.000008019392    0.000001621978    0.076320298107    -0.006929153362    0.000335272556    0.000342542206    0.059810353418    0.012760191289
            0.065409999211    0.010194737883    0.000335272556    0.000342542206    0.079703986258    -0.011167188239    0.000008689008    0.000001718767
            0.000005936520    -0.000001109488    0.059810353418    0.012760191289    0.000008689008    0.000001718767    0.076615534245    -0.007117153778
0.250     0.080205217473    -0.024848268114    0.000008734061    0.000001322823    0.069037130290    -0.000816290198    0.000006183694    -0.000001990550
            0.000008734061    0.000001322823    0.079807477513    -0.018876723549    0.000392912787    0.000346923295    0.065559543628    0.003785001676
            0.069037130290    -0.000816290198    0.000392912787    0.000346923295    0.080082587171    -0.024675056105    0.000009302460    0.000001148627
            0.000006183694    -0.000001990550    0.065559543628    0.003785001676    0.000009302460    0.000001148627    0.080208597766    -0.019131029274
0.275     0.076858572369    -0.038984260822    0.000009663066    0.000000975361    0.069628975142    -0.013001640036    0.000006368841    -0.000002928811
            0.000009663066    0.000000975361    0.080702923636    -0.032086016849    0.000451685397    0.000343287667    0.069305631184    -0.006758861848
            0.069628975142    -0.013001640036    0.000451685397    0.000343287667    0.076858221315    -0.038774258307    0.000009975003    0.000000519831
            0.000006368841    -0.000002928811    0.069305631184    -0.006758861848    0.000009975003    0.000000519831    0.081219353814    -0.032432003790
0.300     0.069716638621    -0.052768077936    0.000010853785    0.000000428282    0.066894188014    -0.025591064044    0.000006505521    -0.000003967633
            0.000010853785    0.000000428282    0.078715842381    -0.045968907177    0.000510579044    0.000331396767    0.070703128792    -0.018416157028
            0.066894188014    -0.025591064044    0.000510579044    0.000331396767    0.069867570847    -0.052554719118    0.000010733500    -0.000000257867
            0.000006505521    -0.000003967633    0.070703128792    -0.018416157028    0.000010733500    -0.000000257867    0.079351837124    -0.046436727049
0.325     0.058839663143    -0.065244161503    0.000012274498    -0.000000502123    0.060726652130    -0.037747223903    0.000006570084    -0.000005166545
            0.000012274498    -0.000000502123    0.073681799405    -0.059881683817    0.000568479333    0.000311123378    0.069506299722    -0.030662589702
            0.060726652130    -0.037747223903    0.000568479333    0.000311123378    0.059162780778    -0.065070620583    0.000011548629    -0.000001294949
            0.000006570084    -0.000005166545    0.069506299722    -0.030662589702    0.000011548629    -0.000001294949    0.074435102007    -0.060504045986
0.350     0.044527291511    -0.075480869362    0.000013801143    -0.000001994288    0.051226397972    -0.048616101225    0.000006495172    -0.000006580631
            0.000013801143    -0.000001994288    0.065585938320    -0.073153827967    0.000624180833    0.000282498700    0.065588672451    -0.042930549429
            0.051226397972    -0.048616101225    0.000624180833    0.000282498700    0.045032111911    -0.075398726956    0.000012327732    -0.000002693449
            0.000006495172    -0.000006580631    0.065588672451    -0.042930549429    0.000012327732    -0.000002693449    0.066446888299    -0.073966060063
0.375     0.027301571689    -0.082618365349    0.000015218065    -0.000004179554    0.038699838598    -0.057365716918    0.000006169129    -0.000008236595
            0.000015218065    -0.000004179554    0.054554245626    -0.085116863798    0.000676415459    0.000245756567    0.058943511786    -0.054628520069
            0.038699838598    -0.057365716918    0.000676415459    0.000245756567    0.027983777150    -0.082683997743    0.000012917634    -0.000004516653
            0.000006169129    -0.000008236595    0.058943511786    -0.054628520069    0.000012917634    -0.000004516653    0.055504443279    -0.086154298688
0.400     0.007896938708    -0.085931854675    0.000016240370    -0.000007100772    0.023658180998    -0.063247942362    0.000005450955    -0.000010110021
            0.000016240370    -0.000007100772    0.040859526981    -0.095139625610    0.000723902255    0.000201370698    0.049693050602    -0.065174404575
            0.023658180998    -0.063247942362    0.000723902255    0.000201370698    0.008736559501    -0.086203329383    0.000013124364    -0.000006760246
            0.000005450955    -0.000010110021    0.049693050602    -0.065174404575    0.000013124364    -0.000006760246    0.041871731947    -0.096436115799
0.425     -0.012775766907    -0.084875016899    0.000016550530    -0.000010681303    0.006797128431    -0.065637871240    0.000004192194    -0.000012108567
            0.000016550530    -0.000010681303    0.024905295889    -0.102652939301    0.000765410064    0.000150075882    0.038080027862    -0.074013206450
            0.006797128431    -0.065637871240    0.000765410064    0.000150075882    -0.011815045432    -0.085407262759    0.000012742144    -0.000009332927
            0.000004192194    -0.000012108567    0.038080027862    -0.074013206450    0.000012742144    -0.000009332927    0.025943084538    -0.104238251931
0.450     -0.033674700032    -0.079134206884    0.000015851372    -0.000014711692    -0.011036373969    -0.064093730634    0.000002269919    -0.000014067096
            0.000015851372    -0.000014711692    0.007213669882    -0.107183146060    0.000799833996    0.000092865953    0.024463544712    -0.080651787700
            -0.011036373969    -0.064093730634    0.000799833996    0.000092865953    -0.032644895396    -0.079974482333    0.000011593940    -0.000012051220
            0.000002269919    -0.000014067096    0.024463544712    -0.080651787700    0.000011593940    -0.000012051220    0.008232023309    -0.109080867307
0.475     -0.053684188610    -0.068653876213    0.000013920532    -0.000018856835    -0.028887971638    -0.058385269253    -0.000000381275    -0.000015755581
            0.000013920532    -0.000018856835    -0.011597731264    -0.108369168925    0.000826268867    0.000030965521    0.009304054375    -0.084672930413
            -0.028887971638    -0.058385269253    0.000826268867    0.000030965521    -0.052651160321    -0.069837424924    0.000009570096    -0.000014650756
            -0.000000381275    -0.000015755581    0.009304054375    -0.084672930413    0.000009570096    -0.000014650756    -0.010650813090    -0.110594228681
0.500     -0.071688263765    -0.053661429606    0.000010663224    -0.000022690178    -0.045761602340    -0.048531682241    -0.000003738678    -0.000016905006
            0.000010663224    -0.000022690178    -0.030841813272    -0.105988480153    0.000844075793    -0.000034226888    -0.006856496643    -0.085766980960
            -0.045761602340    -0.048531682241    0.000844075793    -0.000034226888    -0.070728266477    -0.055207448583    0.000006663967    -0.000016816756
            -0.000003738678    -0.000016905006    -0.006856496643    -0.085766980960    0.000006663967    -0.000016816756    -0.030024287890    -0.108545202838
0.525     -0.086640330501    -0.034658992324    0.000006146145    -0.000025745230    -0.060677460484    -0.034799394699    -0.000007674794    -0.000017241895
            0.000006146145    -0.000025745230    -0.049790734471    -0.099963269213    0.000852924684    -0.000101215108    -0.023414191576    -0.083736965352
            -0.060677460484    -0.034799394699    0.000852924684    -0.000101215108    -0.085836343971    -0.036567885147    0.000002990903    -0.000018225894
            -0.000007674794    -0.000017241895    -0.023414191576    -0.083736965352    0.000002990903    -0.000018225894    -0.049164061206    -0.102844179419
0.550     -0.097643689474    -0.012401913909    0.000000609950    -0.000027583510    -0.072752530888    -0.017698407948    -0.000011955757    -0.000016534419
            0.000000609950    -0.000027583510    -0.067712412724    -0.090373149342    0.000852809296    -0.000168497801    -0.039735837357    -0.078521023358
            -0.072752530888    -0.017698407948    0.000852809296    -0.000168497801    -0.097079337894    -0.014653413082    -0.000001210341    -0.000018598387
            -0.000011955757    -0.000016534419    -0.039735837357    -0.078521023358    -0.000001210341    -0.000018598387    -0.067338589819    -0.093557004823
0.575     -0.104007952804    0.012149505644    -0.000005547484    -0.000027859251    -0.081249550510    0.002056686303    -0.000016258762    -0.000014632006
            -0.000005547484    -0.000027859251    -0.083899333230    -0.077448359034    0.000844028745    -0.000234656438    -0.055180350206    -0.070186323634
            -0.081249550510    0.002056686303    0.000844028745    -0.000234656438    -0.103762817157    0.009595976387    -0.000005598604    -0.000017744406
            -0.000016258762    -0.000014632006    -0.055180350206    -0.070186323634    -0.000005598604    -0.000017744406    -0.083837909595    -0.080900495874
0.600     -0.105304404458    0.037894811991    -0.000011815178    -0.000026378580    -0.085641185254    0.023594883792    -0.000020208107    -0.000011500941
            -0.000011815178    -0.000026378580    -0.097706670864    -0.061564570274    0.000827138349    -0.000298433739    -0.069137239505    -0.058936638139
            -0.085641185254    0.023594883792    0.000827138349    -0.000298433739    -0.105447901131    0.035098964469    -0.000009770652    -0.000015602594
            -0.000020208107    -0.000011500941    -0.069137239505    -0.058936638139    -0.000009770652    -0.000015602594    -0.098011581388    -0.065236740697
0.625     -0.101384678503    0.063666960357    -0.000017630092    -0.000023131838    -0.085625503805    0.045951752083    -0.000023419713    -0.000007238053
            -0.000017630092    -0.000023131838    -0.108577017250    -0.043224573115    0.000802880570    -0.000358783896    -0.081044962127    -0.045095467861
            -0.085625503805    0.045951752083    0.000802880570    -0.000358783896    -0.101972138455    0.060704861484    -0.000013312220    -0.000012256093
            -0.000023419713    -0.000007238053    -0.081044962127    -0.045095467861    -0.000013312220    -0.000012256093    -0.109293640774    -0.047055801072
0.650     -0.092389032420    0.088313745834    -0.000022450765    -0.000018302758    -0.081150233678    0.068138663585    -0.000025552894    -0.000002069287
            -0.000022450765    -0.000018302758    -0.116071243258    -0.023035339805    0.000772103284    -0.000414895496    -0.090426565462    -0.029096141962
            -0.081150233678    0.068138663585    0.000772103284    -0.000414895496    -0.093457428300    0.085272964760    -0.000015854918    -0.000007929365
            -0.000025552894    -0.000002069287    -0.090426565462    -0.029096141962    -0.000015854918    -0.000007929365    -0.117233218539    -0.026954453190
0.675     -0.078719740571    0.110766406025    -0.000025822434    -0.000012246667    -0.072387539152    0.089201664925    -0.000026352050    0.000003674455
            -0.000025822434    -0.000012246667    -0.119882383063    -0.001681139837    0.000735685777    -0.000466181435    -0.096898603469    -0.011457678892
            -0.072387539152    0.089201664925    0.000735685777    -0.000466181435    -0.080285911001    0.107741635801    -0.000017123088    -0.000002961318
            -0.000026352050    0.000003674455    -0.096898603469    -0.011457678892    -0.000017123088    -0.000002961318    -0.121509386186    -0.005608220528
0.700     -0.061005472407    0.130104618966    -0.000027433417    -0.000005446807    -0.059719393042    0.108283404607    -0.000025681239    0.000009594302
            -0.000027433417    -0.000005446807    -0.119852934203    0.020109987224    0.000694475410    -0.000512245727    -0.100199620073    0.007237981881
            -0.059719393042    0.108283404607    0.000694475410    -0.000512245727    -0.063064848865    0.127192383989    -0.000016970162    0.000002236918
            -0.000025681239    0.000009594302    -0.100199620073    0.007237981881    -0.000016970162    0.000002236918    -0.121948467211    0.016259355083
0.725     -0.040046729989    0.145595462099    -0.000027144052    0.000001544146    -0.043686644967    0.124652662191    -0.000023535339    0.000015268708
            -0.000027144052    0.000001544146    -0.115974642670    0.041596288634    0.000649250657    -0.000552834601    -0.100184212164    0.026371889308
            -0.043686644967    0.124652662191    0.000649250657    -0.000552834601    -0.042574201242    0.142889104346    -0.000015390976    0.000007232045
            -0.000023535339    0.000015268708    -0.100184212164    0.026371889308    -0.000015390976    0.000007232045    -0.118525409639    0.037908584521
0.750     -0.016758217066    0.156723058062    -0.000024996712    0.000008168601    -0.024952689677    0.137740434110    -0.000020039778    0.000020300882
            -0.000024996712    0.000008168601    -0.108388963141    0.062058364925    0.000600705205    -0.000587782826    -0.096839111320    0.045319191767
            -0.024952689677    0.137740434110    0.000600705205    -0.000587782826    -0.019709721693    0.154308064311    -0.000012518557    0.000011620553
            -0.000020039778    0.000020300882    -0.096839111320    0.045319191767    -0.000012518557    0.000011620553    -0.111364261307    0.058617831169
0.775     0.007888098907    0.163191920338    -0.000021199100    0.000013921192    -0.004254860863    0.147139353484    -0.000015429095    0.000024356239
            -0.000021199100    0.000013921192    -0.097374081565    0.080825243439    0.000549456744    -0.000616966982    -0.090266473142    0.063468234448
            -0.004254860863    0.147139353484    0.000549456744    -0.000616966982    0.004572985476    0.161142805905    -0.000008599814    0.000015069506
            -0.000015429095    0.000024356239    -0.090266473142    0.063468234448    -0.000008599814    0.000015069506    -0.100726058601    0.077710585377
