# GHz S RI R 45
0.000     0.015269841948    0.001923274860    -0.000002157636    -0.000004746540    0.000714375825    0.001644598786    -0.000003099616    -0.000006891453
            -0.000002157637    -0.000004746540    0.015523029692    0.001468074835    -0.000001470268    -0.000003126932    0.000746274081    0.001402612331
            0.000714375699    0.001644598731    -0.000001470267    -0.000003126932    0.015219020642    0.001910829412    -0.000002208310    -0.000004821087
            -0.000003099610    -0.000006891453    0.000746273814    0.001402612360    -0.000002208309    -0.000004821087    0.015466833068    0.001478021853
0.025     0.019576552299    0.010732391554    -0.000004838541    -0.000010421097    0.002266196765    0.009589479868    -0.000006922400    -0.000015140606
            -0.000004838453    -0.000010421121    0.018893919727    0.009988640984    -0.000003276001    -0.000006858483    0.001758711525    0.009326177104
            0.002263608237    0.009592239053    -0.000003276064    -0.000006858467    0.019501078008    0.010680279123    -0.000004919376    -0.000010588026
            -0.000006922399    -0.000015140602    0.001761074448    0.009324570946    -0.000004919373    -0.000010588028    0.018833386235    0.010033948767
0.050     0.025817566678    0.017472768836    -0.000010426420    -0.000017987452    0.006684190793    0.018167317757    -0.000014852301    -0.000026225278
            -0.000010426417    -0.000017987454    0.023105928292    0.016762247823    -0.000007045062    -0.000011792346    0.004779356597    0.018079801012
            0.006684156682    0.018167347356    -0.000007045064    -0.000011792345    0.025709861846    0.017366409021    -0.000010554081    -0.000018302943
            -0.000014852302    -0.000026225279    0.004779485564    0.018079861045    -0.000010554081    -0.000018302943    0.023047696106    0.016858717146
0.075     0.033669396179    0.021955303461    -0.000017605862    -0.000023555732    0.013475595430    0.024988448775    -0.000025054193    -0.000034567767
            -0.000017605862    -0.000023555732    0.028053962740    0.022212130158    -0.000011883660    -0.000015346698    0.009491265409    0.025781766183
            0.013475587900    0.024988449427    -0.000011883660    -0.000015346698    0.033518009178    0.021823670455    -0.000017807952    -0.000024040178
            -0.000025054193    -0.000034567767    0.009491263986    0.025781772034    -0.000017807952    -0.000024040178    0.028008633999    0.022364510621
0.100     0.042811461564    0.023770200519    -0.000026086737    -0.000027082320    0.022036501796    0.029502835692    -0.000037198020    -0.000040118743
            -0.000026086737    -0.000027082320    0.033678979114    0.026216212846    -0.000017572516    -0.000017486990    0.015519878801    0.032108558613
            0.022036501796    0.029502835692    -0.000017572516    -0.000017486990    0.042612198007    0.023633929542    -0.000026424381    -0.000027755550
            -0.000037198020    -0.000040118743    0.015519856760    0.032108565934    -0.000026424381    -0.000027755550    0.033655757787    0.026424335075
0.125     0.052452228119    0.022587229016    -0.000035405621    -0.000028385568    0.031666780582    0.031305573344    -0.000050698078    -0.000042592137
            -0.000035405621    -0.000028385568    0.039553282990    0.028656241306    -0.000023778831    -0.000018095124    0.022455678356    0.036836298603
            0.031666780582    0.031305573344    -0.000023778831    -0.000018095124    0.052208591921    0.022467456826    -0.000035967369    -0.000029246528
            -0.000050698079    -0.000042592138    0.022455678356    0.036836298603    -0.000035967369    -0.000029246528    0.039563719526    0.028920482772
0.150     0.061863422887    0.018264373254    -0.000045068820    -0.000027468359    0.041599325020    0.030194273385    -0.000064905734    -0.000041922746
            -0.000045068820    -0.000027468359    0.045367546814    0.029555280162    -0.000030153811    -0.000017186926    0.029856718726    0.039856789369
            0.041599325020    0.030194273385    -0.000030153811    -0.000017186926    0.061588887015    0.018184997088    -0.000045961161    -0.000028474310
            -0.000064905734    -0.000041922746    0.029856718726    0.039856789369    -0.000045961161    -0.000028474310    0.045422115874    0.029869531362
0.175     0.070110086759    0.010906299415    -0.000054636524    -0.000024390002    0.051037720018    0.026150976789    -0.000079217003    -0.000038113688
            -0.000054636524    -0.000024390002    0.050654984200    0.029040856894    -0.000036392266    -0.000014816078    0.037279397578    0.041174502832
            0.051037720018    0.026150976789    -0.000036392266    -0.000014816078    0.069826403567    0.010884676760    -0.000055963458    -0.000025451107
            -0.000079217003    -0.000038113688    0.037279397578    0.041174502832    -0.000055963458    -0.000025451107    0.050765221677    0.029397383635
0.200     0.076365514710    0.000875223152    -0.000063741660    -0.000019306340    0.059210848243    0.019361496964    -0.000093097172    -0.000031300183
            -0.000063741660    -0.000019306340    0.055043209079    0.027378561633    -0.000042241275    -0.000011105040    0.044304884309    0.040910418064
            0.059210848243    0.019361496964    -0.000042241276    -0.000011105040    0.076101505635    0.000921617894    -0.000065585923    -0.000020281966
            -0.000093097172    -0.000031300183    0.044304884309    0.040910418064    -0.000065585923    -0.000020281966    0.055219841282    0.027766619110
0.225     0.079914947685    -0.011281975386    -0.000072089589    -0.000012393280    0.065409999211    0.010194737883    -0.000106082179    -0.000021648729
            -0.000072089589    -0.000012393280    0.058264712822    0.024909162014    -0.000047501338    -0.000006187658    0.050565761322    0.039282124345
            0.065409999211    0.010194737883    -0.000047501338    -0.000006187658    0.079703986258    -0.011167188239    -0.000074489195    -0.000013099109
            -0.000106082179    -0.000021648729    0.050565761322    0.039282124345    -0.000074489195    -0.000013099109    0.058516563859    0.025314641425
0.250     0.080205217473    -0.024848268114    -0.000079466128    -0.000003843515    0.069037130290    -0.000816290198    -0.000117788645    -0.000009371698
            -0.000079466128    -0.000003843515    0.060156962045    0.022041606031    -0.000052030140    -0.000000207728    0.055770799076    0.036596737751
            0.069037130290    -0.000816290198    -0.000052030140    -0.000000207728    0.080082587171    -0.024675056105    -0.000082394748    -0.000004063868
            -0.000117788645    -0.000009371698    0.055770799076    0.036596737751    -0.000082394748    -0.000004063868    0.060489061642    0.022447083592
0.275     0.076858572369    -0.038984260822    -0.000085697173    0.000006182525    0.069628975142    -0.013001640036    -0.000127871623    0.000005335308
            -0.000085697173    0.000006182525    0.060676458381    0.019206439326    -0.000055712966    0.000006713133    0.059721201575    0.033219870968
            0.069628975142    -0.013001640036    -0.000055712966    0.000006713133    0.076858221315    -0.038774258307    -0.000089049278    0.000006666531
            -0.000127871623    0.000005335308    0.059721201575    0.033219870968    -0.000089049278    0.000006666531    0.061089327790    0.019592545872
0.300     0.069716638621    -0.052768077936    -0.000090641895    0.000017549382    0.066894188014    -0.025591064044    -0.000136024093    0.000022270241
            -0.000090641895    0.000017549382    0.059899925505    0.016841775432    -0.000058457858    0.000014472282    0.062326157286    0.029558697409
            0.066894188014    -0.025591064044    -0.000058457858    0.000014472282    0.069867570847    -0.052554719118    -0.000094226859    0.000018936426
            -0.000136024093    0.000022270241    0.062326157286    0.029558697409    -0.000094226859    0.000018936426    0.060388378542    0.017188004486
0.325     0.058839663143    -0.065244161503    -0.000094140052    0.000030156334    0.060726652130    -0.037747223903    -0.000141922065    0.000041244958
            -0.000094140052    0.000030156334    0.058023866804    0.015347353245    -0.000060157467    0.000022991382    0.063606595055    0.026026604557
            0.060726652130    -0.037747223903    -0.000060157467    0.000022991382    0.059162780778    -0.065070620583    -0.000097687271    0.000032590447
            -0.000141922065    0.000041244958    0.063606595055    0.026026604557    -0.000097687271    0.000032590447    0.058576711617    0.015634055445
0.350     0.044527291511    -0.075480869362    -0.000096007478    0.000043918670    0.051226397972    -0.048616101225    -0.000145227397    0.000062054022
            -0.000096007478    0.000043918670    0.055354193199    0.015067856628    -0.000060689203    0.000032195228    0.063700174539    0.023021470961
            0.051226397972    -0.048616101225    -0.000060689203    0.000032195228    0.045032111911    -0.075398726956    -0.000099185417    0.000047453468
            -0.000145227397    0.000062054022    0.063700174539    0.023021470961    -0.000099185417    0.000047453468    0.055954321824    0.015278085097
0.375     0.027301571689    -0.082618365349    -0.000095998069    0.000058734233    0.038699838598    -0.057365716918    -0.000145550402    0.000084455077
            -0.000095998069    0.000058734233    0.052288690521    0.016252498272    -0.000059887302    0.000041996019    0.062850012931    0.020887174809
            0.038699838598    -0.057365716918    -0.000059887302    0.000041996019    0.027983777150    -0.082683997743    -0.000098440782    0.000063312899
            -0.000145550402    0.000084455077    0.062850012931    0.020887174809    -0.000098440782    0.000063312899    0.052913487682    0.016373507115
0.400     0.007896938708    -0.085931854675    -0.000093818556    0.000074453697    0.023658180998    -0.063247942362    -0.000142478504    0.000108118893
            -0.000093818556    0.000074453697    0.049294543584    0.019041934856    -0.000057559745    0.000052267147    0.061395276364    0.019894348471
            0.023658180998    -0.063247942362    -0.000057559745    0.000052267147    0.008736559501    -0.086203329383    -0.000095168177    0.000079894622
            -0.000142478504    0.000108118893    0.061395276364    0.019894348471    -0.000095168177    0.000079894622    0.049917210755    0.019067380264
0.425     -0.012775766907    -0.084875016899    -0.000089125601    0.000090834045    0.006797128431    -0.065637871240    -0.000135573775    0.000132595862
            -0.000089125601    0.000090834045    0.046875186008    0.023440246680    -0.000053485131    0.000062812625    0.059744069909    0.020204944927
            0.006797128431    -0.065637871240    -0.000053485131    0.000062812625    -0.011815045432    -0.085407262759    -0.000089073413    0.000096829258
            -0.000135573775    0.000132595862    0.059744069909    0.020204944927    -0.000089073413    0.000096829258    0.047466295835    0.023371413956
0.450     -0.033674700032    -0.079134206884    -0.000081575539    0.000107512282    -0.011036373969    -0.064093730634    -0.000124436243    0.000157296743
            -0.000081575539    0.000107512282    0.045537837395    0.029313394117    -0.000047455924    0.000073349935    0.058348504473    0.021862637446
            -0.011036373969    -0.064093730634    -0.000047455924    0.000073349935    -0.032644895396    -0.079974482333    -0.000079910013    0.000113642634
            -0.000124436243    0.000157296743    0.058348504473    0.021862637446    -0.000079910013    0.000113642634    0.046067560963    0.029160213793
0.475     -0.053684188610    -0.068653876213    -0.000070857147    0.000123975099    -0.028887971638    -0.058385269253    -0.000108736458    0.000181465950
            -0.000070857147    0.000123975099    0.045749712332    0.036381100319    -0.000039299681    0.000083494929    0.057663076331    0.024772431900
            -0.028887971638    -0.058385269253    -0.000039299681    0.000083494929    -0.052651160321    -0.069837424924    -0.000067504005    0.000129744250
            -0.000108736458    0.000181465950    0.057663076331    0.024772431900    -0.000067504005    0.000129744250    0.046190122003    0.036162262219
0.500     -0.071688263765    -0.053661429606    -0.000056772674    0.000139574754    -0.045761602340    -0.048531682241    -0.000088312909    0.000204198665
            -0.000056772674    0.000139574754    0.047902352394    0.044234278989    -0.000028940704    0.000092775704    0.058112158879    0.028710100489
            -0.045761602340    -0.048531682241    -0.000028940704    0.000092775704    -0.070728266477    -0.055207448583    -0.000051818415    0.000144455365
            -0.000088312909    0.000204198665    0.058112158879    0.028710100489    -0.000051818415    0.000144455365    0.048230338571    0.043977136601
0.525     -0.086640330501    -0.034658992324    -0.000039275810    0.000153538092    -0.060677460484    -0.034799394699    -0.000063204878    0.000224477367
            -0.000039275810    0.000153538092    0.052270203644    0.052352417899    -0.000016424510    0.000100651533    0.060042996270    0.033325685105
            -0.060677460484    -0.034799394699    -0.000016424510    0.000100651533    -0.085836343971    -0.036567885147    -0.000032988009    0.000157029465
            -0.000063204878    0.000224477367    0.060042996270    0.033325685105    -0.000032988009    0.000157029465    0.052469987238    0.052091881730
0.550     -0.097643689474    -0.012401913909    -0.000018543118    0.000165043691    -0.072752530888    -0.017698407948    -0.000033724572    0.000241248555
            -0.000018543118    0.000165043691    0.058985721807    0.060143242710    -0.000001962528    0.000106568161    0.063700517081    0.038176637201
            -0.072752530888    -0.017698407948    -0.000001962528    0.000106568161    -0.097079337894    -0.014653413082    -0.000011350741    0.000166730978
            -0.000033724572    0.000241248555    0.063700517081    0.038176637201    -0.000011350741    0.000166730978    0.059050966539    0.059919252362
0.575     -0.104007952804    0.012149505644    0.000005011379    0.000173271145    -0.081249550510    0.002056686303    -0.000000468533    0.000253493357
            0.000005011379    0.000173271145    0.068015459911    0.066980130938    0.000014065674    0.000110004999    0.069192471608    0.042754029948
            -0.081249550510    0.002056686303    0.000014065674    0.000110004999    -0.103762817157    0.009595976387    0.000012546634    0.000172883767
            -0.000000468533    0.000253493357    0.069192471608    0.042754029948    0.000012546634    0.000172883767    0.067950811696    0.066835846761
0.600     -0.105304404458    0.037894811991    0.000030737119    0.000177510912    -0.085641185254    0.023594883792    0.000035693621    0.000260343134
            0.000030737119    0.000177510912    0.079161547831    0.072254185663    0.000031123284    0.000110550408    0.076486579466    0.046531877645
            -0.085641185254    0.023594883792    0.000031123284    0.000110550408    -0.105447901131    0.035098964469    0.000037972391    0.000174961301
            0.000035693621    0.000260343134    0.076486579466    0.046531877645    0.000037972391    0.000174961301    0.078983614324    0.072232144132
0.625     -0.101384678503    0.063666960357    0.000057786442    0.000177216940    -0.085625503805    0.045951752083    0.000073677292    0.000261139866
            0.000057786442    0.000177216940    0.092064361240    0.075416605604    0.000048551528    0.000107938814    0.085399872395    0.049001537615
            -0.085625503805    0.045951752083    0.000048551528    0.000107938814    -0.101972138455    0.060704861484    0.000064053578    0.000172627176
            0.000073677292    0.000261139866    0.085399872395    0.049001537615    0.000064053578    0.000172627176    0.091801760502    0.075555532655
0.650     -0.092389032420    0.088313745834    0.000085174274    0.000172088406    -0.081150233678    0.068138663585    0.000112235309    0.000255524308
            0.000085174274    0.000172088406    0.106234339461    0.076022656958    0.000065637743    0.000102100297    0.095624260784    0.049718961845
            -0.081150233678    0.068138663585    0.000065637745    0.000102100296    -0.093457428300    0.085272964760    0.000089859900    0.000165788854
            0.000112235309    0.000255524308    0.095624260784    0.049718961845    0.000089859900    0.000165788854    0.105926300789    0.076354747494
0.675     -0.078719740571    0.110766406025    0.000111857852    0.000162076527    -0.072387539152    0.089201664925    0.000150072788    0.000243441080
            0.000111857852    0.000162076527    0.121077223477    0.073760450286    0.000081666446    0.000093154297    0.106738165962    0.048330027666
            -0.072387539152    0.089201664925    0.000081666446    0.000093154297    -0.080285911001    0.107741635801    0.000114461408    0.000154589559
            0.000150072788    0.000243441080    0.106738165962    0.048330027666    0.000114461408    0.000154589559    0.120771967374    0.074308243514
0.700     -0.061005472407    0.130104618966    0.000136830021    0.000147408990    -0.059719393042    0.108283404607    0.000185936683    0.000225156957
            0.000136830021    0.000147408990    0.135942264314    0.068471763965    0.000095993795    0.000081413118    0.118250255538    0.044598448270
            -0.059719393042    0.108283404607    0.000095993795    0.000081413118    -0.063064848865    0.127192383989    0.000137024349    0.000139400281
            0.000185936683    0.000225156957    0.118250255538    0.044598448270    0.000137024349    0.000139400281    0.135694205728    0.069246377931
0.725     -0.040046729989    0.145595462099    0.000159170636    0.000128543430    -0.043686644967    0.124652662191    0.000218701159    0.000201196737
            0.000159170636    0.000128543430    0.150156406623    0.060157789957    0.000108082840    0.000067327272    0.129620333307    0.038411922624
            -0.043686644967    0.124652662191    0.000108082840    0.000067327272    -0.042574201242    0.142889104346    0.000156845472    0.000120763993
            0.000218701159    0.000201196737    0.129620333307    0.038411922624    0.000156845472    0.000120763993    0.150024481874    0.061156057992
0.750     -0.016758217066    0.156723058062    0.000178135256    0.000106128150    -0.024952689677    0.137740434110    0.000247418041    0.000172324906
            0.000178135256    0.000106128150    0.163072334487    0.048972153562    0.000117557213    0.000051450965    0.140305944148    0.029788528902
            -0.024952689677    0.137740434110    0.000117557213    0.000051450965    -0.019709721693    0.154308064311    0.000173408713    0.000099348359
            0.000247418041    0.000172324906    0.140305944148    0.029788528902    0.000173408713    0.000099348359    0.163114685797    0.050178058656
0.775     0.007888098907    0.163191920338    0.000193156792    0.000080935696    -0.004254860863    0.147139353484    0.000271366791    0.000139433539
            0.000193156792    0.000080935696    0.174093766870    0.035208854854    0.000124185937    0.000034383191    0.149777523311    0.018864963284
            -0.004254860863    0.147139353484    0.000124185937    0.000034383191    0.004572985476    0.161142805905    0.000186379058    0.000075876195
            0.000271366791    0.000139433539    0.149777523311    0.018864963284    0.000186379058    0.000075876195    0.174365628356    0.036592096572
