!$
! Info: Touchstone file created by Circ.  Input file=Intel_C2M_200G_8p0in_202208016_staggered.circ
!$
# Hz S RI R 50
0	0.02514263	7.968594e-24	-0.0001029068	1.260244e-20	0.0003462215	8.679696e-22	-9.864275e-05	1.208025e-20
	-0.0001029068	1.260245e-20	0.02459035	4.397001e-24	-0.0001099805	1.346872e-20	0.0001237129	3.078511e-22
	0.000346288	8.685824e-22	-0.0001099805	1.346873e-20	0.02514386	8.154842e-24	-0.000102932	1.260554e-20
	-9.864274e-05	1.208025e-20	0.0001237698	3.079781e-22	-0.0001029319	1.260553e-20	0.02458832	4.161753e-24
1e+07	0.03109004	0.003321535	-0.0007181496	-7.81793e-05	0.00158598	0.006833679	-6.169407e-05	-0.000102278
	-0.0007181496	-7.81793e-05	0.02983924	0.004022567	-0.0005109527	0.0001961281	0.002113774	0.006850781
	0.00158598	0.006833679	-0.0005109527	0.0001961281	0.03088494	0.003753498	-0.0005700454	-3.681271e-05
	-6.169407e-05	-0.000102278	0.002113774	0.006850781	-0.0005700454	-3.681271e-05	0.02992592	0.003424724
2e+07	0.03643325	0.001332811	-0.0006777249	-0.0002166737	0.003799371	0.01291303	-9.169693e-05	-0.0001462897
	-0.0006777247	-0.0002166737	0.03550792	0.002869808	-0.0006064549	0.0001484852	0.004890248	0.01256437
	0.003799459	0.01291292	-0.0006064549	0.0001484852	0.03673291	0.002059934	-0.0005364327	-0.0002982369
	-9.169692e-05	-0.0001462897	0.004890256	0.01256436	-0.0005364328	-0.0002982369	0.03491978	0.001926012
3e+07	0.03980807	-0.00328234	-0.0006936801	-0.0003170595	0.007173238	0.01829007	-0.0001392901	-0.0001992309
	-0.0006936801	-0.0003170596	0.03916578	-0.001107682	-0.000683581	0.0001521386	0.008976194	0.01748792
	0.007173214	0.01829004	-0.000683581	0.0001521386	0.04050557	-0.002577548	-0.0005504387	-0.0004137823
	-0.0001392901	-0.0001992308	0.008976176	0.01748795	-0.0005504387	-0.0004137823	0.03807377	-0.001998208
4e+07	0.04175439	-0.008809364	-0.0007391004	-0.0003730211	0.01145779	0.02282377	-0.000203722	-0.0002409659
	-0.0007391004	-0.0003730211	0.04103586	-0.006151243	-0.0007536748	0.0001696161	0.01417972	0.02118138
	0.01145779	0.02282378	-0.0007536748	0.0001696161	0.04275644	-0.00825451	-0.0005966914	-0.0004843327
	-0.000203722	-0.0002409659	0.01417972	0.0211814	-0.0005966915	-0.0004843327	0.03956186	-0.00685082
5e+07	0.04236541	-0.01481195	-0.0008033973	-0.0003974266	0.01646926	0.02633164	-0.0002777849	-0.000267643
	-0.0008033973	-0.0003974266	0.04138374	-0.01151802	-0.0008199083	0.0001964047	0.02016484	0.02345662
	0.01646926	0.02633165	-0.0008199083	0.0001964047	0.04358262	-0.01448542	-0.0006632044	-0.0005222366
	-0.0002777849	-0.000267643	0.02016484	0.02345662	-0.0006632044	-0.0005222366	0.03962633	-0.01194461
6e+07	0.04170485	-0.02088335	-0.0008783108	-0.0003942121	0.02196007	0.02870192	-0.0003586771	-0.0002786309
	-0.0008783108	-0.0003942121	0.04041018	-0.01678446	-0.0008849593	0.0002303309	0.02657975	0.02416806
	0.02196007	0.02870192	-0.0008849593	0.0002303309	0.04304659	-0.02083214	-0.0007406476	-0.0005316515
	-0.0003586771	-0.0002786309	0.02657976	0.02416805	-0.0007406475	-0.0005316515	0.03846008	-0.01688485
7e+07	0.03990898	-0.02669835	-0.0009651753	-0.0003567897	0.02766866	0.02988321	-0.0004437212	-0.0002733501
	-0.0009651753	-0.0003567896	0.03832287	-0.02162673	-0.000951512	0.0002705926	0.03304356	0.02325428
	0.02766866	0.02988321	-0.0009515121	0.0002705926	0.04128339	-0.02694419	-0.000821156	-0.0005153673
	-0.0004437212	-0.0002733501	0.03304355	0.02325428	-0.000821156	-0.0005153673	0.03626714	-0.02136716
8e+07	0.03715207	-0.0320116	-0.001055576	-0.0002832827	0.03333131	0.02988364	-0.0005293333	-0.0002513535
	-0.001055576	-0.0002832827	0.03536874	-0.0258112	-0.001021382	0.0003170622	0.0391717	0.02074206
	0.03333131	0.02988364	-0.001021382	0.0003170622	0.03846761	-0.03255375	-0.0009303824	-0.0004325302
	-0.0005293333	-0.0002513535	0.0391717	0.02074206	-0.0009303824	-0.0004325302	0.03329392	-0.02517117
9e+07	0.033637	-0.03663791	-0.001131002	-0.0001868928	0.03869737	0.02877001	-0.0006129623	-0.0002132079
	-0.001131002	-0.0001868928	0.03181688	-0.02919885	-0.001101304	0.0003697915	0.04459641	0.01674382
	0.03869737	0.02877001	-0.001101304	0.0003697915	0.03480231	-0.03745438	-0.00103675	-0.0002919122
	-0.0006129623	-0.000213208	0.04459642	0.01674383	-0.00103675	-0.0002919121	0.02981417	-0.0281646
1e+08	0.02965559	-0.04043256	-0.001178738	-6.79488e-05	0.04354749	0.02665956	-0.0006923928	-0.0001599964
	-0.001178738	-6.79488e-05	0.0279523	-0.03173816	-0.001212905	0.0004254746	0.0489859	0.01144931
	0.04354749	0.02665956	-0.001212905	0.0004254746	0.03055463	-0.04148419	-0.001100075	-0.0001179331
	-0.0006923928	-0.0001599964	0.04898589	0.01144931	-0.001100075	-0.0001179331	0.02615774	-0.03027035
1.1e+08	0.0253278	-0.04370281	-0.001215468	7.013989e-05	0.04765881	0.02369742	-0.0007664941	-9.285594e-05
	-0.001215468	7.013989e-05	0.02391039	-0.03354037	-0.001303512	0.0004383316	0.05204894	0.005103172
	0.04765881	0.02369742	-0.001303512	0.0004383316	0.02592106	-0.04477052	-0.00112076	1.829041e-05
	-0.0007664942	-9.285594e-05	0.05204894	0.00510317	-0.00112076	1.829039e-05	0.02253198	-0.03193343
1.2e+08	0.02057948	-0.04605448	-0.001249195	0.0002101721	0.05088435	0.02012994	-0.0008344487	-1.098314e-05
	-0.001249195	0.0002101721	0.01990424	-0.03450684	-0.001376308	0.0004864479	0.05355151	-0.001920698
	0.05088435	0.02012994	-0.001376308	0.0004864479	0.02094217	-0.04709388	-0.001143324	0.0001484923
	-0.0008344487	-1.098314e-05	0.0535515	-0.0019207	-0.001143324	0.0001484923	0.01880957	-0.03283963
1.3e+08	0.0157506	-0.04742836	-0.001270765	0.0003559288	0.05314603	0.01618782	-0.0008947186	8.481788e-05
	-0.001270765	0.0003559288	0.01615104	-0.03476017	-0.001445797	0.0005618266	0.0533732	-0.009265995
	0.05314603	0.01618782	-0.001445797	0.0005618266	0.01591699	-0.0484093	-0.001157112	0.0002788751
	-0.0008947186	8.481788e-05	0.0533732	-0.009265996	-0.001157112	0.0002788751	0.01530238	-0.03306157
1.4e+08	0.01109229	-0.04785789	-0.001278158	0.0005070908	0.05441477	0.01211206	-0.00094375	0.0001940507
	-0.001278158	0.0005070908	0.01278891	-0.03445085	-0.001510754	0.0006642254	0.05146818	-0.01655037
	0.05441477	0.01211206	-0.001510754	0.0006642254	0.0110898	-0.04875418	-0.001161059	0.0004100676
	-0.00094375	0.0001940507	0.05146818	-0.01655037	-0.001161059	0.0004100676	0.01216682	-0.03275473
1.5e+08	0.006820019	-0.0474331	-0.001270272	0.0006630017	0.05471687	0.008140149	-0.0009794545	0.0003156482
	-0.001270272	0.0006630017	0.009901736	-0.03374542	-0.001567025	0.0007939835	0.04787296	-0.02338675
	0.05471687	0.008140149	-0.001567025	0.0007939835	0.006675278	-0.0482223	-0.001155177	0.0005425309
	-0.0009794545	0.0003156482	0.04787296	-0.02338675	-0.001155177	0.0005425309	0.009484156	-0.03208667
1.6e+08	0.003111527	-0.0462875	-0.001246161	0.0008229185	0.05413141	0.004494393	-0.0009997526	0.0004482244
	-0.001246161	0.0008229185	0.007521413	-0.03281516	-0.001609079	0.0009505997	0.0427073	-0.02940212
	0.05413141	0.004494393	-0.001609079	0.0009505997	0.002851772	-0.04695105	-0.00113955	0.0006770069
	-0.0009997526	0.0004482244	0.0427073	-0.02940212	-0.00113955	0.0006770069	0.007280306	-0.03122437
1.7e+08	0.0001023419	-0.04458692	-0.001204703	0.0009861089	0.0527849	0.001369562	-0.001002549	0.0005901602
	-0.001204703	0.0009861089	0.005630216	-0.03182467	-0.001630846	0.001132259	0.03616976	-0.03425529
	0.0527849	0.001369563	-0.001630846	0.001132259	-0.0002437348	-0.0451107	-0.001113753	0.0008145172
	-0.001002549	0.0005901602	0.03616976	-0.03425529	-0.001113753	0.0008145172	0.005532962	-0.03032432
1.8e+08	-0.002117006	-0.04251797	-0.001144538	0.001151618	0.05084403	-0.001076038	-0.0009857695	0.0007394561
	-0.001144538	0.001151618	0.004165054	-0.03091911	-0.001626223	0.001335796	0.02852998	-0.03765324
	0.05084403	-0.001076038	-0.001626223	0.001335796	-0.002520251	-0.04289261	-0.001076733	0.0009561454
	-0.0009857695	0.0007394561	0.02852998	-0.03765324	-0.001076733	0.0009561454	0.004177045	-0.02952265
1.9e+08	-0.003503123	-0.04027765	-0.001063969	0.001318157	0.04850597	-0.002728051	-0.0009474543	0.0008937181
	-0.001063969	0.001318157	0.003024746	-0.03021401	-0.001589678	0.001556508	0.02011732	-0.0393658
	0.04850597	-0.002728051	-0.001589678	0.001556508	-0.003933567	-0.04049881	-0.001026483	0.001102696
	-0.0009474543	0.0008937181	0.02011732	-0.0393658	-0.001026483	0.001102696	0.003111952	-0.02892582
2e+08	-0.00405783	-0.03806257	-0.0009613379	0.001483526	0.04598698	-0.003522207	-0.0008858411	0.001050017
	-0.0009613379	0.001483526	0.002079918	-0.0297853	-0.001511015	0.001794957	0.01130642	-0.03923705
	0.04598698	-0.003522207	-0.001511015	0.001794957	-0.004486484	-0.03813034	-0.0009601306	0.001254297
	-0.0008858411	0.001050017	0.01130642	-0.03923705	-0.0009601306	0.001254297	0.002210993	-0.02860252
2.1e+08	-0.00382756	-0.03605885	-0.00083455	0.001645547	0.04351183	-0.003446519	-0.0007994997	0.001204987
	-0.00083455	0.001645547	0.00118593	-0.0296635	-0.001391509	0.002035948	0.002500783	-0.03719391
	0.04351183	-0.003446519	-0.001391509	0.002035948	-0.004225417	-0.03597864	-0.0008744241	0.001410284
	-0.0007994997	0.001204987	0.002500783	-0.03719391	-0.0008744241	0.001410284	0.001333215	-0.0285765
2.2e+08	-0.002896572	-0.03443354	-0.0006818584	0.001800796	0.04130052	-0.002541751	-0.0006874605	0.001354776
	-0.0006818584	0.001800796	0.0001952452	-0.02983073	-0.001229764	0.002271803	-0.005885283	-0.03325101
	0.04130052	-0.002541751	-0.001229764	0.002271803	-0.00323699	-0.03421518	-0.0007656317	0.001568708
	-0.0006874605	0.001354776	-0.005885283	-0.03325101	-0.0007656317	0.001568708	0.0003363785	-0.02882512
2.3e+08	-0.001382462	-0.03332686	-0.0005020998	0.001944987	0.03955716	-0.0008990264	-0.0005494058	0.001495139
	-0.0005020998	0.001944987	-0.001027662	-0.03022196	-0.001026118	0.002494634	-0.01344586	-0.02751204
	0.03955716	-0.0008990264	-0.001026118	0.002494634	-0.001640913	-0.03298461	-0.0006301578	0.001726228
	-0.0005494058	0.001495139	-0.01344586	-0.02751204	-0.0006301578	0.001726228	-0.000909973	-0.0292802
2.4e+08	0.0005720711	-0.0328461	-0.0002948077	0.002073163	0.03845903	0.00134554	-0.0003857696	0.00162154
	-0.0002948077	0.002073163	-0.00259328	-0.03072951	-0.0007823962	0.002696867	-0.01980186	-0.02016649
	0.03845903	0.00134554	-0.0007823962	0.002696867	0.0004170505	-0.03239825	-0.0004649066	0.001878074
	-0.0003857696	0.00162154	-0.01980186	-0.02016649	-0.0004649066	0.001878074	-0.002510703	-0.02983147
2.5e+08	0.002808024	-0.03306196	-6.072529e-05	0.002179797	0.03814669	0.004017849	-0.0001977827	0.001729311
	-6.072529e-05	0.002179797	-0.004575195	-0.03121104	-0.0005017895	0.002871475	-0.02461934	-0.01148257
	0.03814669	0.004017849	-0.0005017895	0.002871475	0.002774244	-0.03253013	-0.0002678475	0.002018221
	-0.0001977827	0.001729311	-0.02461934	-0.01148257	-0.0002678475	0.002018221	-0.004534032	-0.03033615
2.6e+08	0.005158426	-0.03400613	0.0001981809	0.002259117	0.03871648	0.00691524	1.230111e-05	0.001813877
	0.0001981809	0.002259117	-0.007001145	-0.03150131	-0.0001886582	0.003012306	-0.02762612	-0.001796679
	0.03871648	0.00691524	-0.0001886582	0.003012306	0.005259281	-0.03341507	-3.836723e-05	0.002139602
	1.230111e-05	0.001813877	-0.02762612	-0.001796679	-3.836723e-05	0.002139602	-0.007002266	-0.03062873
2.7e+08	0.007458419	-0.03567227	0.0004785404	0.002305484	0.04021523	0.009817945	0.0002414197	0.001870893
	0.0004785404	0.002305484	-0.009846848	-0.0314253	0.0001516773	0.003114186	-0.02862452	0.008501267
	0.04021523	0.009817945	0.0001516773	0.003114186	0.007702562	-0.03504842	0.000222361	0.002234549
	0.0002414197	0.001870893	-0.02862452	0.008501268	0.000222361	0.002234549	-0.009886083	-0.03053549
2.8e+08	0.009553275	-0.03801805	0.0007755807	0.002313771	0.04263754	0.0125001	0.0004854908	0.001896523
	0.0007755807	0.002313771	-0.01303333	-0.03081322	0.0005134461	0.003172972	-0.0275025	0.01898463
	0.04263754	0.0125001	0.0005134461	0.003172972	0.009944133	-0.0373887	0.0005111202	0.002295324
	0.0004854908	0.001896523	-0.0275025	0.01898463	0.0005111202	0.002295324	-0.013102	-0.0298891
2.9e+08	0.01130569	-0.04096896	0.001083202	0.002279731	0.04592566	0.01474272	0.0007396891	0.001887636
	0.001083202	0.002279731	-0.01642957	-0.02951614	0.0008904594	0.003185551	-0.02423976	0.029209
	0.04592566	0.01474272	0.0008904594	0.003185551	0.01184156	-0.04036185	0.0008227199	0.002314652
	0.0007396891	0.001887636	-0.02423976	0.029209	0.0008227199	0.002314652	-0.01651486	-0.02854326
3e+08	0.01260304	-0.04442503	0.001394288	0.002200356	0.04997278	0.01634481	0.0009985462	0.001841989
	0.001394288	0.002200356	-0.01985808	-0.02742033	0.001276306	0.003149762	-0.01890932	0.03873193
	0.04997278	0.01634481	0.001276306	0.003149762	0.0132769	-0.04386665	0.001149991	0.002286326
	0.0009985462	0.001841989	-0.01890932	0.03873193	0.001149991	0.002286326	-0.01994404	-0.02638808
3.1e+08	0.01336114	-0.04826711	0.001700999	0.002074177	0.05462882	0.01713523	0.00125617	0.001758298
	0.001700999	0.002074177	-0.0231051	-0.02445994	0.001664588	0.003064211	-0.01167586	0.0471332
	0.05462882	0.01713523	0.001664588	0.003064211	0.01416076	-0.04778203	0.001484102	0.002205805
	0.00125617	0.001758298	-0.01167586	0.0471332	0.001484102	0.002205805	-0.02317295	-0.02336181
3.2e+08	0.01352689	-0.05236475	0.001995173	0.001901354	0.05970813	0.01698058	0.001506349	0.001636469
	0.001995173	0.001901354	-0.02593316	-0.02062658	0.002048769	0.002928375	-0.002788754	0.05403328
	0.05970813	0.01698058	0.002048769	0.002928375	0.0144357	-0.0519745	0.001815117	0.002070507
	0.001506349	0.001636469	-0.002788754	0.05403328	0.001815117	0.002070507	-0.02596294	-0.01946174
3.3e+08	0.01307933	-0.05658387	0.002268752	0.001683772	0.06499909	0.01579294	0.001742962	0.001477483
	0.002268752	0.001683772	-0.02809713	-0.01597598	0.002422459	0.002742263	0.007428389	0.05910987
	0.06499909	0.01579294	0.002422459	0.002742263	0.01407706	-0.05630599	0.002132486	0.001880186
	0.001742962	0.001477483	0.007428389	0.05910987	0.002132486	0.001880186	-0.02806823	-0.01474853
3.4e+08	0.01202845	-0.06079422	0.002514199	0.001424971	0.07027632	0.01353436	0.00196016	0.001283463
	0.002514199	0.001424971	-0.02936059	-0.01063005	0.002779092	0.00250671	0.01859116	0.06211277
	0.07027632	0.01353436	0.002779092	0.00250671	0.01309168	-0.06064159	0.002425695	0.001637017
	0.00196016	0.001283463	0.01859116	0.06211277	0.002425695	0.001637017	-0.0292538	-0.009349514
3.5e+08	0.01041222	-0.0648761	0.002724858	0.001129929	0.07531139	0.01021764	0.002152521	0.001057546
	0.002724858	0.001129929	-0.02951343	-0.004774356	0.003112164	0.00222323	0.03027054	0.06287372
	0.07531139	0.01021764	0.003112164	0.00222323	0.01151584	-0.06485675	0.002684823	0.00134555
	0.002152521	0.001057546	0.03027054	0.06287372	0.002684823	0.00134555	-0.02931102	-0.003455223
3.6e+08	0.008292868	-0.06872654	0.00289535	0.0008047638	0.07988493	0.00590635	0.00231537	0.0008037712
	0.00289535	0.0008047638	-0.02838749	0.001348429	0.00341517	0.001893998	0.04201049	0.06131436
	0.07988493	0.00590635	0.00341517	0.001893998	0.009411001	-0.06884251	0.002901248	0.001012423
	0.00231537	0.0008037712	0.04201049	0.06131436	0.002901248	0.001012423	-0.02807557	0.002686728
3.7e+08	0.005751511	-0.07226287	0.003021675	0.0004563082	0.08379787	0.0007103685	0.002444884	0.0005267596
	0.003021675	0.0004563082	-0.0258718	0.007448904	0.003681637	0.001522169	0.05334717	0.0574492
	0.08379787	0.0007103685	0.003681637	0.001522169	0.006858621	-0.07251122	0.003068079	0.0006458533
	0.002444884	0.0005267596	0.05334717	0.0574492	0.003068079	0.0006458533	-0.02544085	0.008783167
3.8e+08	0.002882562	-0.07542642	0.00310134	9.188503e-05	0.08688056	-0.005220118	0.002538135	0.0002317399
	0.00310134	9.188503e-05	-0.02192318	0.01320495	0.003905265	0.00111196	0.06382692	0.05138481
	0.08688056	-0.005220118	0.003905265	0.00111196	0.003954808	-0.07579913	0.003180434	0.0002553522
	0.002538135	0.0002317399	0.06382692	0.05138481	0.003180434	0.0002553522	-0.02136874	0.014509
3.9e+08	-0.0002130045	-0.07818458	0.003133338	-0.0002812264	0.0890014	-0.01170229	0.002593189	-7.591566e-05
	0.003133338	-0.0002812264	-0.01657502	0.01827711	0.004080186	0.000668575	0.07302478	0.04331675
	0.0890014	-0.01170229	0.004080186	0.000668575	0.0008031195	-0.07866814	0.003235726	-0.0001490564
	0.002593189	-7.591566e-05	0.07302478	0.04331675	0.003235726	-0.0001490564	-0.01589948	0.01952355
4e+08	-0.003433122	-0.08052988	0.003118006	-0.0006560836	0.09007216	-0.01853045	0.002609041	-0.0003907596
	0.003118006	-0.0006560836	-0.009941651	0.02232833	0.004201112	0.0001982234	0.08056114	0.03352085
	0.09007216	-0.01853045	0.004201112	0.0001982234	-0.002490581	-0.08110727	0.00323357	-0.00055743
	0.002609041	-0.0003907596	0.08056114	0.03352085	0.00323357	-0.00055743	-0.009153012	0.02348957
4.1e+08	-0.006680922	-0.08247937	0.003056099	-0.0010258	0.09005208	-0.02548597	0.002585583	-0.0007074937
	0.003056099	-0.0010258	-0.002218072	0.0250427	0.004264171	-0.0003191782	0.08611635	0.02234367
	0.09005208	-0.02548597	0.004264171	-0.0003191782	-0.005825362	-0.08313026	0.003175682	-0.0009595066
	0.002585583	-0.0007074937	0.08611635	0.02234367	0.003175682	-0.0009595066	-0.001330761	0.02609212
4.2e+08	-0.009870366	-0.08407238	0.002950417	-0.001384973	0.08894866	-0.032349	0.002523487	-0.001021152
	0.002950417	-0.001384973	0.00632427	0.02614271	0.004258131	-0.0008604181	0.08944411	0.01018926
	0.08894866	-0.032349	0.004258131	-0.0008604181	-0.009109704	-0.08477412	0.003065759	-0.001347319
	0.002523487	-0.001021152	0.08944411	0.01018926	0.003065759	-0.001347319	0.007289355	0.0270564
4.3e+08	-0.01293024	-0.08536643	0.002804187	-0.001729268	0.08681686	-0.03890779	0.002423881	-0.00132732
	0.002804187	-0.001729268	0.01534651	0.02540913	0.004179816	-0.001401892	0.09038056	-0.002496411
	0.08681686	-0.03890779	0.004179816	-0.001401892	-0.01226746	-0.08609544	0.002908711	-0.00171442
	0.002423881	-0.00132732	0.09038056	-0.002496411	0.002908711	-0.00171442	0.01636291	0.02616738
4.4e+08	-0.01580841	-0.08643303	0.002620529	-0.002054985	0.08375521	-0.04496994	0.002288404	-0.001621892
	0.002620529	-0.002054985	0.02445466	0.02269582	0.00402948	-0.001933091	0.08885137	-0.01524171
	0.08375521	-0.04496994	0.00402948	-0.001933091	-0.01524035	-0.087166	0.002710312	-0.002055534
	0.002288404	-0.001621892	0.08885137	-0.01524171	0.002710312	-0.002055534	0.02549079	0.02328405
4.5e+08	-0.01847386	-0.08735275	0.002402537	-0.002359265	0.07990122	-0.05037075	0.002118965	-0.001901242
	0.002402537	-0.002359265	0.03321456	0.01794279	0.003809224	-0.002443619	0.08487549	-0.02756746
	0.07990122	-0.05037075	0.003809224	-0.002443619	-0.01799216	-0.08806782	0.002476603	-0.002367263
	0.002118965	-0.001901242	0.08487549	-0.02756746	0.002476603	-0.002367263	0.03423526	0.01835297
4.6e+08	-0.02091813	-0.08820972	0.002153089	-0.002639787	0.07542331	-0.05498136	0.00191754	-0.002162209
	0.002153089	-0.002639787	0.04117206	0.01118634	0.003523079	-0.002923452	0.0785649	-0.03900511
	0.07542331	-0.05498136	0.003523079	-0.002923452	-0.02050948	-0.08888762	0.002213245	-0.002647891
	0.00191754	-0.002162209	0.0785649	-0.03900511	0.002213245	-0.002647891	0.04214045	0.01141787
4.7e+08	-0.02315495	-0.08908509	0.00187459	-0.002894746	0.07051227	-0.0587141	0.001686217	-0.002401875
	0.00187459	-0.002894746	0.04787541	0.002565711	0.003176662	-0.003363665	0.07012114	-0.04911522
	0.07051227	-0.0587141	0.003176662	-0.003363665	-0.02280166	-0.08971075	0.001925438	-0.002896886
	0.001686217	-0.002401875	0.07012114	-0.04911522	0.001925438	-0.002896886	0.04875289	0.002625214
4.8e+08	-0.02521856	-0.09005351	0.001569081	-0.003122415	0.06537176	-0.06152672	0.001426996	-0.002617584
	0.001569081	-0.003122415	0.05289597	-0.007678817	0.002776848	-0.003756792	0.05982841	-0.05750372
	0.06537176	-0.06152672	0.002776848	-0.003756792	-0.02489977	-0.09061609	0.001617184	-0.003114796
	0.001426996	-0.002617584	0.05982841	-0.05750372	0.001617184	-0.003114796	0.05364541	-0.007775688
4.9e+08	-0.02716194	-0.09117658	0.001238302	-0.003320886	0.06020754	-0.06342405	0.001141907	-0.002806752
	0.001238302	-0.003320886	0.05585241	-0.01920689	0.002331725	-0.004096726	0.04804307	-0.06383861
