!$
! Info: Touchstone file created by Circ.  Input file=Intel_C2M_200G_8p0in_202208016_staggered.circ
!$
# Hz S RI R 50
0	0.02457739	4.226384e-24	8.142571e-05	1.187055e-22	0.000124093	3.100612e-22	8.136079e-05	1.185087e-22
	8.142571e-05	1.187055e-22	0.02459035	4.397001e-24	8.140909e-05	1.186272e-22	0.0001237129	3.078511e-22
	0.0001241499	3.101866e-22	8.140908e-05	1.186287e-22	0.0245723	4.029706e-24	8.137407e-05	1.184338e-22
	8.136078e-05	1.185102e-22	0.0001237698	3.079781e-22	8.137407e-05	1.184338e-22	0.02458832	4.161753e-24
1e+07	0.03066562	0.003762603	7.115846e-05	1.775408e-06	0.001760356	0.006702091	3.140307e-06	1.298195e-05
	7.115846e-05	1.775408e-06	0.02983924	0.004022567	7.792295e-05	2.596783e-05	0.002113774	0.006850781
	0.001760356	0.006702091	7.792295e-05	2.596783e-05	0.03090544	0.003445634	3.096777e-05	1.186627e-05
	3.140307e-06	1.298195e-05	0.002113774	0.006850781	3.096777e-05	1.186627e-05	0.02992592	0.003424724
2e+07	0.03586988	0.002170533	5.075614e-05	3.565352e-05	0.004501479	0.01243942	3.169541e-05	3.445054e-05
	5.075614e-05	3.565352e-05	0.03550792	0.002869808	6.978979e-05	-1.097198e-06	0.004890248	0.01256437
	0.004501487	0.0124394	6.978979e-05	-1.097198e-06	0.03568758	0.001615784	1.936438e-05	1.951456e-05
	3.169541e-05	3.445054e-05	0.004890256	0.01256436	1.936438e-05	1.951456e-05	0.03491978	0.001926012
3e+07	0.03917189	-0.001886301	4.195464e-05	4.84511e-05	0.008561856	0.0173661	5.349909e-05	3.468591e-05
	4.195464e-05	4.845109e-05	0.03916578	-0.001107682	6.584562e-05	-5.928982e-06	0.008976194	0.01748792
	0.008561838	0.01736614	6.584562e-05	-5.928978e-06	0.03867496	-0.002402274	1.292697e-05	2.78258e-05
	5.34991e-05	3.468591e-05	0.008976176	0.01748795	1.292697e-05	2.78258e-05	0.03807377	-0.001998208
4e+07	0.04075101	-0.006897908	3.519101e-05	5.366211e-05	0.01375063	0.0210675	7.082399e-05	2.806013e-05
	3.519101e-05	5.366211e-05	0.04103586	-0.006151243	6.478144e-05	-4.321134e-06	0.01417972	0.02118138
	0.01375063	0.02106753	6.478144e-05	-4.321135e-06	0.04002162	-0.007285669	2.141057e-05	2.788096e-05
	7.082399e-05	2.806013e-05	0.01417972	0.0211814	2.141056e-05	2.788096e-05	0.03956186	-0.00685082
5e+07	0.04085998	-0.01216599	4.412219e-05	4.846509e-05	0.01973316	0.02335566	8.40895e-05	1.707823e-05
	4.412219e-05	4.846509e-05	0.04138374	-0.01151802	6.601774e-05	-8.657885e-06	0.02016484	0.02345662
	0.01973316	0.02335567	6.601774e-05	-8.657886e-06	0.03996465	-0.01237493	3.133297e-05	2.269766e-05
	8.40895e-05	1.707823e-05	0.02016484	0.02345662	3.133297e-05	2.269766e-05	0.03962633	-0.01194461
6e+07	0.03969482	-0.01728624	5.830778e-05	3.546245e-05	0.02615896	0.02408295	9.316671e-05	3.067052e-06
	5.830778e-05	3.546245e-05	0.04041018	-0.01678446	6.523732e-05	-1.431313e-05	0.02657975	0.02416806
	0.02615897	0.02408293	6.523732e-05	-1.431313e-05	0.0386947	-0.01728661	3.85836e-05	1.532491e-05
	9.31667e-05	3.067052e-06	0.02657976	0.02416805	3.85836e-05	1.532491e-05	0.03846008	-0.01688485
7e+07	0.03746207	-0.02194549	6.754355e-05	2.000182e-05	0.03264816	0.0231852	9.828919e-05	-1.277612e-05
	6.754355e-05	2.000182e-05	0.03832287	-0.02162673	6.256535e-05	-2.019563e-05	0.03304356	0.02325428
	0.03264816	0.0231852	6.256535e-05	-2.019563e-05	0.03641474	-0.02172232	4.317158e-05	6.639933e-06
	9.828919e-05	-1.277612e-05	0.03304355	0.02325428	4.317158e-05	6.639932e-06	0.03626714	-0.02136716
8e+07	0.03441014	-0.02591633	7.193221e-05	3.218704e-06	0.0388169	0.02068605	9.944132e-05	-2.968602e-05
	7.193221e-05	3.218704e-06	0.03536874	-0.0258112	5.813515e-05	-2.555967e-05	0.0391717	0.02074206
	0.0388169	0.02068605	5.813515e-05	-2.555967e-05	0.03337099	-0.02546497	4.512061e-05	-2.750007e-06
	9.944132e-05	-2.968602e-05	0.0391717	0.02074206	4.512061e-05	-2.750006e-06	0.03329392	-0.02517117
9e+07	0.03081385	-0.02906152	7.141383e-05	-1.411122e-05	0.04429757	0.01669452	9.645406e-05	-4.718806e-05
	7.141383e-05	-1.411122e-05	0.03181688	-0.02919885	5.221089e-05	-2.974413e-05	0.04459641	0.01674382
	0.04429758	0.01669452	5.221089e-05	-2.974413e-05	0.0298383	-0.02838337	4.439576e-05	-1.240972e-05
	9.645405e-05	-4.718806e-05	0.04459642	0.01674383	4.439577e-05	-1.240972e-05	0.02981417	-0.0281646
1e+08	0.02698732	-0.03130888	6.415931e-05	-3.253584e-05	0.04876029	0.01139754	8.757597e-05	-6.602699e-05
	6.415931e-05	-3.253584e-05	0.0279523	-0.03173816	4.492888e-05	-3.180187e-05	0.0489859	0.01144931
	0.04876028	0.01139754	4.492888e-05	-3.180187e-05	0.02615437	-0.03039337	4.006348e-05	-2.247969e-05
	8.757597e-05	-6.602699e-05	0.04898589	0.01144931	4.006348e-05	-2.247969e-05	0.02615774	-0.03027035
1.1e+08	0.02312792	-0.03293711	5.05431e-05	-4.022333e-05	0.05190738	0.005020782	7.169014e-05	-7.533242e-05
	5.05431e-05	-4.022333e-05	0.02391039	-0.03354037	3.939572e-05	-3.112622e-05	0.05204894	0.005103172
	0.05190738	0.00502078	3.939572e-05	-3.112622e-05	0.02255155	-0.03199095	3.22475e-05	-2.676862e-05
	7.169014e-05	-7.533242e-05	0.05204894	0.00510317	3.22475e-05	-2.676862e-05	0.02253198	-0.03193343
1.2e+08	0.01927456	-0.03379865	4.062179e-05	-4.422429e-05	0.05349082	-0.002048806	6.139396e-05	-7.901116e-05
	4.062179e-05	-4.422429e-05	0.01990424	-0.03450684	3.49807e-05	-3.059662e-05	0.05355151	-0.001920698
	0.05349081	-0.002048807	3.49807e-05	-3.059662e-05	0.01884585	-0.03285138	2.632396e-05	-2.916855e-05
	6.139396e-05	-7.901116e-05	0.0535515	-0.0019207	2.632396e-05	-2.916855e-05	0.01880957	-0.03283963
1.3e+08	0.01566639	-0.03398092	3.220858e-05	-4.741117e-05	0.05339246	-0.009453899	5.77734e-05	-7.814095e-05
	3.220858e-05	-4.741117e-05	0.01615104	-0.03476017	3.115631e-05	-3.002646e-05	0.0533732	-0.009265995
	0.05339246	-0.0094539	3.115631e-05	-3.002646e-05	0.01535513	-0.03303549	2.093659e-05	-3.096316e-05
	5.77734e-05	-7.814095e-05	0.0533732	-0.009265996	2.093659e-05	-3.096316e-05	0.01530238	-0.03306157
1.4e+08	0.01244431	-0.03362648	2.467597e-05	-5.005842e-05	0.05156519	-0.01681247	5.357427e-05	-7.805312e-05
	2.467597e-05	-5.005842e-05	0.01278891	-0.03445085	2.775917e-05	-2.949418e-05	0.05146818	-0.01655037
	0.05156518	-0.01681247	2.775917e-05	-2.949418e-05	0.0122368	-0.03269601	1.597478e-05	-3.2024e-05
	5.357427e-05	-7.805312e-05	0.05146818	-0.01655037	1.597478e-05	-3.2024e-05	0.01216682	-0.03275473
1.5e+08	0.009692451	-0.03289797	1.742659e-05	-5.176167e-05	0.04804334	-0.02373766	4.873624e-05	-7.852867e-05
	1.742659e-05	-5.176167e-05	0.009901736	-0.03374542	2.453539e-05	-2.91577e-05	0.04787296	-0.02338675
	0.04804333	-0.02373766	2.453539e-05	-2.91577e-05	0.009572539	-0.03199922	1.33284e-05	-3.180982e-05
	4.873624e-05	-7.852867e-05	0.04787296	-0.02338675	1.33284e-05	-3.180982e-05	0.009484156	-0.03208667
1.6e+08	0.007442096	-0.03196416	1.03724e-05	-5.268484e-05	0.042944	-0.02985632	4.330032e-05	-7.923153e-05
	1.03724e-05	-5.268484e-05	0.007521413	-0.03281516	2.140323e-05	-2.89407e-05	0.0427073	-0.02940212
	0.042944	-0.02985632	2.140323e-05	-2.89407e-05	0.007388703	-0.03111136	1.115596e-05	-3.144767e-05
	4.330032e-05	-7.923153e-05	0.0427073	-0.02940212	1.115596e-05	-3.144767e-05	0.007280306	-0.03122437
1.7e+08	0.005674568	-0.03098777	5.10072e-06	-5.259658e-05	0.03646284	-0.03482652	3.714798e-05	-7.997472e-05
	5.10072e-06	-5.259658e-05	0.005630216	-0.03182467	1.797036e-05	-2.923367e-05	0.03616976	-0.03425529
	0.03646284	-0.03482652	1.797036e-05	-2.923367e-05	0.005663343	-0.03018866	8.714227e-06	-3.127047e-05
	3.714798e-05	-7.997472e-05	0.03616976	-0.03425529	8.714227e-06	-3.127047e-05	0.005532962	-0.03032432
1.8e+08	0.004325716	-0.03011241	1.065239e-06	-5.19947e-05	0.02886642	-0.03835383	3.026704e-05	-8.049336e-05
	1.065239e-06	-5.19947e-05	0.004165054	-0.03091911	1.402131e-05	-2.963671e-05	0.02852998	-0.03765324
	0.02886642	-0.03835383	1.402131e-05	-2.963671e-05	0.00433182	-0.02936726	5.901493e-06	-3.117773e-05
	3.026704e-05	-8.049336e-05	0.02852998	-0.03765324	5.901493e-06	-3.117773e-05	0.004177045	-0.02952265
1.9e+08	0.003293244	-0.02945221	-3.488761e-06	-5.119293e-05	0.02048125	-0.04020587	2.281333e-05	-8.053181e-05
	-3.488761e-06	-5.119293e-05	0.003024746	-0.03021401	9.743456e-06	-2.970363e-05	0.02011732	-0.0393658
	0.02048125	-0.04020587	9.743456e-06	-2.970363e-05	0.003293901	-0.02875406	2.770537e-06	-3.089873e-05
	2.281333e-05	-8.053181e-05	0.02011732	-0.0393658	2.770537e-06	-3.089873e-05	0.003111952	-0.02892582
2e+08	0.002446603	-0.02908182	-8.536052e-06	-5.001805e-05	0.01167927	-0.04022385	1.484991e-05	-7.9903e-05
	-8.536052e-06	-5.001805e-05	0.002079918	-0.0297853	5.159209e-06	-2.934197e-05	0.01130642	-0.03923705
	0.01167927	-0.04022385	5.159209e-06	-2.934197e-05	0.002423101	-0.02841851	-6.516755e-07	-3.033866e-05
	1.484991e-05	-7.9903e-05	0.01130642	-0.03923705	-6.516755e-07	-3.033866e-05	0.002210993	-0.02860252
2.1e+08	0.001640039	-0.02903044	-1.402466e-05	-4.829006e-05	0.002861984	-0.03833094	6.476138e-06	-7.842687e-05
	-1.402466e-05	-4.829006e-05	0.00118593	-0.0296635	3.080878e-07	-2.845269e-05	0.002500783	-0.03719391
	0.002861984	-0.03833094	3.080878e-07	-2.845269e-05	0.001578398	-0.02838543	-4.323364e-06	-2.94058e-05
	6.476138e-06	-7.842687e-05	0.002500783	-0.03719391	-4.323364e-06	-2.94058e-05	0.001333215	-0.0285765
2.2e+08	0.0007248119	-0.02927898	-1.985854e-05	-4.583618e-05	-0.005557642	-0.03453754	-2.168418e-06	-7.593965e-05
	-1.985854e-05	-4.583618e-05	0.0001952452	-0.02983073	-4.742631e-06	-2.694074e-05	-0.005885283	-0.03325101
	-0.005557642	-0.03453754	-4.742631e-06	-2.694074e-05	0.0006170857	-0.02863341	-8.186014e-06	-2.801354e-05
	-2.168418e-06	-7.593965e-05	-0.005885283	-0.03325101	-8.186014e-06	-2.801354e-05	0.0003363785	-0.02882512
2.3e+08	-0.000435818	-0.029761	-2.589982e-05	-4.249924e-05	-0.0131741	-0.02894257	-1.090644e-05	-7.23016e-05
	-2.589982e-05	-4.249924e-05	-0.001027662	-0.03022196	-9.903717e-06	-2.471789e-05	-0.01344586	-0.02751204
	-0.0131741	-0.02894257	-9.903717e-06	-2.471789e-05	-0.0005922497	-0.02909562	-1.216256e-05	-2.608349e-05
	-1.090644e-05	-7.23016e-05	-0.01344586	-0.02751204	-1.216256e-05	-2.608349e-05	-0.000909973	-0.0292802
2.4e+08	-0.001953623	-0.03036735	-3.19694e-05	-3.814839e-05	-0.01960762	-0.02173054	-1.952237e-05	-6.740866e-05
	-3.19694e-05	-3.814839e-05	-0.00259328	-0.03072951	-1.50602e-05	-2.171068e-05	-0.01980186	-0.02016649
	-0.01960762	-0.02173054	-1.50602e-05	-2.171068e-05	-0.002156013	-0.02966303	-1.615942e-05	-2.354918e-05
	-1.952237e-05	-6.740866e-05	-0.01980186	-0.02016649	-1.615942e-05	-2.354918e-05	-0.002510703	-0.02983147
2.5e+08	-0.003903524	-0.03095396	-3.785205e-05	-3.269001e-05	-0.02452239	-0.0131647	-2.777214e-05	-6.120002e-05
	-3.785205e-05	-3.269001e-05	-0.004575195	-0.03121104	-2.007687e-05	-1.786398e-05	-0.02461934	-0.01148257
	-0.02452239	-0.0131647	-2.007687e-05	-1.786398e-05	-0.004144503	-0.0301938	-2.006496e-05	-2.036011e-05
	-2.777214e-05	-6.120002e-05	-0.02461934	-0.01148257	-2.006496e-05	-2.036011e-05	-0.004534032	-0.03033615
2.6e+08	-0.006314504	-0.03135354	-4.330346e-05	-2.607676e-05	-0.02764322	-0.0035768	-3.539088e-05	-5.36661e-05
	-4.330346e-05	-2.607676e-05	-0.007001145	-0.03150131	-2.480005e-05	-1.314737e-05	-0.02762612	-0.001796679
	-0.02764322	-0.0035768	-2.480005e-05	-1.314737e-05	-0.006582641	-0.03052282	-2.375363e-05	-1.648467e-05
	-3.539088e-05	-5.36661e-05	-0.02762612	-0.001796679	-2.375363e-05	-1.648467e-05	-0.007002266	-0.03062873
2.7e+08	-0.009163461	-0.03138865	-4.806166e-05	-1.831449e-05	-0.02876823	0.006647253	-4.210477e-05	-4.485283e-05
	-4.806166e-05	-1.831449e-05	-0.009846848	-0.0314253	-2.906232e-05	-7.557904e-06	-0.02862452	0.008501267
	-0.02876823	0.006647253	-2.906232e-05	-7.557904e-06	-0.009444016	-0.03047612	-2.7088e-05	-1.191322e-05
	-4.210477e-05	-4.485283e-05	-0.02862452	0.008501268	-2.7088e-05	-1.191322e-05	-0.009886083	-0.03053549
2.8e+08	-0.01237227	-0.03088665	-5.185682e-05	-9.469184e-06	-0.02778025	0.01708392	-4.764159e-05	-3.486562e-05
	-5.185682e-05	-9.469184e-06	-0.01303333	-0.03081322	-3.268736e-05	-1.123895e-06	-0.0275025	0.01898463
	-0.02778025	0.01708392	-3.268736e-05	-1.123895e-06	-0.01264829	-0.02988526	-2.992105e-05	-6.663909e-06
	-4.764159e-05	-3.486562e-05	-0.0275025	0.01898463	-2.992105e-05	-6.663909e-06	-0.013102	-0.0298891
2.9e+08	-0.01581039	-0.02969534	-5.442599e-05	3.33585e-07	-0.02465305	0.02729074	-5.174449e-05	-2.386857e-05
	-5.442599e-05	3.33585e-07	-0.01642957	-0.02951614	-3.549446e-05	6.08991e-06	-0.02423976	0.029209
	-0.02465305	0.02729074	-3.549446e-05	6.08991e-06	-0.01606328	-0.02860183	-3.210212e-05	-7.833766e-07
	-5.174449e-05	-2.386858e-05	-0.02423976	0.029209	-3.210212e-05	-7.833766e-07	-0.01651486	-0.02854326
3e+08	-0.01930019	-0.02769741	-5.552576e-05	1.091129e-05	-0.01945327	0.03682592	-5.418327e-05	-1.207992e-05
	-5.552576e-05	1.091129e-05	-0.01985808	-0.02742033	-3.730645e-05	1.398087e-05	-0.01890932	0.03873193
	-0.01945327	0.03682592	-3.730645e-05	1.398087e-05	-0.01951099	-0.02651294	-3.348175e-05	5.649955e-06
	-5.418327e-05	-1.207992e-05	-0.01890932	0.03873193	-3.348175e-05	5.649955e-06	-0.01994404	-0.02638808
3.1e+08	-0.0226271	-0.02482318	-5.494402e-05	2.202183e-05	-0.01233905	0.04526838	-5.476614e-05	2.320931e-07
	-5.494402e-05	2.202183e-05	-0.0231051	-0.02445994	-3.795578e-05	2.241085e-05	-0.01167586	0.0471332
	-0.01233905	0.04526838	-3.795578e-05	2.241085e-05	-0.02277676	-0.02355299	-3.391838e-05	1.252356e-05
	-5.476614e-05	2.320931e-07	-0.01167586	0.0471332	-3.391838e-05	1.252356e-05	-0.02317295	-0.02336181
3.2e+08	-0.02555196	-0.0210604	-5.25108e-05	3.337899e-05	-0.003553427	0.05223633	-5.334856e-05	1.27565e-05
	-5.25108e-05	3.337899e-05	-0.02593316	-0.02062658	-3.729385e-05	3.119904e-05	-0.002788754	0.05403328
	-0.003553427	0.05223633	-3.729385e-05	3.119904e-05	-0.02562295	-0.01971475	-3.328474e-05	1.969386e-05
	-5.334856e-05	1.27565e-05	-0.002788754	0.05403328	-3.328474e-05	1.969386e-05	-0.02596294	-0.01946174
3.3e+08	-0.02782709	-0.01646105	-4.810844e-05	4.465342e-05	0.006585845	0.05740378	-4.984087e-05	2.515078e-05
	-4.810844e-05	4.465342e-05	-0.02809713	-0.01597598	-3.519775e-05	4.013154e-05	0.007428389	0.05910987
	0.006585845	0.05740378	-3.519775e-05	4.013154e-05	-0.02780366	-0.01505387	-3.147647e-05	2.698342e-05
	-4.984087e-05	2.515078e-05	0.007428389	0.05910987	-3.147647e-05	2.698342e-05	-0.02806823	-0.01474853
3.4e+08	-0.0292126	-0.01114379	-4.167807e-05	5.548571e-05	0.0176994	0.06051565	-4.421624e-05	3.704646e-05
	-4.167807e-05	5.548571e-05	-0.02936059	-0.01063005	-3.157962e-05	4.895909e-05	0.01859116	0.06211277
	0.0176994	0.06051565	-3.157962e-05	4.895909e-05	-0.02908246	-0.009692609	-2.841776e-05	3.418818e-05
	-4.421624e-05	3.704646e-05	0.01859116	0.06211277	-2.841776e-05	3.418818e-05	-0.0292538	-0.009349514
3.5e+08	-0.02949414	-0.005291466	-3.322929e-05	6.549414e-05	0.02936216	0.06139776	-3.650986e-05	4.806698e-05
	-3.322929e-05	6.549414e-05	-0.02951343	-0.004774356	-2.639695e-05	5.740368e-05	0.03027054	0.06287372
	0.02936216	0.06139776	-2.639695e-05	5.740368e-05	-0.02924803	-0.003816575	-2.406975e-05	4.107989e-05
	-3.650986e-05	4.806698e-05	0.03027054	0.06287372	-2.406975e-05	4.107989e-05	-0.02931102	-0.003455223
3.6e+08	-0.02849862	0.0008550975	-2.283639e-05	7.428961e-05	0.04112079	0.05996491	-2.682774e-05	5.783012e-05
	-2.283639e-05	7.428961e-05	-0.02838749	0.001348429	-1.965442e-05	6.516996e-05	0.04201049	0.06131436
	0.04112079	0.05996491	-1.965442e-05	6.516996e-05	-0.0281321	0.002330995	-1.843694e-05	4.74127e-05
	-2.682774e-05	5.783012e-05	0.04201049	0.06131436	-1.843694e-05	4.74127e-05	-0.02807557	0.002686728
3.7e+08	-0.02610966	0.007007399	-1.065417e-05	8.14834e-05	0.05251279	0.0562244	-1.534531e-05	6.59642e-05
	-1.065417e-05	8.14834e-05	-0.0258718	0.007448904	-1.141912e-05	7.194829e-05	0.05334717	0.0574492
	0.05251279	0.0562244	-1.141912e-05	7.194829e-05	-0.02562297	0.008460518	-1.156763e-05	5.293399e-05
	-1.534531e-05	6.59642e-05	0.05334717	0.0574492	-1.156763e-05	5.293399e-05	-0.02544085	0.008783167
3.8e+08	-0.02227841	0.01284313	3.094834e-06	8.670134e-05	0.06308429	0.05027523	-2.307612e-06	7.211925e-05
	3.094834e-06	8.670134e-05	-0.02192318	0.01320495	-1.814995e-06	7.743215e-05	0.06382692	0.05138481
	0.06308429	0.05027523	-1.814995e-06	7.743215e-05	-0.02167648	0.01424939	-3.56513e-06	5.73892e-05
	-2.307612e-06	7.211925e-05	0.06382692	0.05138481	-3.56513e-06	5.73892e-05	-0.02136874	0.014509
3.9e+08	-0.01703251	0.01802153	1.810853e-05	8.95967e-05	0.07240865	0.04230548	1.197642e-05	7.597836e-05
	1.810853e-05	8.95967e-05	-0.01657502	0.01827711	8.97007e-06	8.132675e-05	0.07302478	0.04331675
	0.07240865	0.04230548	8.97007e-06	8.132675e-05	-0.01632611	0.0193581	5.421255e-06	6.053481e-05
	1.197642e-05	7.597836e-05	0.07302478	0.04331675	5.421255e-06	6.053481e-05	-0.01589948	0.01952355
4e+08	-0.01048068	0.02220307	3.400954e-05	8.986382e-05	0.08010308	0.03258382	2.712558e-05	7.727034e-05
	3.400954e-05	8.986382e-05	-0.009941651	0.02232833	2.068371e-05	8.336211e-05	0.08056114	0.03352085
	0.08010308	0.03258382	2.068371e-05	8.336211e-05	-0.009684576	0.02344918	1.518478e-05	6.214707e-05
	2.712558e-05	7.727034e-05	0.08056114	0.03352085	1.518478e-05	6.214707e-05	-0.009153012	0.02348957
4.1e+08	-0.002812664	0.02506833	5.03551e-05	8.725281e-05	0.08584331	0.02145028	4.270644e-05	7.578062e-05
	5.03551e-05	8.725281e-05	-0.002218072	0.0250427	3.301767e-05	8.331044e-05	0.08611635	0.02234367
	0.08584331	0.02145028	3.301767e-05	8.331044e-05	-0.001945915	0.02620579	2.547638e-05	6.20322e-05
	4.270644e-05	7.578062e-05	0.08611635	0.02234367	2.547638e-05	6.20322e-05	-0.001330761	0.02609212
4.2e+08	0.005704694	0.02633515	6.663375e-05	8.158607e-05	0.0893771	0.009303222	5.822694e-05	7.136931e-05
	6.663375e-05	8.158607e-05	0.00632427	0.02614271	4.561027e-05	8.099036e-05	0.08944411	0.01018926
	0.0893771	0.009303222	4.561027e-05	8.099036e-05	0.006619182	0.02734969	3.599799e-05	6.003616e-05
	5.822694e-05	7.136931e-05	0.08944411	0.01018926	3.599799e-05	6.003616e-05	0.007289355	0.0270564
4.3e+08	0.01473653	0.02577873	8.228066e-05	7.277434e-05	0.0905335	-0.003415905	7.315538e-05	6.397884e-05
	8.228066e-05	7.277434e-05	0.01534651	0.02540913	5.804866e-05	7.627827e-05	0.09038056	-0.002496411
	0.0905335	-0.003415905	5.804866e-05	7.627827e-05	0.01567308	0.02666066	4.641427e-05	5.605557e-05
	7.315538e-05	6.397884e-05	0.09038056	-0.002496411	4.641427e-05	5.605557e-05	0.01636291	0.02616738
4.4e+08	0.02389196	0.02324641	9.669134e-05	6.083391e-05	0.08923012	-0.01623855	8.693511e-05	5.364549e-05
	9.669134e-05	6.083391e-05	0.02445466	0.02269582	6.988759e-05	6.912845e-05	0.08885137	-0.01524171
	0.08923012	-0.01623855	6.988759e-05	6.912845e-05	0.02482255	0.02399083	5.635757e-05	5.004508e-05
	8.693511e-05	5.364549e-05	0.08885137	-0.01524171	5.635757e-05	5.004508e-05	0.02549079	0.02328405
4.5e+08	0.03273879	0.01867084	0.0001092396	4.589359e-05	0.08547719	-0.0286871	9.899265e-05	4.051568e-05
	0.0001092396	4.589359e-05	0.03321456	0.01794279	8.065768e-05	5.957774e-05	0.08487549	-0.02756746
	0.08547719	-0.0286871	8.065768e-05	5.957774e-05	0.03363466	0.01927841	6.544163e-05	4.202214e-05
	9.899265e-05	4.051568e-05	0.08487549	-0.02756746	6.544163e-05	4.202214e-05	0.03423526	0.01835297
4.6e+08	0.04082363	0.01208031	0.0001192989	2.821167e-05	0.07937757	-0.04029277	0.0001087647	2.484749e-05
	0.0001192989	2.821167e-05	0.04117206	0.01118634	8.988137e-05	4.774544e-05	0.0785649	-0.03900511
	0.07937757	-0.04029276	8.988137e-05	4.774544e-05	0.04165667	0.01255725	7.326676e-05	3.208076e-05
	0.0001087647	2.484749e-05	0.0785649	-0.03900511	7.326676e-05	3.208076e-05	0.04214045	0.01141787
4.7e+08	0.04769387	0.003605436	0.0001262714	8.178333e-06	0.07112375	-0.05061402	0.0001157233	7.011407e-06
	0.0001262714	8.178333e-06	0.04787541	0.002565711	9.708245e-05	3.38509e-05	0.07012114	-0.04911522
	0.07112375	-0.05061402	9.708245e-05	3.38509e-05	0.04843618	0.00396286	7.943375e-05	2.039207e-05
	0.0001157233	7.011407e-06	0.07012114	-0.04911522	7.943375e-05	2.039207e-05	0.04875289	0.002625214
4.8e+08	0.05291833	-0.006522374	0.0001296143	-1.367838e-05	0.06099117	-0.05925287	0.0001193924	-1.249972e-05
	0.0001296143	-1.367838e-05	0.05289597	-0.007678817	0.000101812	1.820635e-05	0.05982841	-0.05750372
