!$
! Info: Touchstone file created by Circ.  Input file=Intel_C2M_200G_11p0in_202208016_staggered.circ
!$
# Hz S RI R 50
0	0.03461849	9.668338e-24	-0.0001242029	1.521046e-20	0.0003645857	1.32342e-21	-0.0001200221	1.469846e-20
	-0.000124203	1.521048e-20	0.03407009	5.444437e-24	-0.0001311399	1.606001e-20	0.0001446171	3.441005e-22
	0.0003646495	1.324359e-21	-0.00013114	1.606002e-20	0.03461973	9.916759e-24	-0.0001242279	1.521352e-20
	-0.000120022	1.469846e-20	0.0001446729	3.442223e-22	-0.0001242278	1.521351e-20	0.0340681	5.148365e-24
1e+07	0.04362517	0.01010135	-0.00122337	4.428127e-05	0.002257368	0.008088543	-9.47817e-05	-0.0001051203
	-0.00122337	4.428127e-05	0.04199394	0.01099174	-0.0007114637	9.016598e-05	0.002979972	0.008014758
	0.002257368	0.008088543	-0.0007114637	9.016598e-05	0.0428499	0.01046832	-0.0005025607	-7.071756e-05
	-9.47817e-05	-0.0001051203	0.002979972	0.008014758	-0.0005025607	-7.071756e-05	0.0416404	0.01076911
2e+07	0.05395025	0.01214519	-0.001122446	-0.000216023	0.00551514	0.01491688	-0.0001308032	-0.0001260342
	-0.001122446	-0.000216023	0.05116549	0.01460519	-0.0007394862	-0.0001183713	0.006900024	0.01426599
	0.005515232	0.01491677	-0.0007394862	-0.0001183712	0.05373585	0.01294718	-0.0005100497	-0.0001445739
	-0.0001308032	-0.0001260342	0.00690003	0.01426598	-0.0005100497	-0.0001445739	0.05060083	0.0144239
3e+07	0.06315427	0.009274944	-0.001103522	-0.0003121997	0.01030095	0.02050383	-0.000181886	-0.0001517585
	-0.001103522	-0.0003121997	0.05874561	0.01401281	-0.0007914131	-0.0001576783	0.01256306	0.01908112
	0.01030092	0.0205038	-0.0007914131	-0.0001576783	0.06337844	0.0100959	-0.000566546	-0.0002007307
	-0.000181886	-0.0001517585	0.01256305	0.01908116	-0.0005665461	-0.0002007307	0.0580481	0.01396342
4e+07	0.07131034	0.003378547	-0.00112378	-0.0003369709	0.01614635	0.02459122	-0.0002455275	-0.0001633439
	-0.00112378	-0.0003369709	0.06481294	0.01128221	-0.0008523252	-0.0001430403	0.01945211	0.02182909
	0.01614635	0.02459122	-0.0008523252	-0.0001430403	0.07186212	0.004064262	-0.0006411497	-0.0002091358
	-0.0002455275	-0.0001633439	0.01945211	0.02182911	-0.0006411498	-0.0002091357	0.06405034	0.01139145
5e+07	0.07795738	-0.00503868	-0.001162214	-0.0003165851	0.02261794	0.0269613	-0.0003180344	-0.0001629659
	-0.001162214	-0.0003165851	0.06949138	0.007263504	-0.0009087082	-9.445036e-05	0.02688606	0.02228007
	0.02261794	0.02696131	-0.0009087082	-9.445036e-05	0.07872607	-0.004573937	-0.0007196614	-0.0001797914
	-0.0003180344	-0.0001629658	0.02688607	0.02228008	-0.0007196614	-0.0001797914	0.06871722	0.007538585
6e+07	0.08262214	-0.01539336	-0.001203891	-0.0002625205	0.02921617	0.02755082	-0.0003915153	-0.0001442284
	-0.001203891	-0.0002625205	0.07285634	0.002463457	-0.0009532032	-2.474478e-05	0.03415877	0.02037038
	0.02921617	0.02755082	-0.0009532032	-2.474478e-05	0.08349707	-0.01518961	-0.0007906436	-0.000119965
	-0.0003915153	-0.0001442284	0.03415877	0.02037036	-0.0007906435	-0.000119965	0.07211655	0.002898212
7e+07	0.08496852	-0.02706338	-0.001244012	-0.00017371	0.03545118	0.02643808	-0.0004626529	-0.0001083015
	-0.001244012	-0.0001737099	0.075021	-0.002729669	-0.0009832615	5.563788e-05	0.04057098	0.01624374
	0.03545119	0.02643808	-0.0009832615	5.563788e-05	0.08584371	-0.02712377	-0.0008461898	-3.778272e-05
	-0.0004626529	-0.0001083015	0.04057098	0.01624374	-0.0008461898	-3.778274e-05	0.07435413	-0.002151596
8e+07	0.08479836	-0.03940327	-0.001271482	-5.493612e-05	0.04087926	0.02383207	-0.0005289393	-5.657285e-05
	-0.001271482	-5.493612e-05	0.0761511	-0.008043611	-0.00100095	0.0001386818	0.04549335	0.01023899
	0.04087926	0.02383207	-0.00100095	0.0001386818	0.0855787	-0.0396996	-0.0008821244	5.807902e-05
	-0.0005289393	-5.657285e-05	0.04549335	0.010239	-0.0008821244	5.807903e-05	0.07558868	-0.007345443
9e+07	0.08206823	-0.05175652	-0.001270875	7.316805e-05	0.04513737	0.02005462	-0.0005885506	9.541419e-06
	-0.001270875	7.316805e-05	0.07643042	-0.01331816	-0.001011992	0.0002201901	0.0484179	0.002861582
	0.04513737	0.02005462	-0.001011992	0.00022019	0.08267281	-0.05223376	-0.0008984822	0.0001630015
	-0.0005885506	9.541419e-06	0.04841791	0.002861582	-0.0008984821	0.0001630016	0.07599845	-0.01252662
1e+08	0.07698274	-0.06350563	-0.001222424	0.0002029408	0.04797099	0.01550752	-0.000640603	8.85478e-05
	-0.001222424	0.0002029408	0.07608454	-0.01847544	-0.001024469	0.0002998172	0.04899715	-0.005261531
	0.04797099	0.01550752	-0.001024469	0.0002998172	0.07733147	-0.06408298	-0.0008927372	0.0002763427
	-0.000640603	8.85478e-05	0.04899715	-0.005261531	-0.0008927372	0.0002763427	0.07581945	-0.01761402
1.1e+08	0.06941797	-0.07444577	-0.001161256	0.0003707037	0.04922178	0.0106697	-0.0006819033	0.0001758179
	-0.001161256	0.0003707037	0.07502198	-0.02383302	-0.001036279	0.0003645077	0.04705022	-0.01340743
	0.04922178	0.0106697	-0.001036279	0.0003645077	0.06954209	-0.07493464	-0.0008738183	0.0003877026
	-0.0006819033	0.0001758179	0.04705022	-0.01340743	-0.0008738184	0.0003877025	0.07491549	-0.02306932
1.2e+08	0.05965053	-0.08339164	-0.001114734	0.0005273059	0.04893984	0.006033331	-0.0007122787	0.0002764178
	-0.001114734	0.0005273059	0.07314012	-0.02899087	-0.001053508	0.0004344418	0.04268373	-0.0207926
	0.04893984	0.006033331	-0.001053508	0.0004344418	0.05963034	-0.08377193	-0.0008548999	0.0004935729
	-0.0007122787	0.0002764178	0.04268372	-0.0207926	-0.0008548999	0.0004935728	0.07311041	-0.02829542
1.3e+08	0.04844185	-0.08991719	-0.001063745	0.0006799748	0.04728315	0.002034417	-0.0007306007	0.0003902167
	-0.001063745	0.0006799748	0.0705702	-0.03392088	-0.001079071	0.000517282	0.03618277	-0.02675406
	0.04728315	0.002034418	-0.001079071	0.000517282	0.04832362	-0.09017414	-0.0008343709	0.000599181
	-0.0007306007	0.0003902167	0.03618276	-0.02675406	-0.000834371	0.000599181	0.07059776	-0.0332824
1.4e+08	0.03651042	-0.09378307	-0.001003876	0.0008328993	0.0445273	-0.0009521947	-0.0007322986	0.0005166588
	-0.001003876	0.0008328993	0.06732179	-0.03859505	-0.001109703	0.0006210558	0.02801108	-0.03071765
	0.0445273	-0.0009521944	-0.001109703	0.0006210558	0.03633341	-0.09390663	-0.000811811	0.0007104264
	-0.0007322986	0.0005166588	0.02801108	-0.03071765	-0.0008118111	0.0007104264	0.06738891	-0.03801807
1.5e+08	0.02458196	-0.09494209	-0.0009306801	0.0009891342	0.04104372	-0.002648932	-0.000713361	0.0006544704
	-0.0009306801	0.0009891342	0.06336848	-0.04295369	-0.00113797	0.0007525273	0.01877995	-0.03225309
	0.04104372	-0.002648932	-0.00113797	0.0007525273	0.0243833	-0.09492861	-0.0007836411	0.0008332138
	-0.000713361	0.0006544704	0.01877995	-0.03225309	-0.0007836411	0.0008332139	0.0634506	-0.04244086
1.6e+08	0.01335256	-0.09353424	-0.0008384484	0.001149868	0.03726763	-0.002898598	-0.0006692913	0.0008010135
	-0.0008384484	0.001149868	0.05867417	-0.04689384	-0.001152882	0.0009158935	0.009204558	-0.03111245
	0.03726763	-0.002898598	-0.001152882	0.0009158935	0.01316706	-0.09338682	-0.0007429577	0.0009718207
	-0.0006692913	0.0008010135	0.009204558	-0.03111245	-0.0007429577	0.0009718207	0.05874425	-0.04643892
1.7e+08	0.003445961	-0.08987253	-0.0007210002	0.001312322	0.03366019	-0.001679109	-0.0005955121	0.0009520931
	-0.0007210002	0.001312322	0.05321691	-0.05026534	-0.001100454	0.001142993	5.077004e-05	-0.02725409
	0.03366019	-0.001679109	-0.001100454	0.001142993	0.003306208	-0.08960089	-0.000681999	0.00112631
	-0.0005955121	0.0009520931	5.077032e-05	-0.02725409	-0.000681999	0.00112631	0.05325132	-0.04985246
1.8e+08	-0.004625997	-0.08441757	-0.000571384	0.001473543	0.03066866	0.0008953917	-0.0004881347	0.001101421
	-0.000571384	0.001473543	0.04701209	-0.05287642	-0.001002717	0.001383261	-0.007923367	-0.02085144
	0.03066866	0.0008953919	-0.001002717	0.001383261	-0.004691654	-0.08403803	-0.0005881567	0.001295283
	-0.0004881347	0.001101421	-0.007923367	-0.02085144	-0.0005881567	0.001295283	0.04699506	-0.05248148
1.9e+08	-0.01049667	-0.07774211	-0.0003839351	0.001625619	0.02868703	0.004584689	-0.0003447335	0.001241064
	-0.0003839351	0.001625619	0.04013302	-0.05450509	-0.0008507965	0.001626471	-0.01402693	-0.01228531
	0.02868703	0.004584689	-0.0008507965	0.001626471	-0.01046446	-0.07727707	-0.0004509758	0.001470298
	-0.0003447335	0.001241064	-0.01402693	-0.01228531	-0.0004509758	0.001470298	0.04005916	-0.05410013
2e+08	-0.0139668	-0.07048897	-0.0001558496	0.001757605	0.02802097	0.009043023	-0.0001651129	0.001361709
	-0.0001558496	0.001757605	0.03272774	-0.05491978	-0.0006309815	0.001861057	-0.01769178	-0.002119497
	0.02802097	0.009043023	-0.0006309815	0.001861057	-0.01382011	-0.06996455	-0.0002628881	0.001638182
	-0.0001651129	0.001361709	-0.01769178	-0.002119496	-0.0002628881	0.001638182	0.03260175	-0.05447746
2.1e+08	-0.01501782	-0.06332347	0.0001122008	0.001856953	0.02886183	0.01385037	4.817947e-05	0.001453522
	0.0001122008	0.001856953	0.02502745	-0.05390685	-0.0003499284	0.002065734	-0.01851992	0.008937857
	0.02886183	0.01385037	-0.0003499284	0.002065734	-0.01474617	-0.06276926	-2.122237e-05	0.001782553
	4.817947e-05	0.001453522	-0.01851992	0.008937858	-2.122237e-05	0.001782553	0.02486362	-0.05340314
2.2e+08	-0.0138077	-0.05688463	0.0004148143	0.001910689	0.03126929	0.01854932	0.0002895691	0.001507044
	0.0004148143	0.001910689	0.01734519	-0.05129924	-1.20699e-05	0.002223414	-0.01631898	0.02008533
	0.03126929	0.01854932	-1.20699e-05	0.002223414	-0.01340913	-0.05633107	0.0002707248	0.001885498
	0.0002895691	0.001507044	-0.01631898	0.02008533	0.0002707248	0.001885498	0.01716518	-0.05071701
2.3e+08	-0.01065767	-0.05173873	0.0007419435	0.001907335	0.03516721	0.0226852	0.0005505559	0.001514309
	0.0007419435	0.001907335	0.01006453	-0.04700719	0.0003727819	0.002318133	-0.01112285	0.03048785
	0.03516721	0.0226852	0.0003727819	0.002318133	-0.01013773	-0.05121527	0.0006031559	0.001930118
	0.0005505559	0.001514309	-0.01112285	0.03048785	0.0006031559	0.001930118	0.009894342	-0.04633728
2.4e+08	-0.006024611	-0.04833848	0.001079781	0.001838561	0.04035131	0.0258465	0.0008202804	0.001469802
	0.001079781	0.001838561	0.00361779	-0.04104399	0.0007901731	0.002336757	-0.003194461	0.03933985
	0.04035131	0.0258465	0.0007901731	0.002336757	-0.00539607	-0.04787185	0.0009604348	0.001902918
	0.0008202804	0.001469802	-0.003194461	0.03933985	0.0009604348	0.001902918	0.003485823	-0.04028624
2.5e+08	-0.0004633524	-0.0469921	0.001411817	0.00170057	0.04650805	0.0276993	0.001086457	0.001371155
	0.001411817	0.00170057	-0.001544147	-0.03354528	0.001221992	0.002270371	0.006988827	0.0459281
	0.04650805	0.0276993	0.001221992	0.002270371	0.0002548527	-0.04660402	0.001322583	0.001795963
	0.001086457	0.001371155	0.006988827	0.0459281	0.001322583	0.001795963	-0.001610751	-0.03270847
2.6e+08	0.005416557	-0.04784322	0.001720749	0.001494735	0.0532431	0.02801519	0.001336412	0.001219637
	0.001720749	0.001494735	-0.004989341	-0.02477833	0.001647991	0.002115331	0.01876674	0.0496885
	0.0532431	0.02801519	0.001647991	0.002115331	0.006200767	-0.04754966	0.00166756	0.001608124
	0.001336412	0.001219637	0.01876674	0.0496885	0.00166756	0.001608124	-0.004966339	-0.0238796
2.7e+08	0.01099914	-0.05086552	0.001990341	0.001227649	0.06011642	0.02668931	0.001558386	0.001019869
	0.001990341	0.001227649	-0.006344587	-0.01514003	0.002047438	0.001873677	0.03134297	0.05025092
	0.06011642	0.02668931	0.002047438	0.001873677	0.01182282	-0.05067496	0.001973873	0.00134547
	0.001558386	0.001019869	0.03134297	0.05025092	0.001973873	0.00134547	-0.006213341	-0.01420358
2.8e+08	0.01570761	-0.05586961	0.002207162	0.000910387	0.06668012	0.02374596	0.001742465	0.0007795187
	0.002207162	0.000910387	-0.005335312	-0.005142741	0.002401005	0.001552771	0.04384258	0.04747118
	0.06668012	0.02374596	0.002401005	0.001552771	0.01654347	-0.05578262	0.002223128	0.001020633
	0.001742465	0.0007795187	0.04384258	0.04747118	0.002223128	0.001020633	-0.005084767	-0.004197929
2.9e+08	0.01904593	-0.06252204	0.002361873	0.000557194	0.07251567	0.01933434	0.001881496	0.0005083194
	0.002361873	0.000557194	-0.001821452	0.004613113	0.002692166	0.00116471	0.05537618	0.04144482
	0.07251567	0.01933434	0.002692166	0.00116471	0.01986826	-0.06253201	0.00240217	0.0006510845
	0.001881496	0.0005083194	0.05537618	0.04144482	0.00240217	0.0006510845	-0.001448729	0.005533665
3e+08	0.02063354	-0.07037584	0.002449972	0.0001837431	0.07726767	0.01371223	0.001971455	0.000217033
	0.002449972	0.0001837431	0.004175043	0.01347627	0.002908377	0.00072515	0.06510512	0.0325024
	0.07726767	0.01371223	0.002908377	0.00072515	0.02142002	-0.07046903	0.002504319	0.0002569802
	0.001971455	0.000217033	0.06510512	0.0325024	0.002504319	0.0002569802	0.004663639	0.01433935
3.1e+08	0.02022839	-0.07890696	0.002471794	-0.0001946173	0.08067136	0.007223354	0.002011399	-8.370608e-05
	0.002471794	-0.0001946173	0.01245366	0.02079077	0.00304178	0.0002517423	0.07230333	0.02118803
	0.08067136	0.007223354	0.00304178	0.0002517423	0.02096179	-0.07906413	0.002529769	-0.0001413731
	0.002011399	-8.370608e-05	0.07230333	0.02118803	0.002529769	-0.0001413731	0.01304278	0.02156445
3.2e+08	0.01773962	-0.08755534	0.002431766	-0.0005645083	0.08257076	0.000266069	0.002003102	-0.0003841927
	0.002431766	-0.0005645083	0.0226322	0.02594613	0.003089418	-0.0002371198	0.07640992	0.008221426
	0.08257076	0.0002660689	0.003089418	-0.0002371198	0.01840919	-0.08775356	0.002484877	-0.0005261309
	0.002003102	-0.0003841927	0.07640992	0.008221426	0.002484877	-0.0005261309	0.02329723	0.02660313
3.3e+08	0.01322833	-0.09576651	0.002337243	-0.0009157407	0.08292773	-0.006739018	0.00195033	-0.0006765859
	0.002337243	-0.0009157407	0.03415797	0.02842985	0.003052893	-0.0007241143	0.07706915	-0.00555219
	0.08292773	-0.006739018	0.003052893	-0.0007241143	0.01383105	-0.09598064	0.002380666	-0.0008837607
	0.00195033	-0.0006765859	0.07706915	-0.00555219	0.002380666	-0.0008837607	0.03486702	0.02894897
3.4e+08	0.006898298	-0.1030308	0.002196357	-0.001244514	0.0818229	-0.01338282	0.001858023	-0.0009551025
	0.002196357	-0.001244514	0.046334	0.02787554	0.002937667	-0.00119372	0.07415645	-0.01922061
	0.0818229	-0.01338282	0.002937667	-0.00119372	0.007438162	-0.1032361	0.002230688	-0.001206275
	0.001858023	-0.0009551025	0.07415645	-0.01922061	0.002230688	-0.001206275	0.04704961	0.02824448
3.5e+08	-0.0009243419	-0.1089177	0.002017589	-0.001544619	0.07944509	-0.01930025	0.001731264	-0.00121632
	0.002017589	-0.001544619	0.05835969	0.02410429	0.002752177	-0.001633613	0.06778628	-0.03186658
	0.07944509	-0.01930025	0.002752177	-0.001633613	-0.0004353343	-0.1090918	0.002048645	-0.001491431
	0.001731264	-0.00121632	0.06778628	-0.03186658	0.002048645	-0.001491431	0.05904083	0.02432006
3.6e+08	-0.009816533	-0.1131039	0.001808202	-0.001815948	0.07607465	-0.02419679	0.001574508	-0.001458628
	0.001808202	-0.001815948	0.06938247	0.01715395	0.002506298	-0.002034924	0.05830535	-0.04262968
	0.07607465	-0.02419679	0.002506298	-0.002034924	-0.00936036	-0.1132282	0.00184615	-0.001742202
	0.001574508	-0.001458628	0.05830535	-0.04262968	0.00184615	-0.001742202	0.06998723	0.01722482
3.7e+08	-0.01929143	-0.1153914	0.001572954	-0.002060295	0.07205976	-0.02787073	0.001390829	-0.001681737
	0.001572954	-0.002060295	0.07855837	0.007294784	0.002210291	-0.002392183	0.0462692	-0.05076335
	0.07205976	-0.02787073	0.002210291	-0.002392183	-0.01884512	-0.1154538	0.001630814	-0.001965299
	0.001390829	-0.001681737	0.0462692	-0.05076335	0.001630814	-0.001965299	0.07904697	0.007239902
3.8e+08	-0.02883313	-0.1157192	0.001313818	-0.002279937	0.06778798	-0.03022751	0.001181746	-0.001885712
	0.001313818	-0.002279937	0.08511639	-0.00497338	0.001873611	-0.002702923	0.03240639	-0.05568273
	0.06778798	-0.03022751	0.001873611	-0.002702923	-0.02836993	-0.1157147	0.001405323	-0.002168972
	0.001181746	-0.001885712	0.03240639	-0.05568273	0.001405323	-0.002168972	0.08545362	-0.005124622
3.9e+08	-0.03793316	-0.1141651	0.001030037	-0.002476288	0.06365557	-0.03128626	0.0009470543	-0.002070241
	0.001030037	-0.002476288	0.08842206	-0.01894032	0.001503877	-0.002966989	0.01757281	-0.05700321
	0.06365557	-0.03128626	0.001503877	-0.002966989	-0.03742573	-0.1140963	0.001167118	-0.00236085
	0.0009470543	-0.002070241	0.01757281	-0.05700321	0.001167118	-0.00236085	0.08858105	-0.01914907
4e+08	-0.04612591	-0.1109369	0.0007188968	-0.002648618	0.06003532	-0.03117771	0.0006853143	-0.002233682
	0.0007188968	-0.002648618	0.0880372	-0.03372474	0.001106246	-0.003185346	0.002697315	-0.05456477
	0.06003532	-0.03117771	0.001106246	-0.003185346	-0.04554727	-0.1108149	0.0009091012	-0.002545613
	0.0006853143	-0.002233682	0.002697315	-0.05456477	0.0009091012	-0.002545613	0.08800058	-0.0339456
4.1e+08	-0.05302072	-0.1063565	0.0003769173	-0.002793204	0.05724668	-0.03013316	0.0003945336	-0.002372455
	0.0003769173	-0.002793204	0.08376669	-0.04832968	0.0006836844	-0.003358769	-0.01127492	-0.04844364
	0.05724668	-0.03013316	0.0006836844	-0.003358769	-0.05234777	-0.1062001	0.0006214478	-0.002723156
	0.0003945336	-0.002372455	-0.01127492	-0.04844364	0.0006214478	-0.002723156	0.0835288	-0.04851232
4.2e+08	-0.05832951	-0.1008374	1.405892e-06	-0.002903035	0.05552882	-0.02846779	7.319601e-05	-0.002480686
	1.405892e-06	-0.002903035	0.07568948	-0.06170923	0.0002368874	-0.003486717	-0.02344135	-0.03895014
	0.05552882	-0.02846779	0.0002368874	-0.003486717	-0.05754398	-0.1006722	0.0002935502	-0.002887553
	7.319601e-05	-0.002480686	-0.02344135	-0.03895014	0.0002935502	-0.002887553	0.0752579	-0.06180189
4.3e+08	-0.06188671	-0.0948526	-0.0004080494	-0.002968143	0.05501998	-0.02655274	-0.0002787776	-0.002550213
	-0.0004080494	-0.002968143	0.06417129	-0.07284813	-0.000234138	-0.003566296	-0.0329979	-0.02661174
	0.05501998	-0.02655274	-0.000234138	-0.003566296	-0.06097839	-0.0947094	-8.325018e-05	-0.00302686
	-0.0002787776	-0.002550213	-0.0329979	-0.02661174	-8.325018e-05	-0.00302686	0.06356689	-0.07280122
4.4e+08	-0.06366195	-0.08890076	-0.0008481379	-0.002976572	0.05574386	-0.02478613	-0.0006586092	-0.002571241
	-0.0008481379	-0.002976572	0.04985313	-0.08084112	-0.0007292398	-0.003591787	-0.03929001	-0.01214488
	0.05574386	-0.02478613	-0.0007292398	-0.003591787	-0.06262871	-0.08881343	-0.0005129002	-0.003124079
	-0.0006586092	-0.002571241	-0.03929001	-0.01214488	-0.0005129002	-0.003124079	0.0491099	-0.08061017
4.5e+08	-0.06376204	-0.08346874	-0.001310952	-0.002915926	0.05760616	-0.02355821	-0.001059976	-0.002533376
	-0.001310952	-0.002915926	0.03361848	-0.08496878	-0.001246323	-0.003554787	-0.04185679	0.003585992
	0.05760616	-0.02355821	-0.001246323	-0.003554787	-0.06261145	-0.08347149	-0.0009928563	-0.003159105
	-0.001059976	-0.002533376	-0.04185679	0.003585992	-0.0009928563	-0.003159105	0.03278199	-0.08451836
4.6e+08	-0.06242305	-0.07899376	-0.00178357	-0.002775246	0.06040021	-0.02321708	-0.001472629	-0.00242697
	-0.00178357	-0.002775246	0.01653701	-0.08476415	-0.0017797	-0.00344512	-0.04046374	0.01961919
	0.06040021	-0.02321708	-0.0017797	-0.00344512	-0.06117216	-0.07911842	-0.001512771	-0.00311129
	-0.001472629	-0.00242697	-0.04046374	0.01961919	-0.001512771	-0.00311129	0.0156616	-0.0840712
4.7e+08	-0.05999194	-0.07582816	-0.002248764	-0.002546879	0.06382356	-0.0240361	-0.001882388	-0.002244822
	-0.002248764	-0.002546879	-0.0002099635	-0.08006247	-0.002319386	-0.003252225	-0.03512374	0.03495451
	0.06382356	-0.0240361	-0.002319386	-0.003252225	-0.05866637	-0.07610213	-0.00205409	-0.0029629
	-0.001882388	-0.002244822	-0.03512374	0.03495451	-0.00205409	-0.0029629	-0.001063274	-0.07911764
4.8e+08	-0.05689757	-0.07421423	-0.00268606	-0.002228278	0.06750402	-0.02618924	-0.002272129	-0.001983572
	-0.00268606	-0.002228278	-0.01541509	-0.07102407	-0.00285072	-0.002967011	-0.02610255	0.0486161
	0.06750402	-0.02618924	-0.00285072	-0.002967011	-0.05553056	-0.07465678	-0.002591569	-0.002701859
	-0.002272129	-0.001983572	-0.02610255	0.0486161	-0.002591569	-0.002701859	-0.01618353	-0.06983527
4.9e+08	-0.05361812	-0.07426318	-0.003073621	-0.001823159	0.07103169	-0.02973335	-0.002623099	-0.001644944
	-0.003073621	-0.001823159	-0.02793675	-0.05813807	-0.003354416	-0.002584128	-0.01390834	0.05971801
