!$
! Info: Touchstone file created by Circ.  Input file=Intel_C2M_200G_11p0in_202208016_staggered.circ
!$
# Hz S RI R 50
0	0.03405738	5.286717e-24	0.0001031459	1.57275e-22	0.0001449905	3.472366e-22	0.0001030825	1.570186e-22
	0.0001031459	1.57275e-22	0.03407009	5.444437e-24	0.00010313	1.571739e-22	0.0001446171	3.441005e-22
	0.0001450463	3.473595e-22	0.00010313	1.571756e-22	0.03405238	5.026977e-24	0.000103096	1.56922e-22
	0.0001030825	1.570204e-22	0.0001446729	3.442223e-22	0.000103096	1.56922e-22	0.0340681	5.148365e-24
1e+07	0.04214946	0.01084971	9.955878e-05	6.776547e-06	0.002499522	0.007929725	1.604742e-05	7.398072e-05
	9.955878e-05	6.776547e-06	0.04199394	0.01099174	9.440525e-05	5.890116e-05	0.002979972	0.008014758
	0.002499522	0.007929725	9.440525e-05	5.890116e-05	0.04295063	0.01058901	5.46071e-05	3.921239e-05
	1.604742e-05	7.398072e-05	0.002979972	0.008014758	5.46071e-05	3.921239e-05	0.0416404	0.01076911
2e+07	0.05110509	0.01433885	7.77643e-05	1.952483e-05	0.006465586	0.01429107	6.677593e-05	7.34682e-05
	7.77643e-05	1.952483e-05	0.05116549	0.01460519	0.0001176199	3.382477e-05	0.006900024	0.01426599
	0.006465592	0.01429105	0.0001176199	3.382477e-05	0.05142142	0.01369217	5.762908e-05	1.136064e-05
	6.677593e-05	7.34682e-05	0.00690003	0.01426598	5.762908e-05	1.136064e-05	0.05060083	0.0144239
3e+07	0.05851975	0.01376337	6.970364e-05	2.90824e-05	0.01217489	0.01914001	0.0001038099	5.806647e-05
	6.970364e-05	2.908239e-05	0.05874561	0.01401281	0.0001344164	1.385007e-05	0.01256306	0.01908112
	0.01217488	0.01914005	0.0001344164	1.385007e-05	0.05847272	0.01310788	5.90312e-05	-1.859007e-06
	0.0001038099	5.806646e-05	0.01256305	0.01908116	5.90312e-05	-1.859009e-06	0.0580481	0.01396342
4e+07	0.06445442	0.01110125	6.235698e-05	3.060196e-05	0.01911784	0.02190433	0.0001300435	3.393788e-05
	6.235698e-05	3.060196e-05	0.06481294	0.01128221	0.0001444326	-9.258725e-06	0.01945211	0.02182909
	0.01911785	0.02190436	0.0001444326	-9.258728e-06	0.06413865	0.01055243	5.793869e-05	-1.312774e-05
	0.0001300435	3.393788e-05	0.01945211	0.02182911	5.793869e-05	-1.312774e-05	0.06405034	0.01139145
5e+07	0.06902904	0.007184974	5.444082e-05	2.920952e-05	0.02661493	0.02235897	0.0001464596	4.542035e-06
	5.444082e-05	2.920952e-05	0.06949138	0.007263504	0.0001487912	-3.840705e-05	0.02688606	0.02228007
	0.02661493	0.02235898	0.0001487912	-3.840705e-05	0.06852554	0.006803659	5.473638e-05	-2.461417e-05
	0.0001464596	4.542034e-06	0.02688607	0.02228008	5.473637e-05	-2.461417e-05	0.06871722	0.007538585
6e+07	0.07231912	0.002513031	4.550922e-05	2.720518e-05	0.03395976	0.02043951	0.0001532103	-2.757538e-05
	4.550922e-05	2.720518e-05	0.07285634	0.002463457	0.0001445079	-6.760143e-05	0.03415877	0.02037038
	0.03395977	0.02043949	0.0001445079	-6.760143e-05	0.07170272	0.002328806	4.863126e-05	-3.456248e-05
	0.0001532103	-2.757538e-05	0.03415877	0.02037036	4.863127e-05	-3.456248e-05	0.07211655	0.002898212
7e+07	0.07444001	-0.002531883	4.652495e-05	1.378682e-05	0.04045138	0.01628754	0.0001501552	-6.013761e-05
	4.652495e-05	1.378682e-05	0.075021	-0.002729669	0.0001314347	-9.478637e-05	0.04057098	0.01624374
	0.04045138	0.01628754	0.0001314347	-9.478637e-05	0.07377851	-0.00251208	4.015381e-05	-4.225461e-05
	0.0001501552	-6.013761e-05	0.04057098	0.01624374	4.015381e-05	-4.225461e-05	0.07435413	-0.002151596
8e+07	0.07556129	-0.007682271	4.528596e-05	-1.849916e-06	0.04545788	0.0102396	0.0001382431	-9.098482e-05
	4.528596e-05	-1.849916e-06	0.0761511	-0.008043611	0.0001112846	-0.0001178118	0.04549335	0.01023899
	0.04545788	0.0102396	0.0001112846	-0.0001178118	0.0749148	-0.007468133	3.015468e-05	-4.726697e-05
	0.0001382431	-9.098482e-05	0.04549335	0.010239	3.015468e-05	-4.726697e-05	0.07558868	-0.007345443
9e+07	0.07587268	-0.01278243	3.912366e-05	-1.512604e-05	0.04846713	0.002798991	0.0001180855	-0.0001185278
	3.912366e-05	-1.512604e-05	0.07643042	-0.01331816	8.539736e-05	-0.0001352611	0.0484179	0.002861582
	0.04846714	0.002798992	8.539736e-05	-0.0001352611	0.07529436	-0.01239506	1.943562e-05	-4.936911e-05
	0.0001180855	-0.0001185278	0.04841791	0.002861582	1.943562e-05	-4.936911e-05	0.07599845	-0.01252662
1e+08	0.07561844	-0.0177524	2.773372e-05	-2.508446e-05	0.04912553	-0.005409612	8.730588e-05	-0.0001424332
	2.773372e-05	-2.508446e-05	0.07608454	-0.01847544	5.307006e-05	-0.0001464875	0.04899715	-0.005261531
	0.04912553	-0.005409613	5.307006e-05	-0.0001464875	0.07517471	-0.01721624	1.358496e-05	-4.630184e-05
	8.730588e-05	-0.0001424332	0.04899715	-0.005261531	1.358496e-05	-4.630184e-05	0.07581945	-0.01761402
1.1e+08	0.07472006	-0.02300521	1.576873e-05	-2.529008e-05	0.04724231	-0.01365445	5.114954e-05	-0.0001452116
	1.576873e-05	-2.529008e-05	0.07502198	-0.02383302	3.830348e-05	-0.0001360476	0.04705022	-0.01340743
	0.0472423	-0.01365445	3.830348e-05	-0.0001360476	0.07441249	-0.02251852	1.079269e-05	-4.107245e-05
	5.114954e-05	-0.0001452116	0.04705022	-0.01340743	1.079269e-05	-4.107245e-05	0.07491549	-0.02306932
1.2e+08	0.07298957	-0.0281031	8.003932e-06	-2.405781e-05	0.0429301	-0.02115044	2.724368e-05	-0.0001404337
	8.003932e-06	-2.405781e-05	0.07314012	-0.02899087	2.638118e-05	-0.0001256575	0.04268373	-0.0207926
	0.0429301	-0.02115044	2.638118e-05	-0.0001256575	0.07272955	-0.02763432	7.593613e-06	-3.717535e-05
	2.724368e-05	-0.0001404337	0.04268372	-0.0207926	7.593613e-06	-3.717535e-05	0.07311041	-0.02829542
1.3e+08	0.07056857	-0.03300472	1.377721e-06	-2.288276e-05	0.03647006	-0.02723489	1.667228e-05	-0.0001319864
	1.377721e-06	-2.288276e-05	0.0705702	-0.03392088	1.497218e-05	-0.0001153463	0.03618277	-0.02675406
	0.03647006	-0.02723488	1.497218e-05	-0.0001153463	0.07033935	-0.03253824	4.054894e-06	-3.389328e-05
	1.667228e-05	-0.0001319864	0.03618276	-0.02675406	4.054894e-06	-3.389328e-05	0.07059776	-0.0332824
1.4e+08	0.06746488	-0.03767968	-4.398872e-06	-2.143453e-05	0.02832229	-0.03133147	5.79272e-06	-0.0001232158
	-4.398872e-06	-2.143453e-05	0.06732179	-0.03859505	4.470759e-06	-0.0001047919	0.02801108	-0.03071765
	0.02832229	-0.03133147	4.470759e-06	-0.0001047919	0.06725493	-0.03721595	8.536514e-07	-3.058718e-05
	5.79272e-06	-0.0001232158	0.02801108	-0.03071765	8.536514e-07	-3.058718e-05	0.06738891	-0.03801807
1.5e+08	0.06364846	-0.04206691	-9.414111e-06	-1.917546e-05	0.0190948	-0.03300639	-4.900724e-06	-0.00011371
	-9.414111e-06	-1.917546e-05	0.06336848	-0.04295369	-4.962615e-06	-9.387423e-05	0.01877995	-0.03225309
	0.0190948	-0.03300639	-4.962615e-06	-9.387423e-05	0.06344159	-0.04160554	-2.037456e-06	-2.723682e-05
	-4.900723e-06	-0.00011371	0.01877995	-0.03225309	-2.037456e-06	-2.723682e-05	0.0634506	-0.04244086
1.6e+08	0.0590789	-0.04606156	-1.376517e-05	-1.623283e-05	0.009500336	-0.03200691	-1.502593e-05	-0.0001032346
	-1.376517e-05	-1.623283e-05	0.05867417	-0.04689384	-1.322902e-05	-8.253111e-05	0.009204558	-0.03111245
	0.009500336	-0.03200691	-1.322902e-05	-8.253111e-05	0.05885783	-0.04559525	-4.641085e-06	-2.380164e-05
	-1.502593e-05	-0.0001032346	0.009204558	-0.03111245	-4.641085e-06	-2.380164e-05	0.05874425	-0.04643892
1.7e+08	0.05372965	-0.04951147	-1.748824e-05	-1.266365e-05	0.0003034487	-0.02828562	-2.422563e-05	-9.167034e-05
	-1.748824e-05	-1.266365e-05	0.05321691	-0.05026534	-2.05579e-05	-7.075752e-05	5.077004e-05	-0.02725409
	0.000303449	-0.02828562	-2.05579e-05	-7.075752e-05	0.05348137	-0.04902493	-7.038111e-06	-2.022281e-05
	-2.422563e-05	-9.167034e-05	5.077032e-05	-0.02725409	-7.038111e-06	-2.022281e-05	0.05325132	-0.04985246
1.8e+08	0.04761151	-0.05222143	-2.055822e-05	-8.501059e-06	-0.007737477	-0.02200939	-3.21397e-05	-7.900225e-05
	-2.055822e-05	-8.501059e-06	0.04701209	-0.05287642	-2.670098e-05	-5.836112e-05	-0.007923367	-0.02085144
	-0.007737477	-0.02200939	-2.670098e-05	-5.836112e-05	0.04733112	-0.05169422	-9.261989e-06	-1.640182e-05
	-3.21397e-05	-7.900225e-05	-0.007923367	-0.02085144	-9.261989e-06	-1.640182e-05	0.04699506	-0.05248148
1.9e+08	0.04079361	-0.05396518	-2.289929e-05	-3.784617e-06	-0.01392925	-0.01355236	-3.841095e-05	-6.532584e-05
	-2.289929e-05	-3.784617e-06	0.04013302	-0.05450509	-3.116234e-05	-4.53754e-05	-0.01402693	-0.01228531
	-0.01392925	-0.01355236	-3.116234e-05	-4.53754e-05	0.04048587	-0.05337569	-1.105642e-05	-1.227059e-05
	-3.841095e-05	-6.532584e-05	-0.01402693	-0.01228531	-1.105642e-05	-1.227059e-05	0.04005916	-0.05410013
2e+08	0.03342042	-0.05450582	-2.440283e-05	1.423107e-06	-0.01769944	-0.003472028	-4.270343e-05	-5.084347e-05
	-2.440283e-05	1.423107e-06	0.03272774	-0.05491978	-3.373772e-05	-3.202129e-05	-0.01769178	-0.002119497
	-0.01769944	-0.003472027	-3.373772e-05	-3.202129e-05	0.03309864	-0.05383557	-1.231799e-05	-7.856274e-06
	-4.270343e-05	-5.084347e-05	-0.01769178	-0.002119496	-1.231799e-05	-7.856274e-06	0.03260175	-0.05447746
2.1e+08	0.02572058	-0.05362344	-2.494221e-05	7.020831e-06	-0.01864374	0.007528633	-4.47257e-05	-3.586192e-05
	-2.494221e-05	7.020831e-06	0.02502745	-0.05390685	-3.426318e-05	-1.858724e-05	-0.01851992	0.008937857
	-0.01864374	0.007528633	-3.426318e-05	-1.858724e-05	0.02540541	-0.05285939	-1.294241e-05	-3.221981e-06
	-4.47257e-05	-3.586192e-05	-0.01851992	0.008937858	-1.294241e-05	-3.221981e-06	0.02486362	-0.05340314
2.2e+08	0.01800591	-0.05114385	-2.439348e-05	1.28575e-05	-0.01656188	0.01865158	-4.425825e-05	-2.078279e-05
	-2.439348e-05	1.28575e-05	0.01734519	-0.05129924	-3.264151e-05	-5.429468e-06	-0.01631898	0.02008533
	-0.01656188	0.01865158	-3.264151e-05	-5.429468e-06	0.01772249	-0.05028135	-1.283633e-05	1.532741e-06
	-4.425825e-05	-2.078279e-05	-0.01631898	0.02008533	-1.283633e-05	1.532741e-06	0.01716518	-0.05071701
2.3e+08	0.01066032	-0.04696966	-2.251673e-05	1.853398e-05	-0.01147874	0.02906292	-4.112088e-05	-6.002177e-06
	-2.251673e-05	1.853398e-05	0.01006453	-0.04700719	-2.880351e-05	7.133042e-06	-0.01112285	0.03048785
	-0.01147874	0.02906292	-2.880351e-05	7.133042e-06	0.0104348	-0.04601278	-1.193221e-05	6.271942e-06
	-4.112088e-05	-6.002177e-06	-0.01112285	0.03048785	-1.193221e-05	6.271942e-06	0.009894342	-0.04633728
2.4e+08	0.004118388	-0.04110645	-1.948767e-05	2.417956e-05	-0.003647862	0.03795559	-3.532187e-05	7.840534e-06
	-1.948767e-05	2.417956e-05	0.00361779	-0.04104399	-2.284975e-05	1.856727e-05	-0.003194461	0.03933985
	-0.003647862	0.03795559	-2.284975e-05	1.856727e-05	0.003975774	-0.04006795	-1.018894e-05	1.084415e-05
	-3.532187e-05	7.840534e-06	-0.003194461	0.03933985	-1.018894e-05	1.084415e-05	0.003485823	-0.04028624
2.5e+08	-0.001164837	-0.03368251	-1.522411e-05	2.953876e-05	0.006462415	0.04461218	-2.700081e-05	2.018738e-05
	-1.522411e-05	2.953876e-05	-0.001544147	-0.03354528	-1.49863e-05	2.844817e-05	0.006988827	0.0459281
	0.006462415	0.04461218	-1.49863e-05	2.844817e-05	-0.00120425	-0.03258288	-7.60449e-06	1.507695e-05
	-2.700081e-05	2.018738e-05	0.006988827	0.0459281	-7.60449e-06	1.507695e-05	-0.001610751	-0.03270847
2.6e+08	-0.004751326	-0.02495874	-9.69775e-06	3.42991e-05	0.01819954	0.04846184	-1.64254e-05	3.050823e-05
	-9.69775e-06	3.42991e-05	-0.004989341	-0.02477833	-5.514358e-06	3.639936e-05	0.01876674	0.0496885
	0.01819954	0.04846184	-5.514358e-06	3.639936e-05	-0.004673216	-0.0238246	-4.216288e-06	1.879383e-05
	-1.64254e-05	3.050823e-05	0.01876674	0.0496885	-4.216288e-06	1.879383e-05	-0.004966339	-0.0238796
2.7e+08	-0.006260195	-0.01532709	-2.957218e-06	3.812967e-05	0.03077309	0.04912559	-3.986201e-06	3.832502e-05
	-2.957218e-06	3.812967e-05	-0.006344587	-0.01514003	5.182347e-06	4.210937e-05	0.03134297	0.05025092
	0.03077309	0.04912559	5.182347e-06	4.210937e-05	-0.006058228	-0.01418907	-9.932636e-08	2.18227e-05
	-3.986201e-06	3.832502e-05	0.03134297	0.05025092	-9.932636e-08	2.18227e-05	-0.006213341	-0.01420358
2.8e+08	-0.005407944	-0.005296974	4.865752e-06	4.069456e-05	0.04331147	0.04644881	9.81504e-06	4.323742e-05
	4.865752e-06	4.069456e-05	-0.005335312	-0.005142741	1.665571e-05	4.534809e-05	0.04384258	0.04747118
	0.04331147	0.04644881	1.665571e-05	4.534809e-05	-0.005084858	-0.004187073	4.634242e-06	2.400126e-05
	9.81504e-06	4.323742e-05	0.04384258	0.04747118	4.634242e-06	2.400126e-05	-0.005084767	-0.004197929
2.9e+08	-0.002044862	0.004532024	1.355449e-05	4.167013e-05	0.05492578	0.04051576	2.438292e-05	4.494718e-05
	1.355449e-05	4.167013e-05	-0.001821452	0.004613113	2.841074e-05	4.597637e-05	0.05537618	0.04144482
	0.05492578	0.04051576	2.841074e-05	4.597637e-05	-0.001611893	0.00558261	9.839421e-06	2.518323e-05
	2.438292e-05	4.494718e-05	0.05537618	0.04144482	9.839421e-06	2.518323e-05	-0.001448729	0.005533665
3e+08	0.003816881	0.01350712	2.280552e-05	4.076198e-05	0.06477485	0.03164567	3.905025e-05	4.327684e-05
	2.280552e-05	4.076198e-05	0.004175043	0.01347627	3.992564e-05	4.395344e-05	0.06510512	0.0325024
	0.06477485	0.03164567	3.992564e-05	4.395344e-05	0.004340204	0.01447076	1.533869e-05	2.524205e-05
	3.905025e-05	4.327684e-05	0.06510512	0.0325024	1.533869e-05	2.524205e-05	0.004663639	0.01433935
3.1e+08	0.01198622	0.02096858	3.222068e-05	3.772678e-05	0.07212708	0.02037204	5.310007e-05	3.818668e-05
	3.222068e-05	3.772678e-05	0.01245366	0.02079077	5.067305e-05	3.933711e-05	0.07230333	0.02118803
	0.07212708	0.02037204	5.067305e-05	3.933711e-05	0.01257337	0.02182264	2.092117e-05	2.407604e-05
	5.310007e-05	3.818668e-05	0.07230333	0.02118803	2.092117e-05	2.407604e-05	0.01304278	0.02156445
3.2e+08	0.02208951	0.02629996	4.131813e-05	3.239652e-05	0.07641326	0.00740542	6.579137e-05	2.978771e-05
	4.131813e-05	3.239652e-05	0.0226322	0.02594613	6.013012e-05	3.228702e-05	0.07640992	0.008221426
	0.07641326	0.00740542	6.013012e-05	3.228702e-05	0.02270787	0.02702953	2.634478e-05	2.161427e-05
	6.579137e-05	2.978771e-05	0.07640992	0.008221426	2.634478e-05	2.161427e-05	0.02329723	0.02660313
3.3e+08	0.03358141	0.02898078	4.953605e-05	2.471041e-05	0.07726697	-0.006415865	7.639062e-05	1.83507e-05
	4.953605e-05	2.471041e-05	0.03415797	0.02842985	6.780086e-05	2.306038e-05	0.07706915	-0.00555219
	0.07726697	-0.006415865	6.780086e-05	2.306038e-05	0.03419505	0.02957905	3.133323e-05	1.782827e-05
	7.639062e-05	1.83507e-05	0.07706915	-0.00555219	3.133323e-05	1.782827e-05	0.03486702	0.02894897
3.4e+08	0.04577058	0.02863495	5.625694e-05	1.474447e-05	0.07455105	-0.0201838	8.420258e-05	4.314558e-06
	5.625694e-05	1.474447e-05	0.046334	0.02787554	7.322548e-05	1.201536e-05	0.07415645	-0.01922061
	0.07455105	-0.0201838	7.322548e-05	1.201536e-05	0.04634246	0.02910474	3.558298e-05	1.274161e-05
	8.420258e-05	4.314558e-06	0.07415645	-0.01922061	3.558298e-05	1.274161e-05	0.04704961	0.02824448
3.5e+08	0.05786005	0.02507225	6.083822e-05	2.742794e-06	0.06836626	-0.03298201	8.861155e-05	-1.172128e-05
	6.083822e-05	2.742794e-06	0.05835969	0.02410429	7.600629e-05	-3.965082e-07	0.06778628	-0.03186658
	0.06836626	-0.03298201	7.600629e-05	-3.965082e-07	0.05835409	0.02542506	3.876741e-05	6.446648e-06
	8.861155e-05	-1.172128e-05	0.06778628	-0.03186658	3.876741e-05	6.446648e-06	0.05904083	0.02432006
3.6e+08	0.06899831	0.01831797	6.265937e-05	-1.086925e-05	0.05904532	-0.04394724	8.911734e-05	-2.899748e-05
	6.265937e-05	-1.086925e-05	0.06938247	0.01715395	7.581918e-05	-1.363623e-05	0.05830535	-0.04262968
	0.05904532	-0.04394724	7.581918e-05	-1.363623e-05	0.06938181	0.01857467	4.055328e-05	-8.807932e-07
	8.911734e-05	-2.899748e-05	0.05830535	-0.04262968	4.055328e-05	-8.807932e-07	0.06998723	0.01722482
3.7e+08	0.07833956	0.008629057	6.118017e-05	-2.546643e-05	0.04713049	-0.05232644	8.538051e-05	-4.661808e-05
	6.118017e-05	-2.546643e-05	0.07855837	0.007294784	7.2436e-05	-2.707507e-05	0.0462692	-0.05076335
	0.04713049	-0.05232644	7.2436e-05	-2.707507e-05	0.07858534	0.008818162	4.062081e-05	-8.974124e-06
	8.538051e-05	-4.661808e-05	0.0462692	-0.05076335	4.062081e-05	-8.974124e-06	0.07904697	0.007239902
3.8e+08	0.08510747	-0.003508197	5.599772e-05	-4.024727e-05	0.03333881	-0.05752462	7.726292e-05	-6.358137e-05
	5.599772e-05	-4.024727e-05	0.08511639	-0.00497338	6.574829e-05	-4.001718e-05	0.03240639	-0.05568273
	0.03333881	-0.05752462	6.574829e-05	-4.001718e-05	0.08519535	-0.003351982	3.869208e-05	-1.746089e-05
	7.726292e-05	-6.358137e-05	0.03240639	-0.05568273	3.869208e-05	-1.746089e-05	0.08545362	-0.005124622
3.9e+08	0.08865844	-0.01739639	4.691414e-05	-5.425695e-05	0.01851729	-0.05914395	6.486084e-05	-7.882689e-05
	4.691414e-05	-5.425695e-05	0.08842206	-0.01894032	5.579085e-05	-5.171231e-05	0.01757281	-0.05700321
	0.01851729	-0.05914395	5.579085e-05	-5.171231e-05	0.08857765	-0.01723349	3.456052e-05	-2.587326e-05
	6.486084e-05	-7.882689e-05	0.01757281	-0.05700321	3.456052e-05	-2.587326e-05	0.08858105	-0.01914907
4e+08	0.08854117	-0.03216508	3.399011e-05	-6.644371e-05	0.003589598	-0.05700887	4.853878e-05	-9.128474e-05
	3.399011e-05	-6.644371e-05	0.0880372	-0.03372474	4.27664e-05	-6.13816e-05	0.002697315	-0.05456477
	0.003589598	-0.05700887	4.27664e-05	-6.13816e-05	0.08829011	-0.03195421	2.813309e-05	-3.365083e-05
	4.853878e-05	-9.128474e-05	0.002697315	-0.05456477	2.813309e-05	-3.365083e-05	0.08800058	-0.0339456
4.1e+08	0.08454382	-0.04682497	1.758055e-05	-7.573733e-05	-0.01050015	-0.05117873	2.893148e-05	-9.995334e-05
	1.758055e-05	-7.573733e-05	0.08376669	-0.04832968	2.706471e-05	-6.825686e-05	-0.01127492	-0.04844364
	-0.01050015	-0.05117873	2.706471e-05	-6.825686e-05	0.08413091	-0.04652435	1.945788e-05	-4.01748e-05
	2.893148e-05	-9.995334e-05	-0.01127492	-0.04844364	1.945788e-05	-4.01748e-05	0.0835288	-0.04851232
4.2e+08	0.07672574	-0.06033318	-1.644906e-06	-8.113207e-05	-0.02284588	-0.04194688	6.949394e-06	-0.0001039714
	-1.644906e-06	-8.113207e-05	0.07568948	-0.06170923	9.275897e-06	-7.162931e-05	-0.02344135	-0.03895014
	-0.02284588	-0.04194688	9.275897e-06	-7.162931e-05	0.07616969	-0.05990345	8.760937e-06	-4.480056e-05
	6.949394e-06	-0.0001039714	-0.02344135	-0.03895014	8.760937e-06	-4.480056e-05	0.0752579	-0.06180189
4.3e+08	0.06543168	-0.0716717	-2.271646e-05	-8.178785e-05	-0.03263558	-0.0298249	-1.626165e-05	-0.0001026979
	-2.271646e-05	-8.178785e-05	0.06417129	-0.07284813	-9.80878e-06	-7.089699e-05	-0.0329979	-0.02661174
	-0.03263558	-0.0298249	-9.80878e-06	-7.089699e-05	0.06476044	-0.0710785	-3.538418e-06	-4.691536e-05
	-1.626165e-05	-0.0001026979	-0.0329979	-0.02661174	-3.538418e-06	-4.691536e-05	0.06356689	-0.07280122
4.4e+08	0.05128192	-0.07992617	-4.44085e-05	-7.712536e-05	-0.03920273	-0.01551561	-3.937669e-05	-9.578283e-05
	-4.44085e-05	-7.712536e-05	0.04985313	-0.08084112	-2.921267e-05	-6.563704e-05	-0.03929001	-0.01214488
	-0.03920273	-0.01551561	-2.921267e-05	-6.563704e-05	0.05053207	-0.07914179	-1.682546e-05	-4.599854e-05
	-3.937669e-05	-9.578283e-05	-0.03929001	-0.01214488	-1.682546e-05	-4.599854e-05	0.0491099	-0.08061017
4.5e+08	0.03514188	-0.08436158	-6.53196e-05	-6.68997e-05	-0.04207096	0.0001268739	-6.096145e-05	-8.322431e-05
	-6.53196e-05	-6.68997e-05	0.03361848	-0.08496878	-4.781145e-05	-5.566572e-05	-0.04185679	0.003585992
	-0.04207096	0.0001268739	-4.781145e-05	-5.566572e-05	0.0343566	-0.08336767	-3.031602e-05	-4.168694e-05
	-6.096145e-05	-8.322431e-05	-0.04185679	0.003585992	-3.031602e-05	-4.168694e-05	0.03278199	-0.08451836
4.6e+08	0.0180678	-0.08448987	-8.397001e-05	-5.12582e-05	-0.04098796	0.01614707	-7.957852e-05	-6.539936e-05
	-8.397001e-05	-5.12582e-05	0.01653701	-0.08476415	-6.439938e-05	-4.10879e-05	-0.04046374	0.01961919
	-0.04098796	0.01614707	-6.439938e-05	-4.10879e-05	0.01729422	-0.08327922	-4.309427e-05	-3.383831e-05
	-7.957852e-05	-6.539936e-05	-0.04046374	0.01961919	-4.309427e-05	-3.383831e-05	0.0156616	-0.0840712
4.7e+08	0.00123414	-0.08012112	-9.89222e-05	-3.075743e-05	-0.03594737	0.03154649	-9.389734e-05	-4.306203e-05
	-9.89222e-05	-3.075743e-05	-0.0002099635	-0.08006247	-7.77627e-05	-2.23418e-05	-0.03512374	0.03495451
	-0.03594737	0.03154649	-7.77627e-05	-2.23418e-05	0.0005217	-0.0786978	-5.418359e-05	-2.257371e-05
	-9.389734e-05	-4.306203e-05	-0.03512374	0.03495451	-5.418359e-05	-2.257371e-05	-0.001063274	-0.07911764
4.8e+08	-0.01415093	-0.07138888	-0.0001088963	-6.348057e-06	-0.02719551	0.04534597	-0.0001027892	-1.731776e-05
	-0.0001088963	-6.348057e-06	-0.01541509	-0.07102407	-8.679073e-05	-2.036797e-07	-0.02610255	0.0486161
