!$
! Info: Touchstone file created by Circ.  Input file=Intel_C2M_200G_11p0in_202208016_staggered.circ
!$
# Hz S RI R 50
0	0.03405744	5.02376e-24	0.0001028757	1.569802e-22	0.0001450121	3.474195e-22	0.0001028693	1.567324e-22
	0.0001028757	1.569803e-22	0.03407009	5.444437e-24	0.0001028799	1.571162e-22	0.0001446171	3.441005e-22
	0.0001450679	3.475424e-22	0.0001028799	1.57118e-22	0.03405244	5.272043e-24	0.0001028714	1.568523e-22
	0.0001028693	1.567342e-22	0.0001446729	3.442223e-22	0.0001028714	1.568523e-22	0.0340681	5.148365e-24
1e+07	0.04160582	0.01073695	1.29616e-05	4.373673e-05	0.002974142	0.007960856	1.779287e-05	3.303571e-05
	1.29616e-05	4.373674e-05	0.04199394	0.01099174	1.469181e-05	7.790654e-05	0.002979972	0.008014758
	0.002974142	0.007960856	1.469181e-05	7.790654e-05	0.04197124	0.0110422	1.317583e-05	4.556799e-05
	1.779287e-05	3.303571e-05	0.002979972	0.008014758	1.317583e-05	4.556799e-05	0.0416404	0.01076911
2e+07	0.05054763	0.01436944	2.263787e-05	3.573723e-05	0.006887569	0.01416095	1.124232e-05	2.46241e-05
	2.263788e-05	3.573726e-05	0.05116549	0.01460519	7.692635e-05	8.355412e-05	0.006900024	0.01426599
	0.006887575	0.01416094	7.692635e-05	8.355412e-05	0.05115015	0.01470787	2.486236e-05	3.840883e-05
	1.124232e-05	2.46241e-05	0.00690003	0.01426598	2.486236e-05	3.840883e-05	0.05060083	0.0144239
3e+07	0.05797072	0.01388601	3.728649e-05	2.64348e-05	0.01254165	0.01892985	1.538123e-05	2.037968e-05
	3.728649e-05	2.643479e-05	0.05874561	0.01401281	0.0001216149	6.498505e-05	0.01256306	0.01908112
	0.01254164	0.01892989	0.0001216149	6.498505e-05	0.05874177	0.01417409	4.098799e-05	2.883557e-05
	1.538123e-05	2.037968e-05	0.01256305	0.01908116	4.098799e-05	2.883556e-05	0.0580481	0.01396342
4e+07	0.06393829	0.01130549	4.657623e-05	1.461768e-05	0.01942224	0.02163751	2.122365e-05	1.345164e-05
	4.657623e-05	1.461768e-05	0.06481294	0.01128221	0.0001514279	3.444464e-05	0.01945211	0.02182909
	0.01942225	0.02163753	0.0001514279	3.444464e-05	0.06483369	0.01149289	5.139018e-05	1.632101e-05
	2.122365e-05	1.345163e-05	0.01945211	0.02182911	5.139018e-05	1.632101e-05	0.06405034	0.01139145
5e+07	0.0685683	0.007457325	5.097364e-05	1.63239e-06	0.02685104	0.02205392	2.421709e-05	5.970185e-06
	5.097364e-05	1.632388e-06	0.06949138	0.007263504	0.0001676199	-2.161838e-06	0.02688606	0.02228007
	0.02685104	0.02205392	0.0001676199	-2.161839e-06	0.06954184	0.007513238	5.657523e-05	2.37483e-06
	2.421709e-05	5.970184e-06	0.02688607	0.02228008	5.657523e-05	2.374829e-06	0.06871722	0.007538585
6e+07	0.07193186	0.002834421	5.095502e-05	-1.123515e-05	0.03412458	0.02011412	2.459976e-05	-1.349939e-06
	5.095502e-05	-1.123515e-05	0.07285634	0.002463457	0.0001711798	-4.072875e-05	0.03415877	0.02037038
	0.03412458	0.0201141	0.0001711798	-4.072875e-05	0.07293765	0.00274108	5.703223e-05	-1.162523e-05
	2.459976e-05	-1.349937e-06	0.03415877	0.02037036	5.703223e-05	-1.162523e-05	0.07211655	0.002898212
7e+07	0.07413799	-0.002185268	4.71126e-05	-2.291039e-05	0.04054577	0.0159595	2.275073e-05	-7.88896e-06
	4.71126e-05	-2.291039e-05	0.075021	-0.002729669	0.0001631352	-7.806087e-05	0.04057098	0.01624374
	0.04054577	0.01595949	0.0001631352	-7.806086e-05	0.07512989	-0.00243546	5.336081e-05	-2.45401e-05
	2.275073e-05	-7.888959e-06	0.04057098	0.01624374	5.336081e-05	-2.45401e-05	0.07435413	-0.002151596
8e+07	0.07534853	-0.007337258	4.016811e-05	-3.257912e-05	0.04548657	0.009925725	1.912631e-05	-1.316718e-05
	4.016811e-05	-3.257912e-05	0.0761511	-0.008043611	0.0001447949	-0.0001115766	0.04549335	0.01023899
	0.04548657	0.009925728	0.0001447949	-0.0001115766	0.07628018	-0.007742449	4.624999e-05	-3.549478e-05
	1.912631e-05	-1.316718e-05	0.04549335	0.010239	4.624999e-05	-3.549478e-05	0.07558868	-0.007345443
9e+07	0.07574501	-0.01246686	3.081198e-05	-3.969926e-05	0.04843908	0.002514586	1.418997e-05	-1.685874e-05
	3.081198e-05	-3.969926e-05	0.07643042	-0.01331816	0.0001174032	-0.0001393457	0.0484179	0.002861582
	0.04843909	0.002514586	0.0001174031	-0.0001393457	0.0765686	-0.01301613	3.637318e-05	-4.389637e-05
	1.418997e-05	-1.685874e-05	0.04841791	0.002861582	3.637318e-05	-4.389638e-05	0.07599845	-0.01252662
1e+08	0.07556519	-0.01749586	1.883267e-05	-4.406483e-05	0.04905462	-0.005650841	7.962286e-06	-1.877845e-05
	1.883267e-05	-4.406483e-05	0.07608454	-0.01847544	7.904234e-05	-0.0001605673	0.04899715	-0.005261531
	0.04905462	-0.005650841	7.904234e-05	-0.0001605673	0.0762186	-0.01817349	2.337218e-05	-4.954074e-05
	7.962286e-06	-1.877845e-05	0.04899715	-0.005261531	2.337218e-05	-4.954074e-05	0.07581945	-0.01761402
1.1e+08	0.07469875	-0.02283239	7.360072e-06	-4.078323e-05	0.04714965	-0.01385138	2.507395e-06	-1.67018e-05
	7.360073e-06	-4.078323e-05	0.07502198	-0.02383302	3.769162e-05	-0.000156108	0.04705022	-0.01340743
	0.04714965	-0.01385138	3.769162e-05	-0.000156108	0.07512281	-0.02358231	1.042047e-05	-4.66781e-05
	2.507395e-06	-1.67018e-05	0.04705022	-0.01340743	1.042047e-05	-4.66781e-05	0.07491549	-0.02306932
1.2e+08	0.07296897	-0.02800534	-2.153342e-07	-3.594457e-05	0.04282663	-0.02130565	-7.393265e-07	-1.396055e-05
	-2.153336e-07	-3.594457e-05	0.07314012	-0.02899087	1.104645e-05	-0.0001440653	0.04268373	-0.0207926
	0.04282663	-0.02130565	1.104645e-05	-0.0001440653	0.07317996	-0.02872276	1.636561e-06	-4.190303e-05
	-7.393262e-07	-1.396055e-05	0.04268372	-0.0207926	1.636562e-06	-4.190303e-05	0.07311041	-0.02829542
1.3e+08	0.07052602	-0.03296972	-3.760488e-06	-3.060825e-05	0.03636592	-0.02735185	-2.95372e-06	-1.114845e-05
	-3.760487e-06	-3.060825e-05	0.0705702	-0.03392088	2.776506e-06	-0.0001290173	0.03618277	-0.02675406
	0.03636592	-0.02735185	2.776507e-06	-0.0001290173	0.07056592	-0.03360265	-2.295385e-06	-3.636731e-05
	-2.95372e-06	-1.114845e-05	0.03618276	-0.02675406	-2.295384e-06	-3.636731e-05	0.07059776	-0.0332824
1.4e+08	0.0673842	-0.03769081	-3.908836e-06	-2.537838e-05	0.02822601	-0.03141541	-4.318531e-06	-8.348457e-06
	-3.908835e-06	-2.537838e-05	0.06732179	-0.03859505	-4.669567e-06	-0.0001143398	0.02801108	-0.03071765
	0.02822601	-0.03141541	-4.669566e-06	-0.0001143398	0.06728969	-0.03821924	-2.991363e-06	-3.087699e-05
	-4.318531e-06	-8.348458e-06	0.02801108	-0.03071765	-2.991363e-06	-3.087699e-05	0.06738891	-0.03801807
1.5e+08	0.06352017	-0.04210481	-3.680554e-06	-2.086987e-05	0.0190129	-0.03306391	-3.501684e-06	-5.865578e-06
	-3.680553e-06	-2.086987e-05	0.06336848	-0.04295369	-1.050724e-05	-9.984198e-05	0.01877995	-0.03225309
	0.0190129	-0.03306391	-1.050724e-05	-9.984198e-05	0.06331662	-0.04251919	-3.142272e-06	-2.590187e-05
	-3.501684e-06	-5.865578e-06	0.01877995	-0.03225309	-3.142272e-06	-2.590187e-05	0.0634506	-0.04244086
1.6e+08	0.05890023	-0.04610631	-2.897746e-06	-1.688232e-05	0.009437131	-0.0320455	-2.187708e-06	-3.940201e-06
	-2.897746e-06	-1.688232e-05	0.05867417	-0.04689384	-1.451958e-05	-8.568489e-05	0.009204558	-0.03111245
	0.009437131	-0.0320455	-1.451958e-05	-8.568489e-05	0.05860615	-0.04639828	-2.81013e-06	-2.153049e-05
	-2.187708e-06	-3.940201e-06	0.009204558	-0.03111245	-2.81013e-06	-2.15305e-05	0.05874425	-0.04643892
1.7e+08	0.053504	-0.04954435	-1.609306e-06	-1.349516e-05	0.0002610268	-0.0283131	-8.319465e-07	-2.553642e-06
	-1.609306e-06	-1.349516e-05	0.05321691	-0.05026534	-1.663652e-05	-7.210715e-05	5.077004e-05	-0.02725409
	0.000261027	-0.0283131	-1.663652e-05	-7.210715e-05	0.05313674	-0.04970378	-1.929322e-06	-1.771105e-05
	-8.319465e-07	-2.553643e-06	5.077032e-05	-0.02725409	-1.929322e-06	-1.771105e-05	0.05325132	-0.04985246
1.8e+08	0.04734791	-0.05222599	6.669502e-08	-1.07881e-05	-0.007759199	-0.02203338	6.522582e-07	-1.615678e-06
	6.6695e-08	-1.07881e-05	0.04701209	-0.05287642	-1.690442e-05	-5.937939e-05	-0.007923367	-0.02085144
	-0.007759198	-0.02203338	-1.690442e-05	-5.937939e-05	0.04692689	-0.05224277	-5.992398e-07	-1.452733e-05
	6.522582e-07	-1.615678e-06	-0.007923367	-0.02085144	-5.992398e-07	-1.452733e-05	0.04699506	-0.05248148
1.9e+08	0.04050548	-0.05392903	1.988122e-06	-8.807244e-06	-0.01393235	-0.01357975	2.173485e-06	-1.143472e-06
	1.988122e-06	-8.807244e-06	0.04013302	-0.05450509	-1.546205e-05	-4.777073e-05	-0.01402693	-0.01228531
	-0.01393235	-0.01357975	-1.546205e-05	-4.777073e-05	0.04005399	-0.05379477	1.050714e-06	-1.203552e-05
	2.173485e-06	-1.143472e-06	-0.01402693	-0.01228531	1.050714e-06	-1.203552e-05	0.04005916	-0.05410013
2e+08	0.03312413	-0.05442161	3.995207e-06	-7.567157e-06	-0.0176877	-0.003508523	3.629752e-06	-1.132005e-06
	3.995207e-06	-7.567157e-06	0.03272774	-0.05491978	-1.252651e-05	-3.752562e-05	-0.01769178	-0.002119497
	-0.0176877	-0.003508522	-1.252651e-05	-3.752562e-05	0.03266852	-0.05413252	2.870673e-06	-1.026298e-05
	3.629752e-06	-1.132005e-06	-0.01769178	-0.002119496	2.870673e-06	-1.026298e-05	0.03260175	-0.05447746
2.1e+08	0.02543382	-0.05348933	5.923162e-06	-7.040745e-06	-0.01862224	0.007478872	4.916672e-06	-1.549606e-06
	5.923162e-06	-7.040745e-06	0.02502745	-0.05390685	-8.378024e-06	-2.884305e-05	-0.01851992	0.008937857
	-0.01862224	0.007478872	-8.378024e-06	-2.884305e-05	0.02500268	-0.05304726	4.702026e-06	-9.198787e-06
	4.916672e-06	-1.549606e-06	-0.01851992	0.008937858	4.702026e-06	-9.198787e-06	0.02486362	-0.05340314
2.2e+08	0.01774597	-0.05096361	7.613833e-06	-7.162939e-06	-0.01653649	0.01858623	5.936285e-06	-2.336908e-06
	7.613833e-06	-7.162939e-06	0.01734519	-0.05129924	-3.343871e-06	-2.18627e-05	-0.01631898	0.02008533
	-0.01653649	0.01858623	-3.343871e-06	-2.18627e-05	0.01736789	-0.05037789	6.388592e-06	-8.79561e-06
	5.936285e-06	-2.336908e-06	-0.01631898	0.02008533	6.388592e-06	-8.79561e-06	0.01716518	-0.05071701
2.3e+08	0.01044254	-0.04675219	8.930533e-06	-7.828716e-06	-0.01145558	0.02898154	6.606205e-06	-3.408603e-06
	8.930533e-06	-7.828716e-06	0.01006453	-0.04700719	2.223215e-06	-1.664602e-05	-0.01112285	0.03048785
	-0.01145558	0.02898154	2.223215e-06	-1.664602e-05	0.01014351	-0.04603903	7.78757e-06	-8.969462e-06
	6.606205e-06	-3.408603e-06	-0.01112285	0.03048785	7.78757e-06	-8.969462e-06	0.009894342	-0.04633728
2.4e+08	0.003954756	-0.04086494	9.759953e-06	-8.906597e-06	-0.003632792	0.03785971	6.86816e-06	-4.658147e-06
	9.759953e-06	-8.906597e-06	0.00361779	-0.04104399	7.957162e-06	-1.319487e-05	-0.003194461	0.03933985
	-0.003632792	0.03785971	7.957162e-06	-1.319487e-05	0.003756854	-0.04004691	8.780773e-06	-9.60245e-06
	6.86816e-06	-4.658147e-06	-0.003194461	0.03933985	8.780773e-06	-9.60245e-06	0.003485823	-0.04028624
2.5e+08	-0.00126671	-0.03343325	1.002745e-05	-1.023787e-05	0.006464375	0.04450505	6.694064e-06	-5.965678e-06
	1.002745e-05	-1.023787e-05	-0.001544147	-0.03354528	1.350499e-05	-1.142127e-05	0.006988827	0.0459281
	0.006464375	0.04450505	1.350499e-05	-1.142127e-05	-0.001347948	-0.03253785	9.286251e-06	-1.055104e-05
	6.694064e-06	-5.965678e-06	0.006988827	0.0459281	9.286251e-06	-1.055104e-05	-0.001610751	-0.03270847
2.6e+08	-0.004788933	-0.02471972	9.703133e-06	-1.164997e-05	0.01818471	0.0483481	6.089834e-06	-7.207544e-06
	9.703133e-06	-1.164997e-05	-0.004989341	-0.02477833	1.85358e-05	-1.11703e-05	0.01876674	0.0496885
	0.01818471	0.0483481	1.85358e-05	-1.11703e-05	-0.004744792	-0.02377769	9.256719e-06	-1.165828e-05
	6.089834e-06	-7.207544e-06	0.01876674	0.0496885	9.256719e-06	-1.165828e-05	-0.004966339	-0.0238796
2.7e+08	-0.006236309	-0.0151165	8.803394e-06	-1.296993e-05	0.03073941	0.04901083	5.095159e-06	-8.266734e-06
	8.803394e-06	-1.296993e-05	-0.006344587	-0.01514003	2.276676e-05	-1.221652e-05	0.03134297	0.05025092
	0.03073941	0.04901083	2.276676e-05	-1.221652e-05	-0.006066047	-0.01415979	8.689377e-06	-1.276107e-05
	5.095159e-06	-8.266734e-06	0.03134297	0.05025092	8.689377e-06	-1.276107e-05	-0.006213341	-0.01420358
2.8e+08	-0.005330499	-0.005131685	7.389795e-06	-1.403719e-05	0.04325876	0.046339	3.780108e-06	-9.042785e-06
	7.389795e-06	-1.403719e-05	-0.005335312	-0.005142741	2.597808e-05	-1.428105e-05	0.04384258	0.04747118
	0.04325876	0.046339	2.597808e-05	-1.428105e-05	-0.005041558	-0.004191163	7.625094e-06	-1.370377e-05
	3.780108e-06	-9.042785e-06	0.04384258	0.04747118	7.625094e-06	-1.370377e-05	-0.005084767	-0.004197929
2.9e+08	-0.001926355	0.004637851	5.563885e-06	-1.471581e-05	0.05485575	0.0404167	2.238528e-06	-9.459865e-06
	5.563885e-06	-1.471581e-05	-0.001821452	0.004613113	2.802266e-05	-1.704945e-05	0.05537618	0.04144482
	0.05485575	0.0404167	2.802266e-05	-1.704945e-05	-0.001533157	0.005534031	6.143858e-06	-1.435013e-05
	2.238528e-06	-9.459865e-06	0.05537618	0.04144482	6.143858e-06	-1.435013e-05	-0.001448729	0.005533665
3e+08	0.003960318	0.01354317	3.458447e-06	-1.490416e-05	0.06469093	0.03156237	5.793442e-07	-9.471954e-06
	3.458447e-06	-1.490416e-05	0.004175043	0.01347627	2.883181e-05	-2.019016e-05	0.06510512	0.0325024
	0.06469093	0.03156237	2.883181e-05	-2.019016e-05	0.004437091	0.01437167	4.357598e-06	-1.459296e-05
	5.793442e-07	-9.471954e-06	0.06510512	0.0325024	4.357598e-06	-1.459296e-05	0.004663639	0.01433935
3.1e+08	0.01213598	0.02092923	1.226377e-06	-1.454197e-05	0.07203411	0.02030828	-1.083017e-06	-9.065032e-06
	1.226377e-06	-1.454197e-05	0.01245366	0.02079077	2.841586e-05	-2.337399e-05	0.07230333	0.02118803
	0.07203411	0.02030828	2.841586e-05	-2.337399e-05	0.01267097	0.02167222	2.400296e-06	-1.436141e-05
	-1.083017e-06	-9.065032e-06	0.07230333	0.02118803	2.400296e-06	-1.436141e-05	0.01304278	0.02156445
3.2e+08	0.02222588	0.02618484	-9.718271e-07	-1.361317e-05	0.07631705	0.007363407	-2.637881e-06	-8.255885e-06
	-9.718271e-07	-1.361317e-05	0.0226322	0.02594613	2.686031e-05	-2.62919e-05	0.07640992	0.008221426
	0.07631705	0.007363407	2.686031e-05	-2.62919e-05	0.02279	0.02683175	4.170375e-07	-1.362446e-05
	-2.637881e-06	-8.255885e-06	0.07640992	0.008221426	4.170375e-07	-1.362446e-05	0.02329723	0.02660313
3.3e+08	0.03368504	0.0287949	-2.980304e-06	-1.214508e-05	0.07717374	-0.006435779	-3.986157e-06	-7.088342e-06
	-2.980304e-06	-1.214508e-05	0.03415797	0.02842985	2.431748e-05	-2.867162e-05	0.07706915	-0.00555219
	0.07717374	-0.006435779	2.431748e-05	-2.867162e-05	0.034248	0.02934205	-1.447451e-06	-1.239118e-05
	-3.986157e-06	-7.088341e-06	0.07706915	-0.00555219	-1.447451e-06	-1.239118e-05	0.03486702	0.02894897
3.4e+08	0.04582388	0.0283884	-4.659045e-06	-1.020421e-05	0.07446692	-0.02018304	-5.046224e-06	-5.627846e-06
	-4.659045e-06	-1.020421e-05	0.046334	0.02787554	2.099521e-05	-3.029151e-05	0.07415645	-0.01922061
	0.07446692	-0.02018304	2.099521e-05	-3.029151e-05	0.0463559	0.02883981	-3.059152e-06	-1.070801e-05
	-5.046225e-06	-5.627846e-06	0.07415645	-0.01922061	-3.059152e-06	-1.070801e-05	0.04704961	0.02824448
3.5e+08	0.05784859	0.02477966	-5.892843e-06	-7.889323e-06	0.06829672	-0.03296373	-5.757342e-06	-3.954993e-06
	-5.892843e-06	-7.889323e-06	0.05835969	0.02410429	1.714284e-05	-3.09904e-05	0.06778628	-0.03186658
	0.06829672	-0.03296373	1.714284e-05	-3.09904e-05	0.05832175	0.02514548	-4.303422e-06	-8.653018e-06
	-5.757342e-06	-3.954993e-06	0.06778628	-0.03186658	-4.303422e-06	-8.653018e-06	0.05904083	0.02432006
3.6e+08	0.06891189	0.01799754	-6.597387e-06	-5.322719e-06	0.05899474	-0.04391603	-6.081088e-06	-2.159321e-06
	-6.597387e-06	-5.322719e-06	0.06938247	0.01715395	1.303571e-05	-3.067471e-05	0.05830535	-0.04262968
	0.05899474	-0.04391603	1.303571e-05	-3.067471e-05	0.06930166	0.0182944	-5.091279e-06	-6.328923e-06
	-6.081088e-06	-2.159321e-06	0.05830535	-0.04262968	-5.091279e-06	-6.328923e-06	0.06998723	0.01722482
3.7e+08	0.07817312	0.008301265	-6.722565e-06	-2.640908e-06	0.04710183	-0.0522879	-6.000955e-06	-3.336215e-07
	-6.722565e-06	-2.640908e-06	0.07855837	0.007294784	8.958868e-06	-2.932136e-05	0.0462692	-0.05076335
	0.04710183	-0.0522879	8.958868e-06	-2.932136e-05	0.07845949	0.008550636	-5.363207e-06	-3.854925e-06
	-6.000955e-06	-3.336215e-07	0.0462692	-0.05076335	-5.363207e-06	-3.854925e-06	0.07904697	0.007239902
3.8e+08	0.08486151	-0.00382196	-6.252895e-06	1.43285e-08	0.03333336	-0.05748496	-5.520823e-06	1.430511e-06
	-6.252895e-06	1.43285e-08	0.08511639	-0.00497338	5.1911e-06	-2.697732e-05	0.03240639	-0.05568273
	0.03333336	-0.05748496	5.1911e-06	-2.697732e-05	0.08502952	-0.00359497	-5.090497e-06	-1.358936e-06
	-5.520823e-06	1.430511e-06	0.03240639	-0.05568273	-5.090497e-06	-1.358936e-06	0.08545362	-0.005124622
3.9e+08	0.08833926	-0.01767536	-5.206071e-06	2.503894e-06	0.01853467	-0.0591095	-4.663093e-06	3.046041e-06
	-5.206071e-06	2.503894e-06	0.08842206	-0.01894032	1.989302e-06	-2.375625e-05	0.01757281	-0.05700321
	0.01853467	-0.0591095	1.989302e-06	-2.375625e-05	0.08838048	-0.01744272	-4.274961e-06	1.029462e-06
	-4.663093e-06	3.046041e-06	0.01757281	-0.05700321	-4.274961e-06	1.029462e-06	0.08858105	-0.01914907
4e+08	0.08816048	-0.03239073	-3.629921e-06	4.697884e-06	0.003627706	-0.05698565	-3.46665e-06	4.432994e-06
	-3.629921e-06	4.697884e-06	0.0880372	-0.03372474	-4.26132e-07	-1.983152e-05	0.002697315	-0.05456477
	0.003627706	-0.05698565	-4.26132e-07	-1.983152e-05	0.08807218	-0.03212359	-2.947137e-06	3.185364e-06
	-3.46665e-06	4.432994e-06	0.002697315	-0.05456477	-2.947137e-06	3.185364e-06	0.08800058	-0.0339456
4.1e+08	0.08411804	-0.04698239	-1.598852e-06	6.480611e-06	-0.0104449	-0.05117201	-1.985372e-06	5.520342e-06
	-1.598852e-06	6.480611e-06	0.08376669	-0.04832968	-1.88433e-06	-1.542684e-05	-0.01127492	-0.04844364
	-0.0104449	-0.05117201	-1.88433e-06	-1.542684e-05	0.08390368	-0.04665125	-1.164062e-06	4.993219e-06
	-1.985372e-06	5.520342e-06	-0.01127492	-0.04844364	-1.164062e-06	4.993219e-06	0.0835288	-0.04851232
4.2e+08	0.07627489	-0.06041229	7.899859e-07	7.754465e-06	-0.02277833	-0.04196082	-2.868859e-07	6.247908e-06
	7.899858e-07	7.754465e-06	0.07568948	-0.06170923	-2.274676e-06	-1.080428e-05	-0.02344135	-0.03895014
	-0.02277833	-0.04196082	-2.274676e-06	-1.080428e-05	0.07594447	-0.05998867	9.933029e-07	6.35122e-06
	-2.868859e-07	6.247908e-06	-0.02344135	-0.03895014	9.933029e-07	6.35122e-06	0.0752579	-0.06180189
4.3e+08	0.06497788	-0.07166819	3.42011e-06	8.443136e-06	-0.03256153	-0.02986229	1.54846e-06	6.568653e-06
	3.42011e-06	8.443136e-06	0.06417129	-0.07284813	-1.555836e-06	-6.249034e-06	-0.0329979	-0.02661174
	-0.03256153	-0.02986229	-1.555836e-06	-6.249034e-06	0.06454745	-0.07112594	3.42247e-06	7.175137e-06
	1.54846e-06	6.568653e-06	-0.0329979	-0.02661174	3.42247e-06	7.175137e-06	0.06356689	-0.07280122
4.4e+08	0.05084785	-0.07984181	6.158896e-06	8.49478e-06	-0.03912856	-0.01557769	3.428837e-06	6.45163e-06
	6.158896e-06	8.49478e-06	0.04985313	-0.08084112	2.388429e-07	-2.052802e-06	-0.03929001	-0.01214488
	-0.03912856	-0.01557769	2.388429e-07	-2.052802e-06	0.05033962	-0.07915794	6.001896e-06	7.402244e-06
	3.428837e-06	6.45163e-06	-0.03929001	-0.01214488	6.001896e-06	7.402244e-06	0.0491099	-0.08061017
4.5e+08	0.03474896	-0.08420427	8.861332e-06	7.885486e-06	-0.04200325	4.053577e-05	5.253249e-06	5.885555e-06
	8.861332e-06	7.885486e-06	0.03361848	-0.08496878	2.999655e-06	1.505016e-06	-0.04185679	0.003585992
	-0.04200325	4.053577e-05	2.999655e-06	1.505016e-06	0.03419053	-0.08336079	8.59425e-06	6.995827e-06
	5.253249e-06	5.885555e-06	-0.04185679	0.003585992	8.59425e-06	6.995827e-06	0.03278199	-0.08451836
4.6e+08	0.01773457	-0.084273	1.137459e-05	6.623245e-06	-0.04093306	0.01603864	6.915284e-06	4.882645e-06
	1.137459e-05	6.623245e-06	0.01653701	-0.08476415	6.543646e-06	4.177702e-06	-0.04046374	0.01961919
	-0.04093306	0.01603864	6.543646e-06	4.177702e-06	0.01715758	-0.08325858	1.105084e-05	5.950102e-06
	6.915284e-06	4.882645e-06	-0.04046374	0.01961919	1.105084e-05	5.950102e-06	0.0156616	-0.0840712
4.7e+08	0.0009748635	-0.07986264	1.354453e-05	4.75185e-06	-0.03591096	0.03141975	8.308847e-06	3.481819e-06
	1.354453e-05	4.75185e-06	-0.0002099635	-0.08006247	1.062317e-05	5.770992e-06	-0.03512374	0.03495451
	-0.03591096	0.03141975	1.062317e-05	5.770992e-06	0.0004146772	-0.07867279	1.321812e-05	4.29479e-06
	8.308847e-06	3.481819e-06	-0.03512374	0.03495451	1.321812e-05	4.29479e-06	-0.001063274	-0.07911764
4.8e+08	-0.0143274	-0.07110984	1.522436e-05	2.353389e-06	-0.02718218	0.04520616	9.335712e-06	1.750312e-06
	1.522436e-05	2.353389e-06	-0.01541509	-0.07102407	1.494081e-05	6.160636e-06	-0.02610255	0.0486161
