!$
! Info: Touchstone file created by Circ.  Input file=Intel_C2M_200G_11p0in_202208016_staggered.circ
!$
# Hz S RI R 50
0	0.03407009	5.444437e-24	0.9657329	-9.251054e-24	0.0001446171	3.441005e-22	-0.0002735582	3.350121e-20
	0.9657329	-9.247315e-24	0.03461849	9.669144e-24	-0.0002736139	3.350804e-20	0.000364584	1.323425e-21
	0.0001446729	3.442223e-22	-0.0002737477	3.352443e-20	0.0340681	5.148365e-24	0.9657331	-9.461155e-24
	-0.000273692	3.35176e-20	0.0003646478	1.324364e-21	0.9657331	-9.464907e-24	0.03461992	9.914122e-24
1e+07	0.04199394	0.01099174	0.9475821	-0.1497972	0.002979972	0.008014758	-0.001820132	-0.0008243488
	0.9475821	-0.1497972	0.04268304	0.01056577	-0.001820684	-0.0008237476	0.002730846	0.00810563
	0.002979972	0.008014758	-0.001820684	-0.0008237476	0.0416404	0.01076911	0.9479505	-0.1495517
	-0.001820132	-0.0008243488	0.002730846	0.00810563	0.9479505	-0.1495517	0.04231203	0.01035637
2e+07	0.05116549	0.01460519	0.9077824	-0.2889125	0.006900024	0.01426599	-0.002387397	-0.0006512252
	0.9077824	-0.2889125	0.05379762	0.01308133	-0.002387959	-0.0006486746	0.005924292	0.0147654
	0.00690003	0.01426598	-0.002387972	-0.0006487822	0.05060083	0.0144239	0.9083947	-0.2887101
	-0.002387408	-0.0006513267	0.005924384	0.01476529	0.9083947	-0.2887101	0.05318589	0.01296819
3e+07	0.05874561	0.01401281	0.8503532	-0.4176749	0.01256306	0.01908112	-0.00285493	-0.0002973109
	0.8503532	-0.4176749	0.06357074	0.01011291	-0.002854052	-0.000292379	0.01064236	0.02027076
	0.01256305	0.01908116	-0.002854094	-0.0002923684	0.0580481	0.01396342	0.8511248	-0.4176179
	-0.002854945	-0.0002973126	0.01064234	0.02027073	0.8511248	-0.4176179	0.06283484	0.01019697
4e+07	0.06481294	0.01128221	0.7761208	-0.5354281	0.01945211	0.02182909	-0.003150338	0.0002243048
	0.7761208	-0.5354281	0.07211267	0.003915771	-0.003146283	0.0002308545	0.01641354	0.02430545
	0.01945211	0.02182911	-0.003146287	0.0002308603	0.06405034	0.01139145	0.7769831	-0.5355638
	-0.003150336	0.0002243185	0.01641354	0.02430545	0.7769831	-0.5355638	0.07134201	0.00423359
5e+07	0.06949138	0.007263504	0.6866164	-0.6403642	0.02688606	0.02228007	-0.003232125	0.0008320011
	0.6866164	-0.6403642	0.07896496	-0.004900007	-0.003223819	0.0008383659	0.0228075	0.02664561
	0.02688607	0.02228008	-0.003223816	0.0008383648	0.06871722	0.007538585	0.6875048	-0.6407172
	-0.003232123	0.0008319995	0.0228075	0.02664562	0.6875048	-0.6407172	0.07824339	-0.004346928
6e+07	0.07285634	0.002463457	0.5837463	-0.7307087	0.03415877	0.02037038	-0.003093705	0.001429228
	0.5837463	-0.7307087	0.0836623	-0.01568058	-0.003081073	0.001433198	0.02932879	0.02722581
	0.03415877	0.02037036	-0.003081071	0.001433196	0.07211655	0.002898212	0.5845976	-0.7312862
	-0.003093702	0.001429226	0.02932879	0.02722582	0.5845976	-0.7312862	0.08306251	-0.01491668
7e+07	0.075021	-0.002729669	0.46968	-0.8049011	0.04057098	0.01624374	-0.002768234	0.001929119
	0.46968	-0.8049011	0.08588537	-0.02774852	-0.002752292	0.001928418	0.03549192	0.02612238
	0.04057098	0.01624374	-0.002752273	0.001928352	0.07435413	-0.002151596	0.4704325	-0.8056957
	-0.002768232	0.001929116	0.03549192	0.02612238	0.4704325	-0.8056957	0.08546463	-0.02681778
8e+07	0.0761511	-0.008043611	0.3467891	-0.8616643	0.04549335	0.01023899	-0.00231833	0.002268698
	0.3467891	-0.8616643	0.08546035	-0.04041418	-0.002301199	0.002261644	0.0408568	0.02354175
	0.04549335	0.010239	-0.002301198	0.002261647	0.07558868	-0.007345443	0.3473845	-0.8626567
	-0.00231833	0.002268701	0.0408568	0.02354175	0.3473845	-0.8626567	0.08525894	-0.03937379
9e+07	0.07643042	-0.01331816	0.2175868	-0.9000423	0.0484179	0.002861582	-0.001823951	0.002417009
	0.2175868	-0.9000423	0.08237162	-0.05298624	-0.001808557	0.002402942	0.04506356	0.0198026
	0.04841791	0.002861582	-0.001808551	0.002402949	0.07599845	-0.01252662	0.2179659	-0.901199
	-0.001823946	0.002417018	0.04506356	0.0198026	0.2179659	-0.901199	0.08241317	-0.05190061
1e+08	0.07608454	-0.01847544	0.08458576	-0.919421	0.04899715	-0.005261531	-0.001368573	0.002380921
	0.08458576	-0.919421	0.07682529	-0.06480839	-0.001358672	0.002360622	0.0478606	0.01530381
	0.04899715	-0.005261531	-0.001358672	0.002360621	0.07581945	-0.01761402	0.0846721	-0.9206981
	-0.001368574	0.00238092	0.0478606	0.01530381	0.0846721	-0.9206981	0.07713219	-0.06375076
1.1e+08	0.07502198	-0.02383302	-0.04925118	-0.919035	0.04705022	-0.01340743	-0.001011618	0.002182932
	-0.04925118	-0.919035	0.0689023	-0.07554521	-0.001007569	0.002159841	0.04909368	0.01051539
	0.04705022	-0.01340743	-0.00100757	0.00215984	0.07491549	-0.02306932	-0.04946677	-0.9202763
	-0.001011618	0.002182931	0.04909368	0.01051539	-0.04946677	-0.9202763	0.06940587	-0.07462726
1.2e+08	0.07314012	-0.02899087	-0.1809145	-0.8995643	0.04268373	-0.0207926	-0.0008402523	0.001878401
	-0.1809145	-0.8995643	0.05892161	-0.08426338	-0.0008432299	0.001854796	0.0488066	0.005925472
	0.04268372	-0.0207926	-0.000843231	0.001854795	0.07311041	-0.02829542	-0.1813798	-0.9007186
	-0.0008402534	0.0018784	0.0488066	0.005925473	-0.1813798	-0.9007186	0.05953955	-0.08350134
1.3e+08	0.0705702	-0.03392088	-0.3079032	-0.8615908	0.03618277	-0.02675406	-0.0008834588	0.001564785
	-0.3079032	-0.8615908	0.04759176	-0.09055362	-0.0008931592	0.001543294	0.0471558	0.00196816
	0.03618276	-0.02675406	-0.0008931604	0.001543293	0.07059776	-0.0332824	-0.3085825	-0.8626191
	-0.00088346	0.001564784	0.0471558	0.001968161	-0.3085825	-0.8626191	0.04826468	-0.08994506
1.4e+08	0.06732179	-0.03859505	-0.4277139	-0.8060179	0.02801108	-0.03071765	-0.001131462	0.001338542
	-0.4277139	-0.8060179	0.03561338	-0.0941943	-0.001146094	0.001321253	0.04441467	-0.0009837276
	0.02801108	-0.03071765	-0.001146095	0.001321253	0.06738891	-0.03801807	-0.4285697	-0.8068878
	-0.001131463	0.001338542	0.04441467	-0.0009837273	-0.4285697	-0.8068878	0.03629443	-0.09372039
1.5e+08	0.06336848	-0.04295369	-0.537975	-0.7340782	0.01877995	-0.03225309	-0.001537525	0.001285626
	-0.537975	-0.7340782	0.02369723	-0.095152	-0.001555202	0.001273141	0.04095205	-0.002654058
	0.01877995	-0.03225309	-0.001555203	0.001273141	0.0634506	-0.04244086	-0.5389694	-0.7347671
	-0.001537526	0.001285626	0.04095205	-0.002654057	-0.5389694	-0.7347671	0.02435382	-0.09478423
1.6e+08	0.05867417	-0.04689384	-0.6364954	-0.6473185	0.009204558	-0.03111245	-0.002024724	0.001468948
	-0.6364954	-0.6473185	0.01252463	-0.09357637	-0.002043843	0.001461145	0.03720043	-0.002886342
	0.009204558	-0.03111245	-0.002043844	0.001461145	0.05874425	-0.04643892	-0.637592	-0.64781
	-0.002024725	0.001468948	0.03720043	-0.002886342	-0.637592	-0.64781	0.01313806	-0.09328163
1.7e+08	0.05321691	-0.05026534	-0.7213165	-0.5475795	5.077004e-05	-0.02725409	-0.002496328	0.001919199
	-0.7213165	-0.5475795	0.002704784	-0.08978578	-0.00251581	0.001915694	0.03361821	-0.001658416
	5.077032e-05	-0.02725409	-0.002515811	0.001915694	0.05325132	-0.04985246	-0.7224777	-0.5478628
	-0.002496328	0.001919199	0.03361821	-0.001658415	-0.7224777	-0.5478628	0.00326986	-0.08953123
1.8e+08	0.04701209	-0.05287642	-0.7907506	-0.4369633	-0.007923367	-0.02085144	-0.002848698	0.002630204
	-0.7907506	-0.4369633	-0.005264392	-0.08424257	-0.002867959	0.002630448	0.03065016	0.0009163419
	-0.007923367	-0.02085144	-0.002867959	0.002630448	0.04699506	-0.05248148	-0.7919383	-0.4370341
	-0.002848698	0.002630204	0.03065016	0.0009163421	-0.7919383	-0.4370341	-0.004741723	-0.08399872
1.9e+08	0.04013302	-0.05450509	-0.8434182	-0.317799	-0.01402693	-0.01228531	-0.002984369	0.003558672
	-0.8434182	-0.317799	-0.01102881	-0.07751773	-0.003003139	0.003562338	0.02868819	0.00459911
	-0.01402693	-0.01228531	-0.003003139	0.003562338	0.04005916	-0.05410013	-0.8445972	-0.3176602
	-0.002984369	0.003558672	0.02868819	0.00459911	-0.8445972	-0.3176602	-0.01053319	-0.07726205
2e+08	0.03272774	-0.05491978	-0.8782876	-0.1925974	-0.01769178	-0.002119497	-0.002825069	0.004628689
	-0.8782876	-0.1925974	-0.01439978	-0.07024934	-0.002843331	0.0046357	0.02803644	0.009045996
	-0.01769178	-0.002119496	-0.002843331	0.0046357	0.03260175	-0.05447746	-0.8794214	-0.1922542
	-0.002825069	0.004628689	0.02803644	0.009045996	-0.8794214	-0.1922542	-0.01391092	-0.06996728
2.1e+08	0.02502745	-0.05390685	-0.8947019	-0.06399913	-0.01851992	0.008937857	-0.002321938	0.005740417
	-0.8947019	-0.06399913	-0.01536687	-0.06309595	-0.002339186	0.005751016	0.02888542	0.01383917
	-0.01851992	0.008937858	-0.002339187	0.005751016	0.02486362	-0.05340314	-0.8957569	-0.06346458
	-0.002321938	0.005740418	0.02888542	0.01383917	-0.8957569	-0.06346458	-0.0148609	-0.0627827
2.2e+08	0.01734519	-0.05129924	-0.8923974	0.06528227	-0.01631898	0.02008533	-0.001461238	0.00678129
	-0.8923974	0.06528227	-0.0140934	-0.05668845	-0.001476984	0.006795782	0.03129469	0.01852345
	-0.01631898	0.02008533	-0.001476984	0.006795782	0.01716518	-0.05071701	-0.8933428	0.06599086
	-0.001461238	0.00678129	0.03129469	0.01852345	-0.8933428	0.06599086	-0.01354795	-0.05634815
2.3e+08	0.01006453	-0.04700719	-0.8715156	0.1925201	-0.01112285	0.03048785	-0.0002676784	0.007639119
	-0.8715156	0.1925201	-0.01090311	-0.0515844	-0.0002807034	0.007657716	0.03518865	0.02264624
	-0.01112285	0.03048785	-0.0002807034	0.007657716	0.009894342	-0.04633728	-0.8723243	0.193382
	-0.0002676785	0.007639119	0.03518865	0.02264624	-0.8723243	0.193382	-0.01029916	-0.05122922
2.4e+08	0.00361779	-0.04104399	-0.8326049	0.3150455	-0.003194461	0.03933985	0.001199572	0.008214637
	-0.8326049	0.3150455	-0.006252686	-0.04822814	0.001190406	0.008237187	0.04036423	0.02579774
	-0.003194461	0.03933985	0.001190406	0.008237187	0.003485823	-0.04028624	-0.8332543	0.3160338
	0.001199572	0.008214637	0.04036423	0.02579774	-0.8332543	0.3160338	-0.005576974	-0.04787654
2.5e+08	-0.001544147	-0.03354528	-0.776606	0.4303049	0.006988827	0.0459281	0.002852122	0.008432435
	-0.776606	0.4303049	-0.0006943393	-0.04692055	0.002848239	0.008458171	0.04650945	0.0276452
	0.006988827	0.0459281	0.002848239	0.008458171	-0.001610751	-0.03270847	-0.7770756	0.4313905
	0.002852122	0.008432435	0.04650945	0.0276452	-0.7770756	0.4313905	5.90206e-05	-0.04659445
2.6e+08	-0.004989341	-0.02477833	-0.7048239	0.5359272	0.01876674	0.0496885	0.004582719	0.008249211
	-0.7048239	0.5359272	0.005166852	-0.04779946	0.004585643	0.008276621	0.05323184	0.02796079
	0.01876674	0.0496885	0.004585643	0.008276621	-0.004966339	-0.0238796	-0.7051012	0.5370762
	0.004582719	0.008249211	0.05323184	0.02796079	-0.7051012	0.5370762	0.005995673	-0.04752226
2.7e+08	-0.006344587	-0.01514003	-0.6188951	0.629775	0.03134297	0.05025092	0.00627739	0.007657227
	-0.6188951	0.629775	0.01072059	-0.05083477	0.006287825	0.007684456	0.06009319	0.02663957
	0.03134297	0.05025092	0.006287824	0.007684456	-0.006213341	-0.01420358	-0.6189734	0.6309548
	0.00627739	0.007657227	0.06009319	0.02663957	-0.6189734	0.6309548	0.01161483	-0.05062789
2.8e+08	-0.005335312	-0.005142741	-0.5207428	0.7099955	0.04384258	0.04747118	0.007827321	0.00668435
	-0.5207428	0.7099955	0.01539638	-0.05583539	0.007845597	0.006708799	0.0666473	0.02370517
	0.04384258	0.04747118	0.007845597	0.006708799	-0.005084767	-0.004197929	-0.5206206	0.7111717
	0.007827321	0.00668435	0.0666473	0.02370517	-0.5206206	0.7111717	0.0163392	-0.05571589
2.9e+08	-0.001821452	0.004613113	-0.4125229	0.7750551	0.05537618	0.04144482	0.009140748	0.005388849
	-0.4125229	0.7750551	0.01870427	-0.06246839	0.009166087	0.005408168	0.07247692	0.01930567
	0.05537618	0.04144482	0.009166087	0.005408168	-0.001448729	0.005533665	-0.4122049	0.776194
	0.009140748	0.005388849	0.07247692	0.01930567	-0.4122049	0.776194	0.01967401	-0.06244746
3e+08	0.004175043	0.01347627	-0.2965659	0.8237653	0.06510512	0.0325024	0.01015107	0.003852465
	-0.2965659	0.8237653	0.02026909	-0.07028901	0.01018184	0.00386434	0.07722749	0.01369735
	0.06510512	0.0325024	0.01018184	0.00386434	0.004663639	0.01433935	-0.2960621	0.8248343
	0.01015107	0.003852465	0.07722749	0.01369735	-0.2960621	0.8248343	0.02124127	-0.07037022
3.1e+08	0.01245366	0.02079077	-0.1753209	0.855299	0.07230333	0.02118803	0.01082281	0.002168873
	-0.1753209	0.855299	0.01985291	-0.07877706	0.01085633	0.002171332	0.08063456	0.007222339
	0.07230333	0.02118803	0.01085633	0.002171332	0.01304278	0.02156445	-0.1746481	0.856267
	0.01082281	0.002168873	0.08063456	0.007222339	-0.1746481	0.856267	0.02080277	-0.078956
3.2e+08	0.0226322	0.02594613	-0.05130152	0.8691901	0.07640992	0.008221426	0.01115262	0.0004323094
	-0.05130152	0.8691901	0.01736746	-0.08737716	0.01118576	0.0004246279	0.0825419	0.0002773949
	0.07640992	0.008221426	0.01118576	0.0004246279	0.02329723	0.02660313	-0.05047814	0.8700335
	0.01115262	0.0004323095	0.0825419	0.0002773949	-0.05047814	0.8700335	0.01827264	-0.08764203
3.3e+08	0.03415797	0.02842985	0.07297339	0.8653324	0.07706915	-0.00555219	0.01116639	-0.001273716
	0.07297339	0.8653324	0.01287468	-0.09554001	0.0111959	-0.001290511	0.08291067	-0.0067183
	0.07706915	-0.00555219	0.0111959	-0.001290511	0.03486702	0.02894897	0.07392208	0.8660294
	0.01116639	-0.001273716	0.08291067	-0.0067183	0.07392208	0.8660294	0.01371788	-0.09587218
3.4e+08	0.046334	0.02787554	0.195019	0.8439665	0.07415645	-0.01922061	0.01091282	-0.002884587
	0.195019	0.8439665	0.006577529	-0.1027609	0.01093557	-0.002909271	0.08182038	-0.01335675
	0.07415645	-0.01922061	0.01093557	-0.002909271	0.04704961	0.02824448	0.1960694	0.8445019
	0.01091282	-0.002884587	0.08182038	-0.01335675	0.1960694	0.8445019	0.007347578	-0.1031372
3.5e+08	0.05835969	0.02410429	0.3124373	0.8056635	0.06778628	-0.03186658	0.010454	-0.004362504
	0.3124373	0.8056635	-0.001200171	-0.1086138	0.01046766	-0.004392246	0.07945848	-0.01927358
	0.06778628	-0.03186658	0.01046766	-0.004392246	0.05904083	0.02432006	0.3135585	0.8060233
	0.010454	-0.004362504	0.07945848	-0.01927358	0.3135585	0.8060233	-0.0005059147	-0.1090085
3.6e+08	0.06938247	0.01715395	0.422944	0.7513023	0.05830535	-0.04262968	0.009854086	-0.005697772
	0.422944	0.7513023	-0.01003892	-0.1127785	0.009857856	-0.005728886	0.0761038	-0.02417452
	0.05830535	-0.04262968	0.009857856	-0.005728886	0.06998723	0.01722482	0.4241087	0.7514793
	0.009854086	-0.005697771	0.0761038	-0.02417452	0.4241087	0.7514793	-0.009415011	-0.1131656
3.7e+08	0.07855837	0.007294784	0.5244095	0.6820483	0.0462692	-0.05076335	0.009168564	-0.006906978
	0.5244095	0.6820483	-0.01945613	-0.1150592	0.009162639	-0.006936009	0.07210302	-0.02785766
	0.0462692	-0.05076335	0.009162639	-0.006936009	0.07904697	0.007239902	0.5255907	0.6820399
	0.009168564	-0.006906978	0.07210302	-0.02785766	0.5255907	0.6820399	-0.0188892	-0.115416
3.8e+08	0.08511639	-0.00497338	0.6148853	0.5993325	0.03240639	-0.05568273	0.008433336	-0.008028025
	0.6148853	0.5993325	-0.02894056	-0.1153954	0.008419992	-0.008051258	0.06784225	-0.03022774
	0.03240639	-0.05568273	0.008419992	-0.008051258	0.08545362	-0.005124622	0.6160531	0.5991385
	0.008433336	-0.008028025	0.06784225	-0.03022774	0.6160531	0.5991385	-0.02840971	-0.1157042
3.9e+08	0.08842206	-0.01894032	0.6926277	0.5048281	0.01757281	-0.05700321	0.007659385	-0.009108817
	0.6926277	0.5048281	-0.03798821	-0.1138638	0.007640878	-0.00912447	0.06371664	-0.0313029
	0.01757281	-0.05700321	0.007640878	-0.00912447	0.08858105	-0.01914907	0.6937575	0.5044542
	0.007659385	-0.009108817	0.06371664	-0.0313029	0.6937575	0.5044542	-0.03746802	-0.1141139
4e+08	0.0880372	-0.03372474	0.7561308	0.4004269	0.002697315	-0.05456477	0.006827225	-0.01019741
	0.7561308	0.4004269	-0.04613739	-0.1106703	0.006807718	-0.01020442	0.06009817	-0.03121245
	0.002697315	-0.05456477	0.006807718	-0.01020442	0.08800058	-0.0339456	0.7571951	0.3998778
	0.006827225	-0.01019741	0.06009817	-0.03121245	0.7571951	0.3998778	-0.04559901	-0.1108596
4.1e+08	0.08376669	-0.04832968	0.8041482	0.2882058	-0.01127492	-0.04844364	0.005890167	-0.01132807
	0.8041482	0.2882058	-0.05300054	-0.1061333	0.005873548	-0.01132709	0.0573059	-0.03018618
	-0.01127492	-0.04844364	0.005873548	-0.01132709	0.0835288	-0.04851232	0.8051228	0.2874913
	0.005890167	-0.01132807	0.0573059	-0.03018618	0.8051228	0.2874913	-0.05241552	-0.1062692
4.2e+08	0.07568948	-0.06170923	0.8357204	0.1704117	-0.02344135	-0.03895014	0.004781013	-0.01250985
	0.8357204	0.1704117	-0.0582914	-0.1006623	0.004770168	-0.01250318	0.05557914	-0.02853759
	-0.02344135	-0.03895014	0.004770168	-0.01250318	0.0752579	-0.06180189	0.8365798	0.169546
	0.004781013	-0.01250985	0.05557914	-0.02853759	0.8365798	0.169546	-0.05763348	-0.1007612
4.3e+08	0.06417129	-0.07284813	0.8501991	0.04941448	-0.0329979	-0.02661174	0.003421506	-0.01371781
	0.8501991	0.04941448	-0.06184496	-0.09472609	0.003418665	-0.0137092	0.05505673	-0.02663625
	-0.0329979	-0.02661174	0.003418665	-0.0137092	0.06356689	-0.07280122	0.85092	0.04841353
	0.003421506	-0.01371781	0.05505673	-0.02663625	0.85092	0.04841353	-0.06109409	-0.09481237
4.4e+08	0.04985313	-0.08084112	0.8472712	-0.07232626	-0.03929001	-0.01214488	0.001738797	-0.01488876
	0.8472712	-0.07232626	-0.06363006	-0.08881905	0.001743939	-0.01488222	0.05576343	-0.02487905
	-0.03929001	-0.01214488	0.001743939	-0.01488222	0.0491099	-0.08061017	0.8478314	-0.07344137
	0.001738797	-0.01488876	0.05576343	-0.02487905	0.8478314	-0.07344137	-0.06277339	-0.08892327
4.5e+08	0.03361848	-0.08496878	0.826978	-0.1923054	-0.04185679	0.003585992	-0.0003196808	-0.01592293
	0.826978	-0.1923054	-0.0637515	-0.08342425	-0.0003082661	-0.01592258	0.05760642	-0.02365517
	-0.04185679	0.003585992	-0.0003082661	-0.01592258	0.03278199	-0.08451836	0.8273579	-0.19351
	-0.0003196808	-0.01592293	0.05760642	-0.02365517	0.8273579	-0.19351	-0.06278585	-0.08358046
4.6e+08	0.01653701	-0.08476415	0.7897287	-0.3080304	-0.04046374	0.01961919	-0.0027712	-0.01669179
	0.7897287	-0.3080304	-0.06244229	-0.07897602	-0.002756669	-0.01670099	0.06038076	-0.02331233
	-0.04046374	0.01961919	-0.002756669	-0.01670099	0.0156616	-0.0840712	0.7899112	-0.3092965
	-0.0027712	-0.01669179	0.06038076	-0.02331233	0.7899112	-0.3092965	-0.06137484	-0.07921875
4.7e+08	-0.0002099635	-0.08006247	0.7363049	-0.4170826	-0.03512374	0.03495451	-0.005584767	-0.01705299
	0.7363049	-0.4170826	-0.06004568	-0.07582482	-0.00557209	-0.01707306	0.06378578	-0.02412393
	-0.03512374	0.03495451	-0.00557209	-0.01707306	-0.001063274	-0.07911764	0.7362774	-0.4183751
	-0.005584767	-0.01705299	0.06378578	-0.02412393	0.7362774	-0.4183751	-0.05889364	-0.07618661
4.8e+08	-0.01541509	-0.07102407	0.6678454	-0.517168	-0.02610255	0.0486161	-0.008677677	-0.01686741
	0.6678454	-0.517168	-0.05698643	-0.07421235	-0.008671746	-0.01689801	0.06745099	-0.02626467
	-0.02610255	0.0486161	-0.008671745	-0.01689801	-0.01618353	-0.06983527	0.6676049	-0.5184525
	-0.008677677	-0.01686741	0.06745099	-0.02626467	0.6676049	-0.5184525	-0.0557768	-0.07471952
4.9e+08	-0.02793675	-0.05813807	0.5858394	-0.6061874	-0.01390834	0.05971801	-0.01191466	-0.01602107
	0.5858394	-0.6061874	-0.05373865	-0.07425048	-0.01192072	-0.01605904	0.07096797	-0.02979255
	-0.01390834	0.05971801	-0.01192072	-0.01605904	-0.0285603	-0.05672917	0.5853847	-0.6074272
	-0.01191466	-0.01602107	0.07096797	-0.02979255	0.5853847	-0.6074272	-0.05250515	-0.07492143
5e+08	-0.03679117	-0.04219472	0.4920756	-0.6822997	0.0007367925	0.06752446	-0.01511961	-0.01444202
	0.4920756	-0.6822997	-0.05078487	-0.07591392	-0.01514113	-0.01448298	0.07392765	-0.03464266
	0.0007367925	0.06752446	-0.01514113	-0.01448298	-0.03721615	-0.04060558	0.4914174	-0.6834539
	-0.01511961	-0.01444202	0.07392765	-0.03464266	0.4914174	-0.6834539	-0.04956606	-0.0767573
5.1e+08	-0.04122828	-0.02423425	0.3886053	-0.7439562	0.01693974	0.07150321	-0.01809087	-0.0121177
	0.3886053	-0.7439562	-0.04857776	-0.07904526	-0.01812943	-0.01215532	0.0759566	-0.04063312
	0.01693974	0.07150321	-0.01812943	-0.01215532	-0.04141321	-0.02251849	0.3877607	-0.7449913
	-0.01809087	-0.0121177	0.0759566	-0.04063312	0.3877607	-0.7449913	-0.04741348	-0.08005792
5.2e+08	-0.04079719	-0.005476735	0.2776835	-0.7899554	0.03369601	0.07136647	-0.02062372	-0.009099561
	0.2776835	-0.7899554	-0.04750418	-0.08336879	-0.02067856	-0.009126768	0.07675076	-0.04748122
	0.03369601	0.07136647	-0.02067856	-0.009126768	-0.04071481	-0.003697996	0.2766749	-0.7908381
